!Keysight Technologies N9923A: A.12.45
!Date: Friday, 10 October 2025 02:31:08
!Timezone: (UTC+08:00) Kuala Lumpur, Singapore
!Model: N9923A
!Serial: MY61181427
!GPS Latitude: 
!GPS Longitude: 
!GPS TimeStamp: 0001-01-01 00:00:00Z
!GPS Seconds Since Last Read: 0
!CHECKSUM:1913947000
!Correction: S11(ON U?)S21(ON U?)S12(ON U?)S22(ON U?)
!S2P File: Measurements:S11,S21,S12,S22:
# Hz S DB R 50
2000000	-29.0521490611611	165.848050984534	-42.8131096383363	32.8581786936605	-44.6496816725415	-53.9868763633704	-0.0601551575626832	-23.1311847950756	
6990000	-24.5684267433677	145.661743585541	-37.333425078699	31.8845400734207	-43.1351869648014	-49.255104450618	-1.07478265985957	-73.7416793726432	
11980000	-28.2707769870248	133.509909495355	-37.4467077328448	-31.0029729636679	-42.9761411542566	-140.944892432856	-2.14688890780052	-110.151707691394	
16970000	-24.706734468016	164.576752961742	-32.574718454276	75.838756775867	-35.1367334000404	9.13828846637147	-3.00967920206404	-139.022925777623	
21960000	-23.0022362861837	178.640068297872	-32.810725690142	84.9904127291472	-44.8166998258346	101.444702678797	-3.69063873137301	-156.619763964462	
26950000	-22.9037594613722	176.206872142441	-45.7613569729666	-135.669893860155	-37.0015108908825	87.4545035571765	-4.23664488312222	-177.152078760217	
31940000	-25.3126621297134	-178.477483671191	-28.4190231018755	105.565246829112	-38.0237542951717	-51.5189937736184	-5.31342936862737	170.08576168712	
36930000	-27.3436122999456	-148.739028862375	-30.0656871753704	131.980609807275	-38.1127212950836	-6.43146638462522	-5.58744489321251	163.376276459769	
41920000	-27.5093030689158	-143.385303294881	-30.6224881667458	-0.783284149200461	-35.0509575936263	-6.79556640967885	-6.97203687439498	158.065717932533	
46910000	-27.5235165679816	177.312893970083	-17.2490494544121	-120.506745363812	-47.6502211605703	146.689904583552	-8.29092232326795	151.138365651863	
51900000	-29.6046308930325	172.93836555129	-8.24937787994503	142.13028022622	-43.5798225706047	-176.162703250741	-9.75843897824905	147.970964004163	
56890000	-26.895340005805	177.762696618826	-0.026784509143704	34.3682674013014	-50.895987571436	-108.144949538345	-8.6865613019299	151.814352187875	
61880000	-23.5923055954256	175.19757823626	7.20747216703221	-77.0422343271497	-43.9942526076955	-173.103208023591	-10.1508049897251	151.099151369754	
66870000	-22.7902067184232	-170.200653431819	11.9931938206677	172.435810573752	-39.5768662389613	31.9509948715051	-9.41387304582672	145.176320900264	
71860000	-24.702475021442	-178.379855627181	15.6279984682076	65.8292655546878	-51.8437455216005	137.743437459955	-9.88330731921583	136.192262874255	
76850000	-21.0499301842219	-164.374088791483	18.1949898887331	-34.8182739659592	-42.0837807189426	11.3251891627386	-11.1718345699769	133.317410242069	
81840000	-24.4156219023404	-168.691521585023	20.4007185546332	-129.844478686835	-46.6153275536972	93.8758535154632	-11.5736987259579	133.316130360568	
86830000	-26.0214324350059	-147.920963088259	22.181430546288	137.120723613454	-39.9584304337666	75.2005127370117	-12.2153972896451	145.840051112524	
91820000	-28.9707570526941	152.52700731561	23.5974749128419	49.2628522054964	-39.4937209543976	71.0799503825646	-13.3693947682321	136.908518101149	
96810000	-29.0675916998895	166.301748360675	24.7757886093146	-37.413641046821	-65.2188186756065	-116.609912551005	-13.1152056782274	136.912315454589	
101800000	-28.4420584613109	172.330875636823	25.5911588963411	-122.712681753237	-42.7373214832793	-101.528582996833	-16.6908471673131	146.853025534575	
106790000	-26.7477971437474	144.898858260811	26.2811765103449	156.308232371314	-48.4450045916637	23.7859111871324	-16.6743763351424	118.367200743797	
111780000	-22.3513960277732	170.94543419787	26.9105739156377	76.1787559733001	-55.0410466212336	-87.3311180270072	-16.4096246825014	134.206033431291	
116770000	-25.3264749729294	179.093940271299	27.1748972649797	-2.21566174068595	-63.9749378329288	-7.51324643316567	-15.2362691966565	137.958850404824	
121760000	-26.4169209403618	166.713576963056	27.7237047675811	-79.0465096036773	-46.6658684308115	-134.969770453103	-15.009748280467	107.236664972574	
126750000	-22.6639311060321	-169.274518585096	27.7701421819067	-154.034048474419	-49.8268421954235	-44.3572861647815	-14.7023111221378	99.8697177548321	
131740000	-22.8888099946837	-175.128277540382	28.0927014874596	130.233498476924	-49.1662768664353	-152.092157975298	-17.0135485502284	119.636880699652	
136730000	-23.7921836801199	-172.220392738839	28.2919886096821	59.4945296644217	-42.0657934207418	-54.9404606847956	-15.4731544543731	96.8153750400774	
141720000	-25.5758646380746	-151.672601446072	28.5289237014165	-12.7147053125852	-45.8426303907584	-8.78366925935435	-16.1607585730093	110.140859620264	
146710000	-27.5495965672028	-167.197087738963	28.5339038552123	-84.9437850409951	-43.1377727978006	-149.169665493115	-17.0151975897107	98.9066758542383	
151700000	-28.2970204070407	172.206512722178	28.7794818091503	-155.238289627851	-39.2006433058829	-126.623001195315	-18.5718094548282	121.103969550987	
156690000	-23.2965381858823	168.575569265466	28.7972433091556	134.102768432908	-43.8234422099849	140.363174764628	-18.0625461686764	94.6071956510202	
161680000	-26.044174783595	154.533490069802	28.9681006938054	64.8888894337657	-39.8055407425889	179.619124068136	-16.662277682592	115.27603110603	
166670000	-24.0569483112664	172.94199941061	29.121808383273	-3.19738246971924	-40.8186089274953	-8.60499610214822	-18.2048162502529	96.6333313520746	
171660000	-23.9266551484066	-176.389274772771	29.1594586543026	-71.5124318403846	-42.1356396249909	-31.4771253908515	-16.7369524673886	120.144429681387	
176650000	-22.990890522804	-142.438777585417	29.1263022215014	-140.34109724227	-41.3548800984741	-23.4385319598483	-17.2638997221416	99.6627547343447	
181640000	-27.7691981650363	-162.190278476951	29.2811114485943	152.611246899387	-46.5673991981803	100.37353295031	-27.6360029681586	72.5731303905386	
186630000	-31.9005611931001	-138.650118787247	29.3609320768193	84.9742220881756	-38.7140910321801	-94.200174771782	-17.4201326725356	123.200253391877	
191620000	-25.6906308081965	-167.758823184016	29.4032877182505	18.2775806021433	-50.1628645023779	141.035493730515	-13.9878697422586	140.894913858248	
196610000	-25.4988583008322	-173.67260357011	29.3926704704529	-48.9086193788212	-46.4787102632352	-14.2475853443578	-16.8191028620424	113.042736304615	
201600000	-28.296257410173	-150.555107759804	29.4426831721902	-115.225520025362	-39.4072155882392	70.3962720130837	-19.2769363383489	119.882404878288	
206590000	-22.9956259242733	-168.299743653288	29.5727743575397	179.424194863664	-40.9709209053823	159.097257641729	-18.0933596922235	140.183641802621	
211580000	-23.0307330211503	160.658432022219	29.4645990540792	113.947946689774	-43.2336183445502	71.2581417838148	-20.7447235840985	135.085195266422	
216570000	-27.8263538732652	-150.302614282374	29.6151931845332	46.7192970025372	-36.9600174102073	-18.5833164767833	-19.40406221379	116.002681927984	
221560000	-22.1651058446984	-170.535225839281	29.715138395737	-17.9233466648905	-49.7684645553838	10.8952246573932	-18.7461750954507	127.341342762002	
226550000	-20.7241208260877	-140.92167581048	29.6139952920412	-83.6479144261593	-38.9678044344713	49.5736955420626	-18.1151421903737	162.231382387219	
231540000	-25.151807429324	-160.901751852555	29.8436008961668	-148.576664323219	-59.5052380809944	-82.7635493503766	-20.9355553529659	115.735982750381	
236530000	-23.7789353665166	-176.096969227515	29.8045339171636	145.563391771373	-52.402949367241	55.7062902892134	-20.463130682744	139.004961028334	
241520000	-25.5758752019469	-159.370260855962	29.9358198607984	79.5886386640003	-45.5362824269156	-165.282648460984	-19.2995928378947	98.2656608095002	
246510000	-28.0025471253851	144.354583151065	29.8426266833335	15.2976632629566	-45.1842486097232	124.01919239333	-19.0559370425556	111.931366423243	
251500000	-26.4428554587314	143.080303935283	29.9093233226464	-49.7854148375793	-49.0787483706445	158.612444279201	-17.4948971570945	115.697214193086	
256490000	-27.5732739527228	167.117138545274	29.78115605248	-115.00116959943	-47.7183239168027	-65.0247384270721	-18.1504059103057	83.2405254252113	
261480000	-23.5762438149764	164.659164840995	29.7990977621077	-179.443323779985	-48.5033914456448	29.2552761185072	-18.2798081589487	123.68025562833	
266470000	-21.7689714813642	-171.219044493214	29.7993083051473	117.000428003216	-49.1102033507495	-143.402658361921	-26.9424149396054	63.3978349544326	
271460000	-21.2270105532869	-172.899597045343	29.8943193267223	51.2740298933225	-47.3568237940364	-37.7852012231324	-24.6443767279554	65.7864422581195	
276450000	-22.4838856769143	-173.009001981785	30.0134550444349	-12.5293972185708	-42.0995244625215	-43.3461492470436	-18.4602492588892	85.2948290054364	
281440000	-25.2218939671817	-161.297642519959	30.1313877370831	-76.6310068944706	-55.2063233726041	27.9397473539093	-23.7108400902798	77.0798610176061	
286430000	-24.1611898698847	-174.32805334728	30.2611058888334	-141.076031738976	-44.9430121836621	106.292436121734	-17.9494741210197	109.762611052459	
291420000	-24.8266459931586	-169.567533053811	30.1928581238864	154.508714945804	-43.3307176167594	-84.0654498139491	-22.645745382401	91.8089984680044	
296410000	-23.7318110054241	-176.027700571218	30.2218642649939	89.5023962459921	-40.8974317177358	7.88387243517846	-19.3614731921298	127.829977551111	
301400000	-27.0030501124457	147.887516846358	30.3437722257865	24.7269064090391	-41.0981715601144	-20.510803691722	-18.917839478441	102.687088746275	
306390000	-23.7378325377554	158.365887598585	30.3416815281278	-39.5721990661134	-42.2399398089209	27.7799566251258	-23.6229689860759	136.980625635457	
311380000	-25.0774275375988	-178.601144578241	30.2710853666064	-104.569801768735	-42.6714149128345	-3.92483656599223	-23.0912340020313	-175.742071161454	
316370000	-25.009410978809	-169.440362850669	30.3719748020922	-168.412390570827	-38.184153476432	137.899732699159	-22.1070760240677	69.3327778136945	
321360000	-26.3673594722219	-169.157032221378	30.3143288112192	126.07752220963	-40.9785103158236	-125.138475894976	-27.6753447129172	81.8443770086102	
326350000	-21.3942854143773	174.767744382535	30.3741996382232	60.5088605974146	-42.2614336741583	34.4971874689668	-23.8986479807884	-167.633278419257	
331340000	-26.4205274234071	-158.039310744398	30.2610379137519	-2.50056090757453	-45.2083841914965	148.252994242325	-23.8773821907521	169.547029159198	
336330000	-28.6530813786269	155.643587986627	30.24772013368	-68.2075710807245	-50.0802594909164	87.5027629424824	-31.4307535399359	30.4708933798773	
341320000	-24.1304430528323	170.017023786775	30.1999077286293	-132.575283206927	-41.3002358161431	-93.325108074598	-26.3811447861379	179.936452916873	
346310000	-23.6914441975865	169.702215535617	30.2129289878557	162.392639186115	-42.9816186384848	0.0133343505386535	-25.8349672433794	153.099279532728	
351300000	-25.5891848960724	179.3535347557	30.0387151186459	97.2617303275057	-43.2272334714359	87.6085922539855	-19.1888106504156	116.493680596015	
356290000	-21.7924786163176	172.500502585105	29.919178255764	33.362471440103	-66.1866929261951	154.379808348414	-29.3600196964283	-33.5638063759492	
361280000	-22.0505386156545	170.104631942399	29.7392196558462	-30.0071573433308	-48.7914928193754	53.1200351236916	-26.2234030281045	-161.044055578395	
366270000	-19.6041047615222	-173.866729575979	29.775009219559	-94.6603729729566	-44.2698720461187	-46.4336495754528	-27.2378946560944	54.1706682410431	
371260000	-21.3978249834462	178.011441738244	29.7899253486292	-158.42389874561	-38.5737132805467	18.8677133838044	-24.0421311672217	128.595980245508	
376250000	-28.9091801295638	147.686325438663	29.8506813960067	137.577871209139	-39.939817926285	-2.90411006458945	-26.5141238079583	8.69953437920723	
381240000	-27.4630903661994	-146.45144300011	29.8836885062128	72.9726688873464	-44.8917532452268	-136.127118151993	-24.4270743222517	137.990551786864	
386230000	-38.3533375216784	-178.229732538259	30.0077112497169	7.56138697279776	-51.0708702081748	103.793544699489	-25.0946558150432	128.357648164335	
391220000	-31.3286588787562	173.600202811216	29.9031452772172	-57.0903050621317	-43.9333881034826	67.79842460157	-21.5160225984167	-168.51302220142	
396210000	-30.4444329090839	126.582523667685	29.863633633158	-121.695263202119	-51.5799498324442	-127.266527981421	-28.1541487035155	-147.879527600959	
401200000	-18.7328538235807	155.634685847292	29.8623857560686	172.289517168554	-37.4437605051924	108.593567058562	-30.8020855253555	139.731584449756	
406190000	-22.8022546953163	177.280161700896	29.733147265117	106.883918466008	-49.8640871317077	-20.3212868712545	-20.507786161742	-168.445503181933	
411180000	-25.247375530309	-171.329718858087	29.6533081878348	41.9143883096812	-40.1617049431309	156.263135998919	-31.830923219379	88.0282823926921	
416170000	-26.2448740231116	175.644765507165	29.6192697670835	-24.3486044714875	-47.8281208137857	-131.934889175893	-27.7225313003129	161.344043683058	
421160000	-22.1264790638574	-162.07123504699	29.4300674736472	-89.6316777674304	-41.5144023143342	60.9999417383427	-19.0020129328777	96.0810942799456	
426150000	-25.4177341352739	-136.487280156033	29.1737246992032	-156.339727196576	-40.7874753654088	-13.8657969149863	-20.4834930328566	88.5222835045392	
431140000	-29.7252995683425	173.947269528033	29.3521381129929	138.377585534105	-57.9760206578324	99.7372253661983	-18.7916052477123	124.38973885031	
436130000	-27.495027842801	-162.740177085415	29.2768772023997	71.6102963474246	-39.6269186844896	58.0282297350534	-30.3126270644644	93.9210228175555	
441120000	-24.2129075790988	111.936953292624	29.0722433765867	5.10764923948614	-45.0021157833491	-83.9435364672749	-22.7013298629288	122.293645180537	
446110000	-22.2943268263485	-179.045276880141	28.8787175415189	-60.9508029270836	-35.8956227677645	148.578225919267	-25.7073910265068	165.311934773672	
451100000	-30.717723685114	155.631691043639	28.748618953282	-127.34959484969	-37.7364561957657	0.895520991071572	-23.9050112515597	96.7353711817209	
456090000	-23.4920215544419	-175.896376379099	28.7007609371636	163.771109453695	-49.6564898771364	-50.6657289600578	-20.2566193364208	131.259224854751	
461080000	-19.1055926362814	-178.598261774467	28.6571217346867	95.4131644688624	-45.7100999835119	34.7583767581559	-16.6414238198698	126.945450875473	
466070000	-22.1462143622969	-154.411175899829	28.275917118701	26.4274060915202	-49.3700897843425	-167.141767160506	-13.8965331605418	113.183352670604	
471060000	-22.5231977445122	-153.748502828569	27.9636252389819	-43.9646403697497	-59.5925694109109	-70.3015336019	-17.9428185286888	106.454269773636	
476050000	-26.618190889974	-154.221283537677	27.7178060608319	-113.905360268461	-40.187591891391	118.768348939585	-16.6297482089605	138.975390409006	
481040000	-28.321016855552	-153.57264407093	27.081368910468	173.219969129306	-48.5023394040743	-115.022912721396	-22.693598345048	115.959425365476	
486030000	-24.8721519264638	-161.808330513307	26.3081573084215	102.107114425152	-40.661369387029	45.643743382741	-22.7914560517155	132.37630101345	
491020000	-30.598064447706	162.427045251888	25.4043374048757	30.215239362269	-54.7491423857454	-63.2308272362897	-21.2218139916664	84.6281187489767	
496010000	-22.5984045567247	164.447706969288	23.9850238778627	-42.751773770503	-42.2682586260329	-114.10178649954	-18.7318979147028	116.567931825725	
501000000	-23.4408447420783	161.590320767289	22.6330601752879	-114.033208108149	-45.3741105390696	-99.0664169830343	-19.4560144734008	110.599645034396	
505990000	-21.5956548668185	179.738495835598	20.8472417231389	176.890711369561	-43.5977405227086	64.1259455666886	-17.7688086032837	115.445877495857	
510980000	-22.0325589062871	-177.593887312448	18.9271835579754	106.068287105797	-54.2335621303389	-8.61811784636771	-16.1713147703788	106.087901202078	
515970000	-20.6096623796335	-169.53901015282	16.7338873726486	36.6739266702269	-37.0891669567029	-105.776992865577	-18.5926251059198	99.846779043569	
520960000	-20.3019152742934	-167.982735858482	14.5191839546195	-30.1141400503805	-38.6785575121736	-96.0095408590772	-16.9797069812233	95.2292145731282	
525950000	-28.3440666430911	172.102855043027	12.0103451118987	-97.3732807625894	-42.7237447586158	93.0849914757891	-17.5944749146474	100.41565469231	
530940000	-32.9478185056408	-127.276882354541	9.5608940629902	-160.185979095902	-38.1423402814603	98.7345976771968	-16.611675287839	98.0089487456871	
535930000	-27.9938162070902	-166.865732246317	6.82866534222793	134.598451969161	-45.4143605209663	78.805191221502	-17.9025401685754	88.5007111154655	
540920000	-24.5786129546227	116.476589111313	3.99576488558589	73.7950890977108	-35.2621462225175	169.528945464598	-17.5696754504602	81.8191804624502	
545910000	-28.239099286102	163.699259221187	0.995034328549136	14.513246751091	-44.603151348125	150.263606228169	-17.6158983273207	72.5926537908813	
550900000	-25.5731596380583	156.626034059536	-2.45861139330474	-38.5933408041205	-38.4308841603335	74.8280144743064	-16.7037231353087	83.9411271073271	
555890000	-23.1838658962962	-168.225108180684	-5.45141290087797	-86.1958844990087	-43.2574484774016	-96.0172075560323	-16.0253397821406	71.8591847923313	
560880000	-21.2047465089889	-161.499690521654	-7.59723330650319	-131.032859072857	-42.8813118581691	-151.912267090238	-15.2237175213523	67.8714238180112	
565870000	-24.45480649393	-144.133412838843	-8.26907307313627	-170.246462288564	-39.0413424733792	63.5686501343646	-16.5541241634401	58.4514680709351	
570860000	-20.5707715979562	-168.053042589108	-7.91527033118679	143.481627857216	-43.7601026916782	-8.73719537114579	-15.3634807625471	56.8877514727754	
575850000	-26.0383952427201	-143.703821719242	-7.74517812945125	90.9102772297253	-39.4532987307954	-39.2803361515335	-15.583967064924	55.5865805243143	
580840000	-32.173897560608	136.439695021802	-7.60040156741536	32.9686636690502	-46.5004715862093	-157.628403187712	-15.7016894287627	55.6997803990841	
585830000	-29.0199581626143	-161.32001289057	-7.10612483119042	-24.6865144257134	-39.0111219991947	-31.144650276083	-14.3321217012243	64.9803647076473	
590820000	-23.5012542675993	-179.156547998847	-7.60617095478541	-84.8442695766671	-35.8453536675235	99.0801808897364	-14.4808186640145	56.7839832509619	
595810000	-21.1676690566573	177.216996883595	-8.04562872296476	-145.943395283029	-39.5508778237649	173.828356952434	-15.564166604258	58.1005328396178	
600800000	-23.4702569221337	-172.503741971039	-8.67352390175385	152.323602562627	-44.8318826429555	86.5913772114136	-14.324753713762	50.9200621399012	
605790000	-21.7457445082616	-163.68058122528	-8.886943791722	92.309690480544	-47.085077884303	123.796209633745	-14.5218797490253	56.2947114408269	
610780000	-22.2100224860191	-161.68645158491	-10.3107385885228	33.0828425960316	-39.8450773652838	41.8391888531015	-15.5374121891575	53.7007612029993	
615770000	-22.8287046717452	177.288114621793	-11.6768766776338	-24.2745767802744	-37.3898924199328	160.136277190198	-14.2599981263948	54.3286361630062	
620760000	-24.538480695714	-142.96912308184	-13.1967627960622	-78.2028659578992	-43.6977590056951	-124.887801673048	-14.4445130534249	50.2266937879491	
625750000	-24.4631680872631	-159.501217283073	-14.4110827322018	-140.26420880858	-38.3655714962737	-68.6356899477415	-14.5080316196592	51.6972940241773	
630740000	-31.0804880183093	-160.760699811615	-16.1204853092016	170.567267631686	-59.7199782837647	52.5631930117724	-15.3645569055062	47.6935768969536	
635730000	-23.5507301853122	132.74497118647	-17.0507746671309	115.94200288192	-49.4336836181083	82.2129357816127	-14.8564423652282	45.1514108223948	
640720000	-23.3397254088699	138.354590029795	-16.0926377447973	75.1023113924482	-34.2925667589973	-74.0308252866827	-15.6092845219795	45.4060247453381	
