!Keysight Technologies N9923A: A.12.45
!Date: Friday, 10 October 2025 01:53:38
!Timezone: (UTC+08:00) Kuala Lumpur, Singapore
!Model: N9923A
!Serial: MY61181427
!GPS Latitude: 
!GPS Longitude: 
!GPS TimeStamp: 0001-01-01 00:00:00Z
!GPS Seconds Since Last Read: 0
!CHECKSUM:0740294241
!Correction: S11(ON U?)S21(ON U?)S12(ON U?)S22(ON U?)
!S2P File: Measurements:S11,S21,S12,S22:
# Hz S DB R 50
2000000	-27.6705180404161	151.656532630352	-39.9421509674304	-68.5893179888846	-38.8876576416669	62.1152453739705	0.0939936094236146	-23.1003007317554	
6990000	-25.0563309758996	148.191977021599	-44.6686941512512	1.05464245038241	-45.6849079433137	130.265463529622	-1.29343967801019	-73.902663764648	
11980000	-29.9851808149181	130.904823695514	-42.267884315498	10.3539186019284	-56.5775191059901	113.249025871699	-2.19861798624551	-111.00755893268	
16970000	-23.3497970588413	165.905115016935	-37.2963507268306	-152.979994752808	-58.5977475414647	150.384957348422	-2.78396211119346	-139.209076397783	
21960000	-22.5888881414322	170.965952725124	-39.3689562077897	165.548131170244	-40.8284168793738	25.7686323082261	-3.84289334842385	-158.731384755089	
26950000	-21.7692881183181	167.132857629985	-31.8078729176027	-76.1614781306594	-40.2567671723602	88.2165462267998	-4.46197811758132	-176.690640560012	
31940000	-25.400006958612	-167.846068467053	-27.866569340556	179.073947786874	-45.399677450141	-77.4984372902407	-4.65287683868503	170.285847504521	
36930000	-24.0145964728644	-146.447697132965	-28.0323856164751	44.5784577319892	-41.7825082662193	101.797685168035	-6.48597241298611	162.004090816634	
41920000	-27.4881172252716	-159.988287822639	-29.3590493174484	15.9225417488872	-37.5919985803694	-79.7670554275891	-7.10260708052968	160.733495577405	
46910000	-29.1570249914017	164.438396272617	-16.8117049632381	-109.400650423567	-35.9510250428185	39.6066826947415	-8.19248012573942	147.270960814017	
51900000	-26.8807124805615	176.970315130549	-7.78366444989761	139.892689375979	-37.5790868284464	172.075991272133	-9.57032072440447	152.757756678829	
56890000	-26.2403997009561	169.290982493632	0.396631407079648	36.1494123256259	-44.0018481398371	126.396891974097	-9.13516301864865	146.429055588205	
61880000	-23.0728410249269	176.655774115622	7.31316915784878	-76.9930869755253	-44.1658669916729	8.38159898636644	-9.04734517694542	152.811487055595	
66870000	-23.5318231863243	-179.667848438965	12.1814965662209	172.418000720744	-42.3938933974119	-154.230179908978	-9.18032321812244	144.751577437714	
71860000	-24.3463950120937	177.747059901914	15.7243973818237	65.7894691742937	-43.2395332788465	51.3780459034182	-9.29216409522632	139.227394848005	
76850000	-20.7175570469581	-167.544373839115	18.3346194367178	-34.8423911134266	-43.6578165522289	41.1620488565231	-11.409703735849	138.968732300776	
81840000	-24.548553889225	-168.67461663273	20.4666882476685	-130.032016828964	-45.1985528455479	-29.878175919896	-10.8453909723315	125.344317299148	
86830000	-26.2090304704039	-145.880662118023	22.2664404744361	137.527103524945	-39.0580977283424	147.27372664541	-12.6132990312065	134.011495764626	
91820000	-25.7782511220478	176.692010663772	23.6605221006734	49.0632429667767	-40.5686071611565	133.921352892526	-12.8391288973824	140.208104688583	
96810000	-27.4319380237579	161.59615088486	24.8770489055775	-37.1482917096693	-38.2886455077554	163.598289825303	-15.4497773134196	121.407106318298	
101800000	-29.8952142320242	167.8278805405	25.669731799503	-122.179698523614	-68.3201298395103	57.5743142981073	-15.9545720920882	144.145884100166	
106790000	-28.4105080332075	134.364774262743	26.4018658193334	156.441988054118	-38.3765218814793	-89.170388860019	-13.7832462729377	117.374278079479	
111780000	-23.3442030843527	172.801662747101	27.0479103790463	76.2329772890591	-59.6615549914052	69.7520043451523	-16.8887669348194	107.041061921643	
116770000	-23.3966247107806	-172.205014356994	27.267953046778	-2.14589918564153	-39.6861265563654	-26.6024929712601	-15.7101890618293	122.421387213559	
121760000	-24.0248920513908	-176.478096570529	27.7647037776814	-78.8153196032104	-41.92116298331	26.4674478539551	-15.7956083383651	95.328397695994	
126750000	-23.3901005179466	-167.664323127592	27.8638728088573	-153.844717451835	-53.4092544254132	-168.262677688391	-15.2777043535416	109.828771734261	
131740000	-25.6363608555832	-171.584728807527	28.1352148237747	130.542788048481	-52.6993623629638	141.279350462253	-19.1344450199634	103.595388417799	
136730000	-25.2176091428954	-175.49182666268	28.3835217316396	59.6278264064149	-50.266069348551	-156.767956754429	-16.2951142871175	116.52002921874	
141720000	-26.5576222791458	-146.583613258707	28.5889370788152	-12.5273276020539	-52.1616250340093	29.5927058824651	-19.105032558857	105.950460706579	
146710000	-26.5384059244602	-175.181583323895	28.6326804317344	-84.6436024951826	-40.9696173047713	110.670516604973	-15.9604301395519	103.603374742458	
151700000	-29.9108337243305	163.518997389508	28.8378546501972	-155.421149645591	-43.1426316903375	-45.959577336502	-16.2165317767104	103.072147552845	
156690000	-22.1042721341407	171.278567663772	28.9016575397112	134.236492798413	-47.9063512047143	-96.4060940748608	-20.5795080600666	118.842960811084	
161680000	-25.0235396352162	162.844339409975	29.0918211355299	65.1273455741529	-43.5935870043785	138.091919474206	-18.1638690826677	113.510069681539	
166670000	-23.4618471291626	175.686172293463	29.208889310767	-3.19846339601572	-44.2104501907405	74.9351215873439	-18.2434689615202	135.971342931568	
171660000	-22.6335697469738	179.878370768359	29.2720850569242	-71.3270991526289	-40.7754064625068	-31.7585786405997	-16.3316092086476	111.320925824523	
176650000	-23.7200726510825	-148.155417245693	29.2142170570116	-140.454187760987	-42.0977806855716	-68.4530933858967	-19.1104529439143	129.59683730165	
181640000	-24.2094169712004	-158.406693666177	29.3693213307596	152.693686037629	-39.7148629151103	-89.2503489509321	-20.8077609443562	68.316411847256	
186630000	-28.7135130909658	-132.334685096576	29.473202345209	85.3027224940668	-42.8522583567035	-146.802732421242	-21.5765751459846	135.358760661866	
191620000	-25.3147950633657	-161.554827493889	29.5594418524238	18.3306129385946	-45.0439771510587	140.126142088881	-21.8164438538525	92.5931589616767	
196610000	-29.4171894682174	135.515517088174	29.4530261061541	-48.9654727760842	-37.6295846283205	96.7664565132411	-16.7082514260417	119.81082056478	
201600000	-29.0132861090834	-169.723380494328	29.5772747465278	-115.00271054748	-45.1965569624998	25.9644968572576	-18.8274081595261	102.391199793853	
206590000	-22.5659322140514	-175.638339039651	29.6553673723704	179.761969491598	-53.0126759401637	4.73305587842512	-19.2416915801565	97.3419507111332	
211580000	-22.0145974518665	163.678054123529	29.5313517603572	114.086210342503	-42.5246506718802	72.6552204717365	-18.0615751406663	150.852205225535	
216570000	-22.1955871215852	-163.174591401384	29.6670150947171	47.0199133720623	-59.3594751901138	177.285605990966	-18.6457328847755	148.901792872936	
221560000	-24.3786280364707	-168.093331979366	29.8407506446895	-17.8200554369575	-43.3015689647434	77.5687155894132	-26.2696955881237	92.2267225749881	
226550000	-21.2772925463065	-160.882884114007	29.7803896974713	-83.445621155615	-45.4059877370979	-74.0659398709002	-16.5081018535125	139.701425522946	
231540000	-23.455505383042	-158.971941636309	29.9388256541658	-148.434638653131	-48.4763842380769	15.5063754464416	-21.8386090483615	124.368721791011	
236530000	-25.382466360238	-159.897452834077	29.8552818540136	145.436640903027	-43.3336172766517	-65.5743898634107	-32.2521986630432	-153.934636269115	
241520000	-25.9117552794566	-170.077367645321	30.0787577731879	79.796209433749	-45.364078543721	123.628071507297	-18.0122595951006	110.081567007856	
246510000	-30.4860259977192	133.971900274783	29.9057308363645	15.6638382855164	-43.0428859044871	121.264069306707	-24.7431404861619	96.1916501275757	
251500000	-26.286185024092	150.123295084784	29.9598182837963	-49.1746996288658	-43.9720008396202	-151.102831772736	-20.7316753618636	-175.760048545489	
256490000	-29.0878273106348	150.202164188815	29.8821785276433	-114.313834446723	-43.3485868023747	-63.0091351133646	-28.240086460255	144.412419520169	
261480000	-23.8008136937667	175.765926341151	29.8604085272959	-178.666698522734	-46.113633013772	-84.9932276693497	-25.2242421371288	151.10222636135	
266470000	-21.2602092545169	-170.205402824544	29.9900510380778	116.812174951839	-48.7817180448418	-144.262665878049	-19.8408246826548	118.504216280124	
271460000	-20.7886295445239	-164.697480278543	29.995379116065	51.3115728542572	-38.9885873207995	29.1648610677118	-21.8512793368477	84.517806894692	
276450000	-23.3521291662225	-166.279136863521	30.1274434677495	-12.1294775690884	-44.2072730748946	-52.4728570829213	-18.5184495551818	122.475841654366	
281440000	-26.052265604874	-160.80948356902	30.2545193526485	-76.3941243012897	-58.9186934921589	3.63708495296212	-20.9405572807283	145.693397270194	
286430000	-25.9837101387162	-159.920339144516	30.3296975833527	-140.58993960426	-45.5704683219067	-15.7246317549934	-19.1620505123845	82.0810702293105	
291420000	-30.8437220265504	-167.116183187731	30.3064567733694	154.904347083322	-44.8754024564804	47.4420432130809	-26.8773793805567	120.211843639265	
296410000	-25.7288142129479	172.473725391521	30.3074929031225	90.3378650051055	-46.5937399709625	71.695681346359	-25.836564636386	58.795412545258	
301400000	-25.700927170724	-177.043492275057	30.4384236289398	25.2227633623824	-45.5027253644698	172.799187651169	-21.2636705864329	79.1859866474082	
306390000	-22.3163181454811	165.296479852304	30.4512106160398	-39.3070890972048	-52.4761175381256	136.320721623331	-23.8531395535237	121.625225918588	
311380000	-22.1728579392132	175.100912139593	30.3417572010041	-103.646724962626	-47.3240275855273	-132.87364385362	-23.6955505729693	71.2845923480128	
316370000	-23.9374626433496	-160.03477509233	30.4767514247866	-168.298242566033	-43.3299724869415	106.022206651408	-20.1863627040107	107.815822161915	
321360000	-23.7279808410463	-163.879731830682	30.4350273784874	126.365654611475	-49.7684429249763	77.4937410642133	-22.5499940981518	82.4652607052848	
326350000	-26.7701403944348	-173.66861796591	30.482479896867	61.2959546663784	-42.0812038915942	-78.2982620273978	-20.0547414488918	92.9267060294915	
331340000	-27.0289187393689	-156.72449117814	30.3834784619883	-2.04323674902582	-45.3643286844891	108.027384699811	-24.3895257703139	148.572584556696	
336330000	-25.2041549059931	167.204217478515	30.3589269152001	-67.5542815384067	-50.6840267650939	112.66842825431	-19.8012749074715	122.281077347362	
341320000	-26.4300138333362	-175.183777119279	30.3344945832855	-132.040915139595	-48.077284257694	-94.041333222659	-29.6612478744304	103.782989806506	
346310000	-26.7231751496934	177.127987538448	30.3602072908605	162.610268924193	-61.4106664271038	-125.729507268694	-36.2434765416458	146.035854375871	
351300000	-26.4711703989601	168.579602434632	30.1370865174009	97.4914469711109	-45.123059768188	33.3948151085258	-18.5733905083804	141.286159210466	
356290000	-21.8429888171092	170.47429029916	30.073415072843	33.6118481669743	-42.7521899366685	143.150363639254	-37.6760638882833	136.705405159149	
361280000	-21.2941843277493	166.381319551088	29.8803378696082	-30.0006932568618	-47.2746717412894	-179.337958650333	-27.143521188676	-127.924227030909	
366270000	-20.9007911913123	-171.601176467253	29.761908428891	-94.2034702793139	-45.3106808153806	-42.2565438263463	-23.9157762632633	-148.183527171156	
371260000	-22.9588164732941	-146.231962784134	29.8553568271948	-158.165833043507	-46.2299561136821	158.068901861142	-27.4629276091087	-106.807593826867	
376250000	-27.5479175052729	-177.016063824638	30.0351294636535	138.162064427341	-55.4981697298775	77.5669201380423	-27.0087190512323	95.70568298341	
381240000	-26.7707406521005	-136.094218275037	29.9739014116455	73.1283354358933	-51.4362148204857	-26.1908138467642	-25.1841836240906	-175.17063403101	
386230000	-46.8930118976227	51.533860810717	30.0758592333779	8.31616780702439	-43.9672544031966	85.1735537126846	-24.0622313966112	-165.115558669	
391220000	-38.1259105849054	159.760836688783	30.0608650782624	-57.0927544000699	-44.1845828551794	155.853676404125	-23.584445677469	115.528984106928	
396210000	-25.7009365845424	114.889899312174	30.0573867075632	-121.231113268002	-49.0842401714657	-61.6328774695886	-20.2510216071525	143.309520948567	
401200000	-21.0265172197341	147.718822615457	29.9568730605976	172.918576804281	-48.5787321584827	51.5344456998812	-21.3679329241898	155.926685986648	
406190000	-18.1145127367989	177.412031230804	29.881094158689	107.140495632318	-36.810193690827	-126.53634077443	-20.9542265637976	142.569202055561	
411180000	-20.290730103369	-156.135612951746	29.7727473235973	42.1542551618159	-44.4344470750919	-30.226630777139	-32.18243729007	176.706996716183	
416170000	-24.0595116298257	169.121814108141	29.7429527039062	-24.387333667435	-50.2005231011984	-114.011201154997	-26.5448927028684	145.870961176565	
421160000	-21.8923848319218	-160.1231786587	29.5131749444251	-88.7245145349105	-42.9359566054503	53.820078007119	-29.8760697029342	111.741054406355	
426150000	-22.4414203769634	-156.594608188529	29.3809204725063	-155.411000307102	-46.095662259376	97.2402508023144	-19.7491298681812	-170.898956464924	
431140000	-26.6224059610651	-172.932805071339	29.4481128755168	139.524227660007	-45.7891394802643	-139.346587704222	-37.5258051609246	-143.161730128821	
436130000	-23.8068316279248	148.332670953436	29.4336603126839	71.6715429841163	-46.4263391325262	-90.5131798313064	-21.6405541085641	165.964158872471	
441120000	-23.6963483546541	134.361937800906	29.1465533254756	5.77995092528717	-44.6401173572534	-11.4049505742661	-24.6436142140994	58.0923430522047	
446110000	-25.6969928943804	145.686950507691	28.9135563848602	-60.7003200281897	-54.9461365656971	59.8219084170643	-19.8214808943032	138.639881079114	
451100000	-26.1418810251663	141.816121939809	28.8397591895681	-126.932234921761	-40.4757512651979	74.6457918618712	-24.7104874061155	116.673940405081	
456090000	-20.52303786579	-176.181409576492	28.8023799683785	164.119746737683	-40.1520251792484	-79.9689575427017	-16.5260092623575	110.08758473087	
461080000	-19.925683885547	-172.126956405163	28.7198657669931	95.9755888435336	-42.944369875672	21.592311710884	-17.3033558652151	112.717048906891	
466070000	-21.4581884654672	-151.836751977834	28.3894897890299	27.2536076503929	-45.6919092589466	157.272759913715	-14.6023328253495	100.255576039135	
471060000	-20.7627525819247	-159.846036085043	28.147127279682	-43.3424882951559	-41.4629211644126	128.820456768332	-19.2794847836083	113.310100811592	
476050000	-25.5742167994038	-164.598044522918	27.8903161183765	-113.190154037117	-43.4380593143654	119.922304012868	-16.5511668532403	135.202435428767	
481040000	-33.1550783570891	-161.7290913067	27.1999099314514	173.941363359987	-37.4759464704582	144.748914853155	-16.0039530075346	131.615879086366	
486030000	-28.390939180309	155.895728063396	26.5253439629299	102.968977935196	-36.2153661547738	-75.7399343684572	-19.4761367167463	100.939964712836	
491020000	-31.3913985872599	146.997159629805	25.6566483762587	30.8483764067533	-44.6353055465873	127.61259427188	-19.5659013584326	90.2088087613893	
496010000	-22.8442835162476	-178.521834769722	24.2279893601942	-42.2945365100283	-38.5681508205156	-29.5703357152678	-19.9706881670547	103.646668410795	
501000000	-22.8834303473196	161.758880469916	22.8027051578257	-113.432623629831	-48.3718850372186	175.341029746936	-15.5696568701247	118.213825711704	
505990000	-22.3556317961063	-163.55685915584	21.0201001930643	176.994594211802	-37.6132832394809	157.308444248734	-18.1323006003546	118.094592640079	
510980000	-22.0857381336333	-171.868246107905	19.0985389876288	106.615436005656	-49.8309899052549	-118.618525025887	-16.5749679225567	110.462886349036	
515970000	-20.0676528918063	-167.661745432288	16.888228080304	37.1977513790819	-43.1350300022825	-42.1340234745242	-19.0086357237131	107.09038641525	
520960000	-20.8986145281825	-162.337033057173	14.7491041000561	-29.9004253400987	-43.2512435030644	-29.7547981117891	-16.3578994851904	102.762778631155	
525950000	-27.1940853685312	178.12564656118	12.1938034947021	-97.0656355252929	-40.0783927320521	-141.895974175579	-17.6882421794073	108.723346016978	
530940000	-29.4662536263625	-127.898623839687	9.81193127110508	-159.941706099754	-37.8633166017364	-90.2133331962385	-16.4476119178946	97.4752414163676	
535930000	-29.8260397404053	168.747855803916	7.13381567475213	134.533031723287	-35.6543201473535	-16.7652309540923	-16.6157173656447	87.7693572617019	
540920000	-23.5807253793945	135.113124535975	4.1235904223875	72.9132116524764	-42.3051522356973	-8.45795532733935	-18.1404625427304	79.2572334788628	
545910000	-25.8023925929506	172.538014038929	1.27486870892465	14.4940891974132	-36.6472247704967	30.0438257901215	-17.1054327566628	72.7610961775225	
550900000	-27.1290003052698	162.516418914776	-2.18218352097403	-40.1095057975899	-41.333549709444	-1.02066580712173	-16.1708484756104	78.3599990185825	
555890000	-25.8680307994672	-162.188235433	-5.03474294490551	-88.0921841609864	-40.1559830981178	-136.863991893467	-16.5484062141401	69.5318652096771	
560880000	-22.3380513772363	-156.323206321981	-7.50296896543809	-132.301059073932	-38.3269418580998	107.365089284068	-15.4581709176315	67.0560605781523	
565870000	-23.6775205391346	-149.192605886512	-8.16487735497101	-171.72783824982	-50.7729816301663	-130.034209244622	-16.1051154350968	60.2500895701213	
570860000	-21.0034594039276	-172.610250142821	-8.31186203123283	142.867094094009	-45.0605690546183	60.9936209726782	-15.3297339570686	51.913745941461	
575850000	-25.1750349006651	-154.894009856217	-7.23520277647707	88.8811980697629	-55.9514479178259	159.553699478787	-15.5739765997433	51.7611083181986	
580840000	-31.4574754671747	150.065321186029	-7.54551587893082	34.8204361036044	-48.761526425949	3.60568975433874	-15.6788953297691	58.9397233219526	
585830000	-26.0392900924383	-158.099787485868	-7.57699820818139	-22.7970590364736	-35.6853938281192	140.472747583868	-15.0430989967719	65.709758250643	
590820000	-22.1470155724814	-173.162867107314	-7.58927978113964	-82.5427711391329	-44.3177845138498	78.531756166835	-14.4337898640791	55.5366447915386	
595810000	-22.3885458094461	169.223341132955	-8.05387027057335	-145.417774324993	-52.5447384963672	-160.713521463265	-14.7881098423594	65.8168745560427	
600800000	-20.5046962143503	-170.054912542478	-8.77663817308322	153.223767101491	-41.1748761441685	-45.7070430999629	-13.9124377614926	55.700612857103	
605790000	-21.3071003503512	178.764785232833	-9.31275915429418	93.5343450535701	-38.3295558388811	38.5709722054722	-13.7755718487467	51.841750399041	
610780000	-22.8617342306297	-152.941710872176	-10.5427302337586	33.76142371031	-42.7942553093351	31.5510090008924	-14.8538258656181	57.6945269955827	
615770000	-23.2548429314063	177.79585850069	-11.626294582975	-25.256008852573	-44.1155754982321	1.57182426238781	-14.7069188919928	52.2474189125959	
620760000	-26.3901337502471	-135.451104013927	-12.3832408326142	-83.5793441038899	-40.2931420863613	-127.316333495983	-13.8553135840452	52.6949611822664	
625750000	-25.147819289039	-162.311253503108	-13.9529100717442	-135.562154016454	-34.2195962478974	31.3816867620391	-14.5888830605353	49.4517025266452	
630740000	-29.13659652758	-147.888772557462	-16.534366489896	170.536430496786	-33.9432624769768	-69.4321140734543	-15.0447231375758	52.2682523000742	
635730000	-25.5108661259717	133.074773347221	-16.524606186883	126.064354366862	-35.432158054255	-144.906706274895	-15.4301380393636	48.0414021234342	
640720000	-21.7374853265918	158.818028857486	-16.5728880639022	77.2459555620762	-50.5963158408038	150.066671372035	-16.6779623667945	45.0293087520681	
