!Keysight Technologies N9923A: A.12.45
!Date: Friday, 10 October 2025 03:05:27
!Timezone: (UTC+08:00) Kuala Lumpur, Singapore
!Model: N9923A
!Serial: MY61181427
!GPS Latitude: 
!GPS Longitude: 
!GPS TimeStamp: 0001-01-01 00:00:00Z
!GPS Seconds Since Last Read: 0
!CHECKSUM:1582598452
!Correction: S11(ON U?)S21(ON U?)S12(ON U?)S22(ON U?)
!S2P File: Measurements:S11,S21,S12,S22:
# Hz S DB R 50
2000000	-27.1122405452164	169.220859675204	-48.3216634371718	-59.268219102358	-45.1116988167185	107.200599535252	0.0429944503055029	-23.2984197341761	
6990000	-26.4576532439254	136.61688764431	-40.9584831020775	127.9533984992	-39.6295707529002	-157.818009026693	-1.11953805479683	-73.9792100639218	
11980000	-27.935309013597	140.244526060451	-40.3521820233521	-29.9554819545749	-37.2721352980022	159.370902377371	-2.22141290390695	-109.213499405305	
16970000	-23.453501172101	161.026150027349	-49.9682490478765	-105.202986471478	-43.5151428174337	-14.7268773355505	-2.81083654821518	-139.558369469924	
21960000	-21.9788644059874	173.94930352096	-34.0483340305802	-51.5046351208926	-45.1242618032132	148.891577718138	-3.68034420383839	-156.935407843036	
26950000	-21.4984562618534	-178.556795928513	-29.6437079182695	145.664854956704	-38.2143832570434	-94.1903189923329	-4.10045857164646	-179.301520160464	
31940000	-25.6311457611562	167.755677753951	-37.5229897836198	81.556511251552	-45.5591740762944	-148.100753574756	-4.92286279165945	174.052425737065	
36930000	-27.9770040031016	-149.691582509578	-34.6639942122508	-78.5508088484078	-49.8404076872661	-153.74929748776	-6.02706045978817	160.003253806278	
41920000	-26.9705475752391	-155.322618076684	-28.667701037779	-47.974968992642	-45.3806729712716	-178.535047421483	-7.21933186890521	152.824256485095	
46910000	-25.9076913623355	163.11420945913	-18.8170965770345	-110.088321430778	-44.0286733900108	-149.831529397012	-8.30046543972181	150.286663574902	
51900000	-27.2548024161174	162.261104868094	-8.79042370680439	140.410939156189	-41.2115340290604	-72.0604071417315	-9.97495355207115	144.911272355225	
56890000	-26.8681212801703	169.631501940132	0.453444785694271	33.9314259229056	-54.6667940876426	69.4428117697121	-9.07062065168861	144.540314870583	
61880000	-23.4153129040319	178.40783748091	7.18932568771329	-77.8111520964346	-48.1450344038449	14.6601125807343	-10.6209935812939	150.962122019308	
66870000	-23.0405951405055	-173.740564618571	12.0616110935204	171.933196425125	-40.851542626467	-108.457644433632	-9.32033528561003	140.474616665905	
71860000	-25.5294315641734	174.098924977301	15.5866725338726	65.4604514779478	-39.8783971576815	67.1515732247844	-9.97442344073961	141.092674510544	
76850000	-21.8355209656734	-162.984790431568	18.2297826287645	-35.026120189073	-47.4594715355743	62.5552952157172	-11.8194785423524	137.56078800504	
81840000	-24.6076060805842	-168.671319679853	20.3509627257553	-130.207130473126	-55.1557401681869	172.513957940702	-11.0064395226429	134.408388723407	
86830000	-27.2300143377098	-138.370269376529	22.203475336748	137.309187031263	-51.0088459638831	87.992938406109	-13.2031138177544	134.211560513983	
91820000	-28.644029261922	-172.639241058457	23.5639837288652	49.1518715125876	-59.8450581290008	141.171418690986	-11.6231732172033	133.490947360381	
96810000	-27.7672105408595	150.727565104832	24.7679693864077	-37.3134948839523	-56.2605901405789	-152.175242000449	-15.1836266065821	127.163335850482	
101800000	-33.941828197929	174.604167649292	25.5968100216121	-122.238508207154	-43.2119730217805	-164.943263788444	-12.4101936987255	139.914249462332	
106790000	-29.2837547550295	148.764213993449	26.2484369623995	156.311688548885	-53.2871465582192	155.890626166622	-14.8587910699054	125.372100023726	
111780000	-22.9528319013579	-178.793943305471	26.8924267839532	75.9703509872688	-42.412794285465	19.5919766225331	-16.537811355232	125.343482971579	
116770000	-23.3839402406233	175.229810747309	27.1423425739215	-2.61258143004841	-41.6495274231136	-80.1487894481165	-14.4265403334897	114.402761364763	
121760000	-23.5929967110398	178.596110479073	27.6373185401993	-78.6870444076827	-44.3876157980565	-24.7817840695447	-17.4343215672362	138.491273782848	
126750000	-23.1735860418334	-171.590189006034	27.782105014183	-154.105432855316	-42.4435401400522	1.65882284654337	-15.1536503485469	118.230780728348	
131740000	-23.8174248304742	-170.122299134876	28.0840848561552	130.516547103949	-54.8134205248914	164.459216678911	-15.162531000405	119.157074427683	
136730000	-27.1232331427776	175.22340317597	28.3040381735886	59.6850909835712	-44.6596517192903	142.319440312664	-15.3845846639939	114.487230163184	
141720000	-27.0724192140752	-161.880609736012	28.5388435017278	-12.7752217052912	-44.5436877773544	-43.2182213093764	-15.5030439484755	128.100813450104	
146710000	-26.9126217575658	-176.140185593635	28.5611975518617	-84.6981108156451	-45.3351674412995	123.976027025078	-21.5052961623672	116.21397470385	
151700000	-27.9979287663003	163.729687881363	28.7736922678198	-155.193857020662	-52.113537103085	-39.6904539108414	-21.2107308351527	127.654315172015	
156690000	-25.7473656785351	-171.88702318775	28.8045342848574	134.074544185545	-37.6762604544031	23.7348492242244	-15.3856338119085	126.821967170611	
161680000	-26.0888435634646	173.631582849311	28.9548526675521	64.9623054023383	-38.3947747380874	115.274206493049	-17.2092741580293	132.382148125788	
166670000	-23.5473292246815	165.845488016356	29.0771763796087	-3.44753501016396	-38.2595979174996	-76.456079361411	-20.2842475739511	148.265116218547	
171660000	-22.0092541607771	172.18246474884	29.1379067880975	-71.5609459835743	-45.0263761065048	30.8834897034872	-15.005352515884	119.82402442842	
176650000	-27.33417399489	-149.447317512885	29.1557529687479	-140.366030641006	-41.4060469161289	63.1067452487116	-31.5965266144896	122.641923968514	
181640000	-25.0313429742689	-153.68956610691	29.2719816964067	152.61223048582	-51.9828001573564	-29.1009032196215	-21.9570275638638	100.81742481447	
186630000	-29.1427341453165	-147.789133532128	29.3468616954996	85.0111613116169	-47.6865372530938	161.552933199994	-15.6469894365759	118.967060651434	
191620000	-25.0436793359851	-161.865868969306	29.4134195273815	18.289896995637	-45.9825482896512	176.076635390995	-21.2440356364168	109.968549780685	
196610000	-25.9481373489496	-173.640772735104	29.3713734453819	-49.2919961868239	-39.0738903955559	-74.2152839176353	-19.9949132042651	132.898205041085	
201600000	-27.0464602384522	-159.283092408113	29.4811164019951	-115.478529606084	-42.1691733612521	29.3827823123623	-18.7038583613364	100.198290973717	
206590000	-22.1340739224174	-174.806737744851	29.576580970856	179.299068818847	-48.7306078404846	122.352073387756	-27.8719952458952	79.0714464259432	
211580000	-23.2587005218912	172.939883879799	29.4638375908027	114.053957261013	-43.6814552857201	128.699457848333	-15.9397467919292	116.543003468294	
216570000	-24.1309923368026	-163.936175157787	29.6334996745782	47.0374642495674	-48.2569262066253	79.7095415318599	-16.6996463257945	112.883458352167	
221560000	-20.5640970714975	-171.281040266298	29.6920630277265	-17.7431059836247	-40.9292819257085	-119.103730201429	-17.4725397639705	139.639160455481	
226550000	-21.2181554068917	-152.77416090892	29.6518678613102	-83.6900948629697	-46.5697700785997	40.3503290017306	-17.788671311374	139.015148200469	
231540000	-28.9236157685767	-164.925543550302	29.8194756237474	-148.861087093742	-41.2598123826345	-86.2298626796836	-22.1379202393345	116.07443976798	
236530000	-21.9905548663525	-173.352284942114	29.797442435283	145.656979006743	-48.719387038183	160.005408119629	-16.1227054706078	115.891303297891	
241520000	-27.1784727384217	-175.455847833082	29.9487743154242	79.8759845694222	-51.9752264843483	-7.56836133442769	-17.7614401209376	124.89998161263	
246510000	-28.1002638794456	161.537565097577	29.8031358109671	15.4775354395043	-47.4680566762106	-70.7989760023674	-22.0324572798507	98.3122509569704	
251500000	-24.8026300995598	153.316436785032	29.8510707572587	-49.618604638624	-53.2973413920567	21.9522181700335	-27.2262189993443	118.518491101082	
256490000	-27.5857658939331	-170.512010155348	29.7710764767546	-114.635474101908	-45.4829782780598	-174.730173001942	-23.8996498669257	134.97845884664	
261480000	-23.1718572238597	165.811502041099	29.7769809382607	-179.074612202032	-58.3777765481497	33.0201192454809	-21.2773709844964	143.270925378442	
266470000	-22.8333944671371	-173.768698113265	29.875326343011	116.810428259315	-53.5978042203721	-178.55846335635	-19.9278550751707	121.363434780864	
271460000	-21.1690530138579	-166.690863872216	29.9063954705828	50.9377027400659	-44.9681261820543	11.7642044879608	-16.9940976616206	91.9908800783855	
276450000	-23.4773530442142	-155.816892227918	29.9844422441214	-12.5728815799239	-53.2043825125514	1.7460048957011	-17.3330811962082	112.767779125797	
281440000	-25.5874062963122	-155.448383031097	30.1648249336538	-76.5569678448386	-47.550347858965	107.716396549017	-22.3775426617358	142.980263731614	
286430000	-23.1349104487684	-159.724081608072	30.2556055874885	-140.524785488001	-48.110114520683	-101.572304041047	-29.9920281695366	49.188917716192	
291420000	-28.4353298588108	-170.955674310643	30.1616693538204	154.526214025945	-49.8576268946047	110.630171857739	-20.3375423568763	78.8205640848488	
296410000	-27.9597749258883	142.056116631708	30.1984959510605	90.2122623752944	-43.740960470101	-170.346843619476	-24.2288918678913	67.325976968008	
301400000	-24.360114304149	169.833850728642	30.26455745166	24.8678679079536	-47.0617477594411	73.1337990944876	-19.3729738935018	91.3122465521472	
306390000	-24.3723457609721	155.206604508781	30.3131552933316	-39.4767415820037	-47.3989870567778	26.9429100229583	-21.1434368231688	45.8805283499792	
311380000	-22.5253749714822	-178.461635012478	30.2789406137654	-104.092963354702	-49.69239029371	-116.719422856677	-25.5438011355829	27.8080085766401	
316370000	-21.3269494962325	-173.868486339519	30.3639459165773	-168.351629851255	-49.1291955932952	-115.84926087039	-18.9344529974504	82.0649696519443	
321360000	-25.3892091849316	-161.99519877368	30.2934191238173	125.789516197471	-48.3257466721107	-139.17902747059	-24.8080172194112	105.234108855086	
326350000	-26.7292391288884	-171.439483176322	30.3358468821988	60.6687481321948	-39.0213817482254	-83.9121780297117	-23.3117147129073	96.5510181142339	
331340000	-25.6608422597015	-145.316138502838	30.2529462503573	-2.04126722425382	-42.8272804612105	-106.415524466324	-19.7842266971149	107.484860759565	
336330000	-26.0856926642977	174.479279912721	30.2068618335088	-67.8616967182946	-48.7028336750805	-82.1558265762958	-24.2289470237895	127.745486985191	
341320000	-23.611829694661	-173.523571184336	30.2157607381286	-132.622694876747	-41.1427058346065	-19.7573142868059	-29.6620696248722	124.019076147851	
346310000	-25.643286040418	159.694846854639	30.2306166178554	162.386899954442	-50.4103291649519	-45.5623690259659	-22.1031947683024	91.0158722172882	
351300000	-26.7816426632495	-139.080327131474	30.037407323167	96.800284805312	-43.2417518530006	-168.405882630006	-30.8610500144015	97.7280173722612	
356290000	-21.1936317191147	-173.464085745158	29.9339037881937	33.2909167661448	-42.6905953869006	-85.4809068704515	-21.9167849856121	84.8850733940246	
361280000	-24.0282876870931	173.070494101919	29.7854771988727	-29.9055357071811	-46.3303181428496	103.151365885882	-29.0348245096757	118.570525104404	
366270000	-20.1968000214936	-175.904664128667	29.7497498230516	-94.620806946794	-44.512981528065	-41.8905913757166	-36.0986112026373	102.492025179963	
371260000	-24.5799430129205	-141.876692558886	29.73052500236	-158.594349235291	-42.5748896879016	-155.222951829703	-42.1661525393743	-71.1372499631906	
376250000	-22.8182064473191	-168.107956181235	29.9084468365279	138.10934887764	-41.3980993779614	135.66874480004	-28.217598630231	116.890544968407	
381240000	-25.1117297461193	-156.378900673209	29.8844176116412	72.3063907056602	-48.0253576474474	-91.0298637611263	-24.142713739687	87.6449173328845	
386230000	-32.785203347626	-160.403988800656	30.0094348283607	7.72447884105596	-53.788998273201	61.4296044926498	-23.9146482621099	140.027954657183	
391220000	-25.730665538811	124.789723833154	29.8892560756646	-57.1908606842728	-39.8230464653487	-53.0673017426455	-28.939784900868	101.104762015632	
396210000	-25.0628539673092	168.262368484689	29.9882666362394	-121.875231703314	-42.1116018730659	97.9028775003316	-18.0180000302964	141.450446549917	
401200000	-29.2911789662375	163.528555290329	29.8126783643042	172.51124330721	-39.3638608834315	-42.7493468568104	-26.6513861596442	139.483580160046	
406190000	-22.5295536127209	152.438679841201	29.7194155894861	106.745755746713	-40.3978085589162	106.412579542594	-24.0645296931021	151.623426559371	
411180000	-23.4915424509811	-171.721012337097	29.6668693363946	41.9557970067257	-50.8417288060215	-164.252461071181	-20.9836635097064	-174.074190183361	
416170000	-27.8024798906899	-163.600020057087	29.6265768355103	-24.0230838065851	-43.6394216808916	164.053746991675	-22.6990668234289	-149.343377000526	
421160000	-30.1108979409399	-178.048905683701	29.4572952243374	-89.4483124975723	-37.5792785019995	-38.5180155021273	-18.7258567475482	94.2850749712027	
426150000	-22.5886528667007	-156.269360680236	29.2566371673668	-156.088986833519	-45.8192552489814	79.7299924665881	-19.2764294801883	148.501390851941	
431140000	-29.0073946716077	166.7652750796	29.2682262379249	138.245003516283	-51.1805939398331	117.695821360761	-18.4228643532415	87.2441264913146	
436130000	-32.319076530164	143.3276622383	29.2916061096819	71.439258861474	-41.3404747240562	140.876319695345	-21.3875585739338	135.946653623797	
441120000	-22.2123832136608	137.81089052906	29.079626078973	4.85641431385051	-40.2125778502146	-3.03428276701226	-18.8208421653925	120.043570098838	
446110000	-31.632293252604	170.367141728241	28.8801968929352	-61.5846290782079	-44.2024537687695	-115.704670378113	-16.8667764897562	143.246421717589	
451100000	-25.7393113227918	140.660359111186	28.7337541593286	-127.385389200344	-40.7527605787312	75.2636328883267	-24.4896444443777	108.695146857759	
456090000	-21.6938390842743	-167.420787037358	28.6353050153429	163.504176049739	-45.2098918622524	-14.9797107255344	-19.1042052276703	122.197571600056	
461080000	-22.0039569375843	166.010965007091	28.7064357224275	95.2221835312367	-39.871241555886	-144.892163423381	-21.541773795168	172.016145115455	
466070000	-19.5663341280419	-154.839196436141	28.301611564287	26.180592324208	-39.9837237767969	84.2048994145725	-18.4109937336139	122.652806009264	
471060000	-23.2591828780631	-158.159748251919	27.9194731737157	-44.395143643844	-49.9259417278646	24.8552781283412	-14.3718040120357	124.321003221879	
476050000	-30.2823170213408	-150.847155781339	27.6864147831587	-113.771611764118	-35.6754549045707	55.2973303645276	-16.5153573377424	118.607587792143	
481040000	-24.232006619688	-157.360370557448	26.9988108216126	173.217975154571	-36.5756406685003	21.4002675016922	-20.1611560010498	136.023862126145	
486030000	-30.0435744955662	-158.85652010643	26.3055862306975	102.383942360696	-38.572391954154	157.943655607318	-19.5343893269323	108.051632862914	
491020000	-28.4757975002017	159.572429964075	25.4059181171475	30.1917051720802	-48.5751477778069	-36.2956280939062	-20.0424506619649	104.69981364222	
496010000	-22.354894174393	149.544470139372	23.9916835796895	-42.7762503894884	-41.6340244844997	-177.521645067176	-17.5857758102041	116.705353396099	
501000000	-22.8800100891979	166.18066117373	22.6292400275916	-113.742160233726	-53.8805121999458	94.7216263777039	-18.8060297337742	114.794285353261	
505990000	-21.3575209529369	-179.990626836911	20.8077346795214	176.659204838812	-50.3176009709078	-53.8559611913337	-17.814513365615	114.790313169809	
510980000	-24.729710466791	-176.856910853498	18.887363960026	106.308167859977	-38.0019249441393	-30.5014021879157	-17.6993689018793	101.357091095739	
515970000	-21.0140563828935	-172.037090813529	16.6710471084993	36.8783897210876	-44.3318710021229	-35.7280758264218	-17.6548565836232	114.284655075746	
520960000	-21.9087817649676	-165.09514317922	14.546586523081	-30.0669015903176	-42.4487087524616	-151.344137655637	-17.4643462799268	100.507910281533	
525950000	-27.9180881406965	-176.317071560679	11.9872590920819	-97.1423510621961	-48.4952781857836	74.9870754454695	-16.9591301695248	104.387966721257	
530940000	-28.291097071888	-150.830548773454	9.60995861918153	-160.170280459382	-45.3901901552722	-109.21538713845	-17.0616623048581	95.0512220951578	
535930000	-31.3477981704661	-175.370229358621	6.80889487987673	135.149490448515	-55.2062744881469	68.3638771511287	-17.3824976637714	85.9101558006069	
540920000	-24.1415684054036	133.606628337659	3.9556448123729	73.5712365665569	-34.6347942723896	42.5062947356317	-17.8748008760235	77.866332807484	
545910000	-27.0535668503451	166.741311988996	0.976553716731406	15.3614707312889	-38.5679402134445	-142.493474477072	-18.4483151287675	78.5953115353539	
550900000	-24.2392431465936	158.0387950341	-2.34504193666872	-38.4956760416513	-39.0812151852023	43.6205839953289	-16.0876005600555	76.7069620879622	
555890000	-25.1127168889568	-161.905074069923	-5.29005846888369	-85.2005169243641	-45.3488620172058	-121.88936732449	-16.1737550775741	68.0523125881168	
560880000	-21.6902698166001	-157.608501267848	-7.83053310057055	-131.779491320483	-42.0960683796375	-96.0532562967817	-15.3241450784299	63.0651355927443	
565870000	-22.14943875958	-151.582874567921	-8.59787570492377	-169.807299041221	-37.3172483682556	-165.592122584316	-16.9622561717957	56.8074310935312	
570860000	-22.1981731011077	-170.582235450752	-8.22772664169228	142.401146879993	-38.4649014852409	-105.754924902801	-15.289379120217	59.1370198024416	
575850000	-23.8650320946022	-157.500390847103	-7.30601468559251	88.8165281543468	-43.8586878990605	150.003204790481	-15.3129687368034	54.5463747346007	
580840000	-29.7936229247313	177.041208537022	-7.52777881145404	34.8795167747077	-37.8753369686115	-156.072036675677	-15.5701186358187	61.8377645450808	
585830000	-26.184381193117	-146.991049910975	-7.35974184608659	-27.0190328718422	-42.6506438794329	27.5748413573693	-14.6631695832264	66.8193605585907	
590820000	-23.9472039112704	167.058443572901	-7.36886067729282	-85.3905021751724	-51.0112557047736	-84.7534080158453	-14.3356755362812	54.1931665899831	
595810000	-21.6519325286069	165.558487533023	-7.85972023347718	-146.728831440064	-46.8613173988412	48.6898847607617	-15.3254320087858	59.4924028815065	
600800000	-21.6190327649242	179.14511176463	-8.519783296226	152.269388658589	-36.3708266257467	126.078348954358	-13.7019942071376	51.8882316952308	
605790000	-23.3257815102963	-174.810085198023	-8.76512214431522	93.5797404811385	-34.9776033827054	77.8568541515151	-13.8190630665514	54.6324171227589	
610780000	-23.0968993163954	-146.797566773856	-10.0480923949836	30.5754832094413	-41.8448395950795	-58.9438935182114	-14.8675063643627	50.5486206091521	
615770000	-24.4148789174266	179.26699289137	-11.4913083181897	-26.1354794858606	-42.2796005539942	-74.9440170819017	-13.5660951662153	49.6855576385315	
620760000	-24.5713767246028	-153.569858789396	-13.2068334963956	-83.7895987141595	-43.2242710351564	-112.538535983379	-14.3345097837139	53.9205020872865	
625750000	-26.1867539536806	-172.549738043617	-13.5802452381854	-142.235446898145	-44.3245238127082	-36.0634298234788	-14.5185596253879	53.7584232974118	
630740000	-29.8782720714273	-155.496836239634	-14.8541297835057	166.915295442513	-39.3587576701414	-72.2108087431081	-15.9843492549279	47.9584729110917	
635730000	-24.749412707241	141.52238004533	-16.176767732099	122.526582539717	-41.8395380028799	-6.31009362389013	-15.1162266006618	44.5708022233681	
640720000	-24.3694392906919	160.088938244411	-16.6715568095565	77.1133449224433	-37.1822341263167	-5.70277474204901	-16.063531832195	47.2222279351039	
