!Keysight Technologies N9923A: A.12.45
!Date: Friday, 10 October 2025 01:57:10
!Timezone: (UTC+08:00) Kuala Lumpur, Singapore
!Model: N9923A
!Serial: MY61181427
!GPS Latitude: 
!GPS Longitude: 
!GPS TimeStamp: 0001-01-01 00:00:00Z
!GPS Seconds Since Last Read: 0
!CHECKSUM:0572814941
!Correction: S11(ON U?)S21(ON U?)S12(ON U?)S22(ON U?)
!S2P File: Measurements:S11,S21,S12,S22:
# Hz S DB R 50
2000000	-27.2661714598807	179.640570086495	-40.4638936744385	10.3956403831136	-40.6154506888617	-39.6805164122415	0.099030925303396	-23.6576807030499	
6990000	-25.1133870674308	137.269847890004	-40.5546995471782	-149.914305651587	-40.5547609757928	-79.6456044023053	-1.15561656178105	-74.3162256078242	
11980000	-26.9187752182558	138.477884547103	-49.1994675285913	-60.6344129247509	-40.8417210791705	160.21488522703	-2.27715631915312	-111.404070697874	
16970000	-24.7554072974626	156.270353055133	-40.0606604116213	170.934560665489	-47.8177016026329	42.8710966365847	-2.87592980812915	-141.198978871835	
21960000	-22.8046683099093	174.177769629578	-32.6198496830878	63.9506125428224	-40.2345684233655	-48.3774522051827	-3.99088485029321	-158.902675127239	
26950000	-22.4433124520377	177.353137375714	-23.7724281088245	52.233932878198	-39.1869833287746	-44.7905677867658	-4.19080981458537	177.693481872748	
31940000	-23.163077183152	177.854006019211	-32.1038667062319	-158.92695195455	-44.1708676549101	-70.5569613822481	-5.0114304846007	169.749261958185	
36930000	-27.0498558745278	-143.678787864921	-26.1816446679378	142.524534594533	-60.3014212438417	7.91017093811993	-6.10207637539736	162.037945436504	
41920000	-27.1256690988217	-156.638122165229	-34.5083207723264	17.9168901286693	-46.396150410149	-101.947046630364	-7.87898599032446	153.338452713835	
46910000	-27.5737868579364	166.54572718027	-17.625653230841	-115.75160703983	-41.1171457634343	-114.870820470199	-8.95419282954391	151.458165256315	
51900000	-26.2661519740038	179.039648481539	-7.68467318368118	142.333487790897	-43.7989367251274	-99.3762561662443	-9.31216756772862	143.475111213364	
56890000	-29.5736996784879	165.017424210212	0.686807889716859	34.2030246949197	-37.2292350021177	-11.354219681215	-9.58786422702341	147.902150429809	
61880000	-23.3852910068402	-178.52429924005	7.61723690617733	-79.7751055771587	-51.7117773084979	116.308493580818	-8.95270219221952	143.120892266859	
66870000	-23.1007572411832	-173.930968265297	12.4921474985369	169.252399394331	-52.6910961942298	106.916273432869	-9.27787394307756	144.066362061203	
71860000	-24.5404173765813	-171.705302318958	15.9573591490691	63.0129007901242	-47.2386564908713	19.5156713738199	-9.55691803825118	133.381260355794	
76850000	-21.3013799522687	-165.003463602997	18.5243677859094	-36.9887518359964	-55.3250577303535	-79.9125128222629	-12.927582561807	135.287530152385	
81840000	-23.4171670553967	-165.009712480811	20.6332099906148	-131.740969453621	-45.6831458886571	83.9265902069863	-11.629083074195	133.742532742483	
86830000	-24.8242928863791	-140.203884613095	22.4332120215886	135.668415866073	-47.1452690505469	-173.90234858545	-12.8507531708013	138.678274289423	
91820000	-31.6840447706674	166.97810982846	23.8816505831724	47.7579303055312	-49.9040419281617	15.4075509503526	-13.5906355486733	140.725548011562	
96810000	-29.082271621026	156.750537815057	25.0494674139056	-38.9080710032843	-42.8791328728678	-160.521236695596	-12.6841778099367	133.702778318898	
101800000	-28.8910877903578	170.496789574443	25.8787196750587	-123.922459897654	-45.0995468590129	36.8037759335859	-14.3477024012129	128.059612190931	
106790000	-28.6045000573377	151.437250903342	26.4988560391966	155.053312702511	-48.2277664181419	-119.943230905597	-16.2934710776953	136.132832844753	
111780000	-23.8394103002638	168.657058630328	27.1269131584401	75.0688027923836	-43.5336435538724	115.659339911362	-16.764612792554	139.819635447908	
116770000	-25.0939957958845	171.449794069824	27.3885288063123	-3.35762314591928	-54.0321695610793	-150.584291835338	-13.8022517766155	139.130506831781	
121760000	-26.355960616794	-177.324799594187	27.9200143444293	-79.8373279345575	-43.8699777496502	-171.533547397878	-15.7519895599818	129.536580998115	
126750000	-23.1489958779501	-177.448629648681	28.0044738426914	-155.055912649621	-40.3503306753522	8.48113489625439	-17.1069606574217	118.45281962537	
131740000	-23.3445519942505	-171.403848311487	28.3091434974501	129.244389881369	-45.0867228303338	-94.6119775429227	-19.5187618199026	99.6054539963648	
136730000	-26.3106725507703	-166.399624392898	28.5311085187929	58.2548201264394	-46.131675071267	-152.517534571658	-13.7235478219786	110.236333767218	
141720000	-27.0882008277288	-154.905197639709	28.7830861733578	-13.4298746955762	-43.7066924952323	55.7732904738678	-16.4909938742178	135.051689477898	
146710000	-27.8222811286671	-178.475567530241	28.7992139116731	-85.5396418447731	-49.0115607362251	59.5640624589569	-18.5404992882659	129.242407374538	
151700000	-27.8158218809686	147.910391099948	28.9562575740083	-156.177771305496	-43.7100873623735	-12.0818651434302	-15.4119292740938	97.1648190695792	
156690000	-22.2861619729809	174.640219604106	29.055421614279	133.390448604969	-46.1861260193028	171.410131608612	-17.8823846236348	108.391616293341	
161680000	-22.6779822666175	163.91756798941	29.2119001462624	64.0996234476862	-44.9834292112648	-67.2759469566532	-13.7619339784832	107.596298786728	
166670000	-22.8238990810234	170.46107694722	29.3418568589433	-4.08911212351007	-44.9692060426997	-156.36234304305	-17.8315752773343	132.533785174638	
171660000	-20.2726021702631	175.627704355956	29.3941408281976	-72.3314032268244	-41.244949670238	149.465897054494	-18.2975772565866	104.640284179527	
176650000	-24.7272593356963	-142.223981414682	29.3788125569586	-141.328183639286	-39.9026721152086	1.25053013495866	-18.6998626468613	130.131134775142	
181640000	-27.7210804905434	-158.696822702077	29.4997413248081	151.54636183497	-52.4899497851408	99.730046055836	-18.3658514514607	116.535429838092	
186630000	-31.1915715530579	-147.098885067338	29.5401437864638	84.3269544392347	-50.0904231906973	-36.3363303189854	-17.9825479605946	117.255361299163	
191620000	-26.4450175049614	-156.130782738312	29.6672627941812	17.4936336467473	-39.6249833279163	-47.8898130698296	-16.9006798475674	116.943817408659	
196610000	-28.0236622977055	175.789284402989	29.6048540947577	-49.7539039752021	-61.4497068994972	55.0646916973305	-13.887272448312	118.52266411545	
201600000	-29.387904573734	175.338534367395	29.6571339343064	-115.701015442681	-47.1131674985466	-129.162135724853	-17.0213549055149	128.324770123277	
206590000	-22.3078113784587	-172.241743568723	29.7635613267356	178.763073162565	-46.3847131127651	-75.2378226904922	-19.2976038444509	159.114378928041	
211580000	-24.0262457823686	150.580573411073	29.7040762311634	113.513077865428	-45.3990417471215	-21.5342669294156	-18.2008466265856	120.518475445604	
216570000	-21.0810591666799	-150.522229250757	29.8313737524766	45.9877056142603	-39.1051444091512	-138.469167486425	-21.8020150890489	129.297990518511	
221560000	-24.5796836785492	177.384774339619	29.9295615031721	-18.6448545450368	-39.6962548998066	88.0722976120532	-19.5859783113081	132.457264815574	
226550000	-25.2544926953496	-145.981369999608	29.8920505956301	-84.4144575449681	-37.2309931949725	134.775130633473	-21.5788216780123	88.7416618339644	
231540000	-24.9405444439658	-151.51790144941	30.0581911781652	-149.001781158352	-42.3743899444901	-109.907878580468	-16.5275132876685	155.355531243754	
236530000	-24.3494921091115	-157.880689543995	30.0108798351927	145.286511410281	-43.5790388143836	-70.0511992273006	-16.3022104203154	132.810562034394	
241520000	-26.2504729055833	164.463363739007	30.1251186283096	79.792072607762	-38.6046782482201	135.014964305457	-26.7649909359022	157.627233460328	
246510000	-31.1806257055911	166.018694312276	30.0848237262091	15.5613679501178	-42.1438254377422	37.5197955926343	-23.8033146575034	-179.566305171288	
251500000	-26.2314439048225	141.786568804336	30.1950676615441	-50.6177171320337	-44.9352631046426	-163.36742316879	-20.6801481314076	121.504167434204	
256490000	-27.2885968675591	164.89156668885	30.0399484254633	-115.218631384788	-52.9175321308436	-78.1906470559611	-23.6600454257296	-138.879223975628	
261480000	-23.7341653808733	163.851346133722	30.0101702599213	179.85736441589	-44.0611044302836	44.8145984786023	-23.1079365780701	134.000889705277	
266470000	-22.5857489449783	-176.467297778893	30.068695285476	116.129224780944	-49.8600712468361	33.373323523735	-21.303805776073	127.848820777431	
271460000	-22.4732097184982	-171.063527893571	30.1365259175375	50.5882186634781	-43.6889017016519	90.4926053664878	-18.9436269075283	118.070874827654	
276450000	-22.3424575277806	-157.108234085558	30.1783719609744	-12.7711603591091	-44.406105967098	55.2455248421492	-19.4069350084905	94.1373362938282	
281440000	-27.571201192718	-156.865808678858	30.3533189253813	-77.0158272020838	-47.8937438816586	-39.4024218300089	-20.9564253531699	96.2667433254139	
286430000	-24.0107859853743	-175.984469593214	30.563878532462	-141.705510249539	-41.7955054465235	92.56762255989	-15.382678486034	131.181413596387	
291420000	-32.0210133843672	178.795155739817	30.4419109027472	154.315964673631	-43.3754811125127	95.9887552669071	-33.0547950096976	37.8494344810166	
296410000	-23.5790375146763	144.424457229271	30.3974166594601	89.2451228058717	-43.2946251057572	-106.203515101812	-22.0389069523555	85.3839455156719	
301400000	-27.6164689454565	-177.055968233232	30.526866054729	24.3732466107639	-48.4735263617256	-148.270277673719	-19.5724571178311	65.1321187580582	
306390000	-23.9283554005908	160.874339949987	30.5074530420277	-39.9842231301003	-49.3687757320206	16.9357503340346	-20.2307578260361	95.0536842826213	
311380000	-22.3871816923972	-177.234188348267	30.3920919562239	-104.644999208883	-47.5269436835436	-65.5777894811832	-22.3426242125512	94.8196436381526	
316370000	-21.7018329115526	-169.590000553926	30.5540232027718	-168.983262782294	-47.0214269879101	-126.001985267544	-21.467765711695	107.632003038663	
321360000	-23.5184934263456	-157.122421903842	30.5409406804822	125.778320189407	-42.7152381201798	29.3701933489982	-25.289854911177	55.4924658855094	
326350000	-23.2495484217161	172.221930164206	30.5627340959671	59.8628196382044	-42.868296062847	7.11283093501026	-24.8586042967746	-169.988160466182	
331340000	-26.8089606799916	-128.250864893304	30.4954988293162	-2.69074004858943	-45.2648078661544	-88.2837572121515	-28.3435161098337	-169.613224202434	
336330000	-26.1917782938248	162.22954152959	30.4535069808624	-68.0615240817431	-50.2153377099179	111.978081871557	-16.7561541987727	106.601908878842	
341320000	-29.4222459737934	-149.125596726419	30.4581782375034	-132.606117472552	-43.2657722549714	125.453916432813	-35.186395512114	95.4722628949259	
346310000	-26.0295285808933	173.262463186441	30.5194128949418	161.973176668438	-52.116538478732	105.095934918295	-40.3799375365063	80.3855103065147	
351300000	-32.0417060722984	172.157031807154	30.2502303165685	96.8196596314428	-43.3744669170725	-48.020171510766	-19.5383014313067	152.544216051594	
356290000	-22.6083454844299	166.743381691702	30.1624473102868	33.160730406728	-43.8747007954462	101.080170204098	-33.4851506043445	106.427364612547	
361280000	-21.6911071778818	145.002437041743	30.0130016010487	-30.2258642751306	-39.6850148216784	162.345142881956	-27.8852941061671	120.10847175324	
366270000	-21.7421302307143	-135.047347733186	29.9252358855585	-94.5126815843141	-39.9951505752992	98.5288224772262	-23.2859846870576	171.506658006069	
371260000	-25.6534314535588	160.043521531366	30.0740704590128	-158.607954829913	-36.7105728621357	-44.0965594567303	-28.1268657114379	73.4618070664377	
376250000	-26.7161234723618	174.647938783847	30.2135133026809	137.906376174521	-44.8815402873799	33.5381544929765	-18.9635628902604	115.787205488455	
381240000	-22.8500401549562	-160.712904642436	30.1360268292934	72.6447882543878	-40.8119886216124	-152.061046366557	-24.8904621560567	124.960424910278	
386230000	-35.201831278825	-158.21494939453	30.2893776688873	7.61243709575552	-50.785058206305	26.6707095817866	-18.2704554901761	146.755159879258	
391220000	-28.026784357206	161.803110055096	30.1827412765363	-57.2113238291107	-45.1514558578944	20.7158673183645	-20.3388375153393	-169.016830519623	
396210000	-27.5798062371974	-166.762497295796	30.2080335637163	-121.913406578424	-40.2272307156288	145.185582461578	-23.0748172267386	174.097256683984	
401200000	-21.6935387692647	152.860489605851	30.1478412125053	171.787904717264	-47.8240828838381	0.89905630452834	-24.0392972794421	111.278246777349	
406190000	-19.2126648328631	165.126857427095	30.0606905243811	106.015607878437	-39.9195908442452	-172.298233550623	-19.2592771108585	122.291734965441	
411180000	-21.7846150891002	-166.364695482377	30.0058186723215	41.550964399284	-51.0777800676184	-100.646566091656	-25.3394065728576	150.754455633211	
416170000	-19.7680174290363	-171.742985930375	29.9116543508428	-24.9036504866482	-37.8579796727037	33.4395583411565	-26.4140357182123	62.1485452641556	
421160000	-21.4684012158464	-132.875572223053	29.7902917508567	-89.427992905339	-41.6818771096283	167.310822507589	-23.3813537417407	109.308084325742	
426150000	-21.0661949995619	-129.294566876551	29.5192769978695	-156.196206281479	-40.4408126613618	-78.9590731505438	-25.3613824301268	72.5562390516833	
431140000	-31.2611730770606	123.949554798642	29.7355124214984	138.422258746347	-41.318968143244	115.752268859625	-18.3934544608418	152.751827935702	
436130000	-30.2785957640136	134.248075124664	29.6965895445917	71.1315677242604	-43.0838076581895	142.423965229487	-23.1626995975424	145.0224093283	
441120000	-40.6336007094648	168.28689222992	29.5309334465772	4.7877116699401	-38.1357747815852	176.373974434606	-17.43176684152	161.365665883842	
446110000	-24.0092926676103	140.748719165462	29.2707800196008	-61.3354291499635	-42.9088622207035	59.7123448297058	-25.185211459412	87.0502172198919	
451100000	-25.4962490501444	168.214719423563	29.1885125883056	-127.748509284612	-63.8321507913161	-79.1277825390401	-20.3284016116034	95.0388256942241	
456090000	-23.9844124565162	-159.333223725092	29.19110812786	162.926766329455	-41.1750808787692	32.2598312822623	-23.2517119767007	111.688333840242	
461080000	-18.6088467330532	166.466346191688	29.0734623487227	94.7100350182943	-38.1039133339871	-51.3940013569877	-16.4529051102568	93.5788364614825	
466070000	-20.5874380569439	-145.688143265252	28.7208395256531	24.8100325001151	-47.3240089109975	117.363025436875	-15.8669012769846	116.610619160778	
471060000	-23.5759664846134	-156.593693113272	28.5198512026528	-45.9058227715261	-44.2388575432099	29.5473257236493	-23.1825189101297	152.225731245291	
476050000	-23.0910998773789	-138.800009570052	28.1898894176726	-115.25914449729	-39.4810500168172	-12.906424956903	-17.8800137444049	94.0359371127794	
481040000	-27.0772800356691	-170.701718129517	27.573978385444	171.071040069452	-45.9748461331884	-28.8504273362218	-29.1580417787101	123.046689347821	
486030000	-25.6226322616623	-170.281186275117	26.8152953168706	100.051891179639	-48.3910165468737	162.504095276549	-19.2528820180887	119.494188123683	
491020000	-26.1400856008681	141.090568712429	25.8516999078959	27.5020390669494	-45.7992882557269	152.821956419182	-21.9575407631683	123.275506523297	
496010000	-25.5587075358092	139.569817429013	24.4009426195957	-45.3860255912383	-35.2417801022529	57.0496743930605	-17.3513271753577	123.059357332768	
501000000	-22.1134923471642	152.234707747156	22.9959358774524	-116.992223755791	-35.2844852726382	-167.59783439804	-16.8852900147096	124.378757044468	
505990000	-20.2316477978576	-172.854426295641	21.1455559376067	173.757384342629	-43.9936295962988	73.9640824306727	-18.6373379636131	132.476784206968	
510980000	-21.2068003267856	-175.611511453518	19.2526935023159	103.841439251438	-38.3681983599767	48.1311080641662	-15.8937332189862	116.268316921212	
515970000	-21.3771805219798	-159.835952856916	17.036098472235	34.0008770610196	-46.919026871044	-12.8154943419805	-18.181111057683	120.173328089303	
520960000	-20.6990928817656	-164.811617111046	14.9113129174729	-33.1869486689001	-37.7244665018613	-41.0822412242252	-18.3338222400242	102.186739044649	
525950000	-26.7288787754013	160.380840361385	12.379722034009	-100.053736027865	-45.108385752808	37.2061103631589	-16.3530985417103	106.046490146494	
530940000	-26.165098874266	-108.258220279451	9.96184698948846	-163.556567284721	-50.7555906909024	-78.7476630980058	-17.1680972079822	106.243457544315	
535930000	-28.5221752844739	-168.728073319064	7.28975772977292	131.18376093234	-49.5934162413512	55.7846178641937	-17.3011289822887	86.2983062133832	
540920000	-23.732509716611	133.47841693671	4.45059614626291	69.3981944864016	-34.4525815979367	156.634964823171	-16.8028211731667	83.7194416371431	
545910000	-31.6951818525157	164.789875058689	1.519011097327	9.90857512792356	-35.7004021441294	-41.240926146336	-17.6199306822848	76.1095205401315	
550900000	-23.4430905900034	153.077829301975	-1.76227641392342	-45.9079709208385	-36.5651544544125	-39.0279314680262	-16.7269763866757	78.8513483378655	
555890000	-24.6481722608777	-165.746846648379	-5.14543302846136	-95.3795375455113	-45.0368889817755	4.5802980225719	-16.1408182176301	70.1152242235514	
560880000	-21.6769412157083	-169.145484998637	-7.97224582015364	-141.19446204296	-40.4554746069726	-96.5173185633006	-15.7834119269988	71.3111134141873	
565870000	-22.1693341214891	-164.468603410689	-8.50305342794042	179.482809074808	-39.1481017716221	-83.0595555214051	-17.1671344133401	60.3586985449142	
570860000	-22.2130695914435	-170.029508556341	-9.27020287687077	135.584771550931	-37.3184870855226	-9.42812413457013	-15.4433468316264	56.3455472800878	
575850000	-25.7237262128547	-169.570431382701	-8.49437864854525	83.0940473408653	-49.5245352162104	23.5501404694691	-15.76828711578	58.3637220802639	
580840000	-32.128257208074	143.231605859916	-8.27137856197138	31.2347409156595	-41.6834873288154	-4.7930103986726	-16.8890359438333	59.3022249683529	
585830000	-27.8609590915806	-169.679600123839	-8.12087691307342	-28.4026641371645	-41.1487403750405	112.683741537968	-14.8952063500009	66.6334941461635	
590820000	-22.1172369438804	174.417920345897	-8.42666740109711	-86.1230150452278	-35.8295849615785	159.468645268678	-14.5244551935115	56.6230792658055	
595810000	-20.4245955503029	159.924071791561	-8.60658664054313	-147.733056643354	-54.5493867162871	96.6614019821117	-15.7381582468802	71.0533950427993	
600800000	-22.726220151625	-173.359253768622	-9.60399273083942	151.94280806981	-43.1117881619196	64.6215471574842	-14.0449957916368	56.4839278241489	
605790000	-22.5581401809198	177.335821659647	-10.050016939986	94.2209616648205	-37.9486822577745	129.766803583376	-14.0870926198435	56.1077706411157	
610780000	-22.5291284681657	-154.013179325091	-11.753859080193	33.661514948126	-38.3168126362967	-94.2478698040388	-15.8148122285066	55.8679237924554	
615770000	-23.2109066656526	174.86886816873	-12.8519615204294	-25.0921021060155	-42.2310664880089	37.2169439607363	-14.3226041699312	54.6748173404729	
620760000	-26.3686509572407	-136.753108972711	-14.5691074771152	-79.1972797840697	-39.1310266238193	50.1179708512721	-14.3534603595863	56.0204945008454	
625750000	-23.996160015895	-151.286186997674	-15.961400083664	-132.205241172055	-49.7684910018449	133.692024404692	-15.4139002852935	51.342497453557	
630740000	-30.1620695505033	-147.894236627333	-17.6227927210402	171.811707153696	-34.4227859793445	63.9370702429201	-15.1870771305051	51.3838418232104	
635730000	-24.4866566269343	143.497273181946	-16.7544619060458	125.457496326683	-40.9428575403847	53.9153946269738	-15.8517167337545	44.6931566027265	
640720000	-21.9260742327447	166.328373587672	-16.12918234132	88.2208045760958	-46.9037149747356	27.2589532738676	-16.2837698306457	51.949723326112	
