!Keysight Technologies N9923A: A.12.45
!Date: Friday, 10 October 2025 03:05:59
!Timezone: (UTC+08:00) Kuala Lumpur, Singapore
!Model: N9923A
!Serial: MY61181427
!GPS Latitude: 
!GPS Longitude: 
!GPS TimeStamp: 0001-01-01 00:00:00Z
!GPS Seconds Since Last Read: 0
!CHECKSUM:1386356210
!Correction: S11(ON U?)S21(ON U?)S12(ON U?)S22(ON U?)
!S2P File: Measurements:S11,S21,S12,S22:
# Hz S DB R 50
2000000	-26.4541989219135	-165.739312743759	-39.7116794030254	-6.71121087524663	-42.3695109646613	27.9963134410014	0.0827475709538636	-23.6750435092829	
6990000	-25.275039321342	147.249794612221	-49.0855693504588	34.7498134213019	-47.3108277336639	-115.726024216964	-1.10311690822019	-72.8851235641372	
11980000	-27.4637919641553	131.052646294206	-42.2749583696041	-156.889106033218	-55.1716060021757	-41.8436620304057	-2.19067339575361	-112.04007739978	
16970000	-25.3469200927005	153.71910346638	-32.4176874439319	8.07332224071278	-40.834361645747	65.5241698269809	-2.91821878919259	-141.067811332755	
21960000	-22.201546280051	176.38663114483	-37.4269559036963	100.769288125076	-46.9322046694966	-110.041800158952	-3.66177264753474	-160.981861403892	
26950000	-22.1259639542576	-171.033831662954	-38.0390091498723	-73.3807607030187	-35.6417823262583	87.7658177804232	-4.14039455137347	-179.210753111741	
31940000	-25.7616973971888	-176.943367359741	-45.1603703475085	-10.1392866321425	-45.4338119476523	-77.8532323423706	-5.44349594091896	170.734839868048	
36930000	-27.1436432453171	-166.820009474299	-28.4681780948404	122.521989212375	-52.1985059873004	54.92400421967	-6.37557928131643	161.299089115196	
41920000	-27.5619623381616	-151.09405858171	-28.6657858452593	-17.0816648948788	-42.6147199539754	-69.1635743213777	-6.68036172688046	155.100510573414	
46910000	-26.8135130654562	164.599701799852	-18.9561763296631	-108.143018669732	-42.2864205902734	179.777828856121	-8.57220526980689	151.926366938464	
51900000	-27.6453549013261	-176.712665575067	-7.13844424109657	140.591435440544	-37.515694127227	-86.3619841601253	-9.46300918883066	147.95425531954	
56890000	-25.9165475085307	168.322043567414	0.893421077656802	34.506796287136	-49.9918598584122	-148.865925471293	-9.07861083381955	148.831061880541	
61880000	-23.3205489924079	177.062438530097	7.79098143023048	-79.7329485767449	-44.10613656008	-107.0138357668	-9.52952696637519	147.465101582565	
66870000	-22.4920765438073	-169.997575287954	12.493782101233	169.582510592432	-42.8698300668624	105.709433995617	-9.24902916351629	139.44276842412	
71860000	-25.7798715080455	-178.795973647166	15.9756444406077	63.2683398624369	-38.4838704324837	11.5853673862731	-10.8559216008322	134.922140262839	
76850000	-21.7018930591753	-169.004953662779	18.5256497101487	-36.936760100182	-36.9533474297316	52.0072771952088	-12.355769339213	136.001465196494	
81840000	-23.5642764263741	-167.521660434869	20.6509109804785	-132.042367374622	-39.086267316281	-44.5358231124005	-11.2774527736878	135.043734345841	
86830000	-27.4036951213013	-140.264303049031	22.4334257812418	135.440761885421	-44.0969590435605	106.824569096523	-12.6367119913265	134.983600761113	
91820000	-26.6317200801248	174.751410218658	23.8642033106803	47.5018801729299	-44.3007132055823	136.779488947696	-12.6939735272407	142.899003384781	
96810000	-27.7689294259559	157.513982339737	25.004241019372	-38.6899536378016	-45.126627165932	92.1291776009037	-13.8136914274372	142.18744179735	
101800000	-28.9137152280098	173.058595612875	25.8784263388899	-123.919480575706	-45.2546476112825	65.7910580176428	-14.3611064808008	130.30176097788	
106790000	-26.4886161948104	139.537359162086	26.504222372943	155.130876647626	-48.8673579678786	47.1305820917903	-15.1363732661128	139.971238517134	
111780000	-21.422872619592	164.087225046958	27.1604749984993	74.8209768169572	-40.7794715860669	172.677919969387	-17.0538848823029	131.216013896277	
116770000	-24.5278322033934	-170.708198095252	27.412585751311	-3.81803226149977	-45.6249022050968	7.13098687626828	-12.2251707826119	107.327693925246	
121760000	-24.6767209282239	-171.425679718939	27.890603071158	-79.9349864938061	-56.1633472053467	-168.628388208383	-16.7740626739158	118.728534316605	
126750000	-23.5987265376828	-156.300505157703	28.026515761685	-155.090709863149	-50.2470460586207	-120.646379036236	-15.9960754946799	123.346124545688	
131740000	-23.904645927924	-172.228373514121	28.2748955285359	129.121169817437	-48.9439281126349	-169.34863016995	-17.6186223895643	107.878764213443	
136730000	-27.6304760578668	178.301557964358	28.5345534169864	58.7374240068983	-48.0804806583888	-154.023253892897	-18.566147067576	124.368647652831	
141720000	-27.9607763427358	-142.719595075717	28.7853944713828	-13.942764266062	-42.888541845519	102.758287712317	-13.6713271526376	102.649005694282	
146710000	-26.2209914270878	-179.625053610729	28.7487445239684	-85.7617258734296	-57.1716320457392	89.404395856425	-18.7220035051433	95.3204981683822	
151700000	-30.1686797091231	146.045070589948	28.9471584413536	-156.307941126109	-50.4192323648218	-12.4131755285341	-19.2625675193578	119.007380216985	
156690000	-23.2035810902918	177.687644590236	29.0488811147875	133.259104526235	-43.012540300654	-24.9872110485004	-15.6671925820198	91.8763424712948	
161680000	-26.9972205899959	170.540465465093	29.2302353352292	63.9549136750589	-36.0154694097833	126.950921434158	-17.2740925971088	105.367442948332	
166670000	-23.3575763130819	179.029431597268	29.2871937253558	-4.17343655426466	-52.5408245545156	-32.0488055863472	-16.0599524563443	133.818155807793	
171660000	-21.6483606582879	-172.17919648391	29.3705259982916	-72.5260220624962	-40.5613488122691	-176.453651151941	-18.6552208920644	129.741783889568	
176650000	-24.9392890134088	-161.916862655361	29.3137523065645	-141.249445560268	-50.4425281114279	-132.816973542857	-16.5802174876356	111.105426945406	
181640000	-25.6145860183619	-156.215533446433	29.4398594726747	151.32393160766	-45.3808869399475	16.0278704709195	-15.4644646251832	108.031149336186	
186630000	-29.0301555500001	-150.809991277285	29.539274868839	84.2417284712441	-52.4538342768965	72.2681899292304	-15.8106811022573	124.720839823476	
191620000	-24.3547035174409	-158.33833778246	29.6093183257501	17.4975322180516	-52.2397069715661	-168.274631496083	-15.9712142976761	124.536890211044	
196610000	-26.2528798619561	176.150777383505	29.5534513776659	-49.9262016162992	-59.5261338440257	-57.5130458072299	-18.3117064942297	129.872361077109	
201600000	-28.1828544368548	-166.464231037815	29.6466729340799	-115.955045929627	-48.9672228117265	50.2203667168428	-18.0537315948462	127.130016008173	
206590000	-21.2598698323423	-173.67023184326	29.7611899209924	178.776769767824	-40.9354744418852	-153.130804618703	-19.2111051909288	131.488997150739	
211580000	-22.156277834174	159.440808753032	29.6248156895817	113.762845089107	-44.6676308798651	77.2757319566976	-15.9521780968208	128.03759746386	
216570000	-21.5863787525602	-162.080898851008	29.8038525162438	46.390498222512	-50.9532659223218	160.979285464237	-19.1234095021149	129.437223147155	
221560000	-22.6476412866224	-164.76963129482	29.8527077564853	-18.7066280673925	-48.667575363461	-29.9405159052225	-20.051204842254	148.496394126815	
226550000	-21.1154812144988	-144.931353979405	29.8295820300762	-84.0906110051877	-42.0196308841126	75.2766796098033	-19.3684583248772	154.075304520556	
231540000	-24.5456664562853	-157.180492025718	30.0481445626218	-149.604874199994	-48.3496508751507	140.141772613821	-18.6493172144119	96.8628966450046	
236530000	-24.0548990685468	-179.236565332001	29.9610406497372	145.107461155437	-45.5126162822071	-17.132770191284	-24.8245308044211	108.893734115594	
241520000	-25.2296973167608	-154.272360474084	30.155106979969	79.6128791389359	-42.3288709930469	-21.3553952500665	-20.0293197675335	127.92825267752	
246510000	-28.1993912034021	165.176429069952	30.0785980048543	15.3210682416059	-52.068197507126	-42.7919095789897	-19.7974612000003	122.814073031123	
251500000	-23.0185192374519	143.206376517584	30.1874950072389	-50.1808348941905	-41.5039498769352	-83.0785160564642	-26.5175973435982	158.133045521235	
256490000	-25.9821394547039	174.661969251665	29.9977510639827	-115.654984264484	-48.2797661736166	-93.908632249335	-29.6552001998101	108.795503337676	
261480000	-22.6855512633307	-174.983991810738	29.9687506990475	179.778129681988	-41.9329263531256	-97.4019737944663	-22.2219754289688	108.351974454424	
266470000	-23.2495702407459	-166.512071750113	30.0682156421522	115.780946634577	-41.460827495826	7.77236976940304	-17.8177257929037	115.986956615605	
271460000	-23.8588292559622	-162.60150265505	30.1156700711645	50.5302940560784	-41.2523700061805	114.420534446697	-24.9975296295448	130.661909152354	
276450000	-22.8281019875202	-145.453857415125	30.233721056345	-13.201774879985	-39.9594904364956	116.756235650293	-15.5993248760868	122.927618487877	
281440000	-29.8675558868236	-170.894503066449	30.350156851034	-77.6107290277318	-43.1735609422665	-50.93666096276	-16.0705821497729	117.000336324911	
286430000	-23.5653029380647	-149.110677981219	30.487338382355	-141.534686146743	-41.8847699103748	-89.8338941145771	-19.7491882913718	83.9233702069486	
291420000	-25.5037819032577	-176.683039227087	30.478250905645	153.850867570559	-46.3713403899865	-117.130130370815	-24.1039992962734	125.735981338124	
296410000	-22.2038859072386	142.894153098788	30.371821271767	89.4153208260182	-40.2608764280543	-94.4423705500232	-19.9725441164376	60.69649928863	
301400000	-25.5190857025136	-172.295616386237	30.5788262962694	24.2292055916215	-44.9916651767147	177.83681223061	-24.5122106897526	49.5483412887162	
306390000	-24.1215312546792	149.838014272766	30.5013656023016	-40.1363695635381	-41.7630757747309	25.2449118327808	-17.4160219139116	84.7210724528183	
311380000	-23.2996175451392	176.353313499734	30.402856260911	-104.489363160255	-53.7849614490503	-81.0455387025872	-21.3103297865418	65.4158880623457	
316370000	-22.1721358759532	-167.97529242397	30.58948243184	-168.997075016845	-43.938661946892	-169.661854336504	-27.2243903204457	81.9344999773429	
321360000	-25.0301913201976	-161.179014910681	30.469382497991	125.569714759284	-48.5514563509208	160.485903928369	-17.2182592917998	85.6946297104624	
326350000	-21.964022488589	163.490305674294	30.5996593514394	60.6051077435506	-39.5473885711483	20.4499697342193	-20.6825359169298	55.6234688715393	
331340000	-27.5907908802914	-151.784105058424	30.486717203371	-2.77089472682971	-50.7570119564157	-107.277341620549	-27.853720512298	-171.917154155739	
336330000	-28.2147782335137	176.48500411994	30.4279890078108	-68.4632425096395	-45.7094046095139	36.7361363320236	-21.6491300127877	71.2566537788681	
341320000	-25.1702033901329	174.873616244718	30.3705431592875	-132.783432628092	-42.1395318794433	-103.631113987995	-19.1882183084193	136.810201392669	
346310000	-28.3362501993294	-169.050894132059	30.3797629273199	161.688437596264	-40.8986543022956	-175.100606911392	-30.8794479468959	76.0193943620165	
351300000	-30.4043174819273	170.242888454316	30.2516462791984	96.6810085194304	-45.831192867461	-31.5180094725716	-22.0389747422742	130.869993056084	
356290000	-20.4354886512267	-168.384306279587	30.1354141842491	32.7955912624777	-41.1089385775657	-81.0604359235643	-32.4730565289444	-149.102433966024	
361280000	-22.6500117148805	177.891512475438	29.9934701232283	-30.070086579939	-44.8737904049818	81.2392419569411	-26.4117578089399	140.274710182423	
366270000	-20.225591439335	-150.471882706002	29.9280078535647	-94.5543951658808	-41.6692274445943	70.1884160429076	-21.8090412444734	-163.690561504147	
371260000	-25.0945129579081	-163.409022124366	29.9397718709876	-158.65682029705	-57.387389715783	179.497630300728	-27.4892722999918	-135.346563683463	
376250000	-25.1910615882368	151.160541668173	30.1269546866782	137.190317772941	-39.2769832554553	49.9998339737906	-22.3986721328593	68.0521891476066	
381240000	-27.8796857728802	-137.2128878948	30.0560799097418	72.445392469712	-49.119209281519	-22.6505614756343	-40.1538964877259	-131.509986832939	
386230000	-28.4512433099237	175.711787746204	30.2699589687849	7.06920896033561	-52.1083535284019	-65.2418301232005	-23.2147337660887	117.173525666379	
391220000	-27.6340207498222	-176.321452589138	30.1557506016131	-57.9133835706998	-39.2614030923059	54.1557885022457	-20.8377994800909	97.0837592964434	
396210000	-31.0193917761304	124.648514327168	30.1534338253817	-121.956930093288	-50.7905012038097	-153.176007554401	-26.8732225916538	-162.038933179639	
401200000	-26.9926340944121	152.992361060864	30.1461206372696	172.144481765986	-42.0989358121579	-34.2054867454126	-22.1619860904739	142.563966992424	
406190000	-25.741077305213	-173.359693420948	29.9558335011715	106.495144908492	-40.9643545381239	1.08040019015624	-22.2983352343787	168.798170722572	
411180000	-26.5520884668542	-174.154733062503	29.9595938750829	41.1966953048718	-46.6407815038476	171.9363284151	-23.886019735184	85.7221033604998	
416170000	-25.5523362668714	-173.420774182031	29.9355319060402	-24.4830427362587	-52.236844494396	153.601541000995	-23.2439273438242	-171.409894394105	
421160000	-22.7765911223338	-159.494648640728	29.8496323531317	-89.9458448041529	-41.8881328531947	59.2004050151866	-17.983220814019	130.868103690055	
426150000	-24.3930311299785	-151.006297846375	29.5019755617284	-156.43035586342	-45.5072805558085	27.1514611197893	-24.2568762340385	109.370571012512	
431140000	-26.6246727042107	135.406169525389	29.7102489224475	138.103744818243	-39.8937782877606	144.83555810831	-20.2973079825755	135.925109249746	
436130000	-23.8328679571528	168.605506613645	29.6719714474808	70.663805116905	-39.0730261318283	-42.7852979211665	-16.9155607810016	137.849572130347	
441120000	-25.8884654852111	166.262596141686	29.4219438083766	4.77406373663212	-46.3460778463997	106.975032799519	-19.9028311835631	114.963625870676	
446110000	-25.6254739605848	138.281784037119	29.2515976659807	-61.4526275532149	-50.2200199054581	21.0211308440471	-27.6995329863483	127.133648815903	
451100000	-25.8977935975592	137.014919481219	29.0838852134066	-128.341104991004	-41.0806207408497	93.2423722660924	-15.2478047016665	109.051740679585	
456090000	-23.2247996697391	-178.401918426357	29.2012450559669	162.687381819029	-49.0587217255941	-134.913297018361	-19.7414844812719	141.483834062745	
461080000	-20.0806984034566	179.428121348972	29.0912633073323	94.4377310650812	-45.4686630256126	26.9594074458727	-21.5049203415972	92.5219878167551	
466070000	-24.1649791650622	-156.989558289259	28.7434516455223	24.9408443750002	-46.4713758568157	-67.1538085997196	-17.9653758581688	119.962876201267	
471060000	-22.2243350568328	-157.042271182076	28.417866703182	-45.2163624038401	-56.4254034125076	100.487526262448	-16.6044154060507	94.5063633485904	
476050000	-23.7402692520488	-177.316842466649	28.1972916239704	-115.493649324708	-41.4277980568539	-174.172594498132	-22.5089416781146	109.075702922039	
481040000	-29.7132925155179	-169.04171928657	27.494106567299	171.550975206828	-42.9669872335721	174.455907895137	-15.3913182865959	110.69104903639	
486030000	-26.7577174003372	-165.443169520817	26.7808034962206	100.080625273339	-46.9899773409818	19.7481784627417	-23.1583151853387	91.5016401221412	
491020000	-27.2775290328059	158.39878724764	25.7983725626775	27.8344884758125	-42.7344229613412	-104.483156622265	-17.7932155779997	117.354961881366	
496010000	-22.6990199609024	170.223961435507	24.3883184093112	-45.1024382533332	-42.0087018392756	-70.1569729910683	-18.6536892492905	123.543271295957	
501000000	-20.7293829335088	163.294387358268	22.9892088343711	-116.497359095761	-36.699083138647	-87.1850932935029	-14.771788107046	121.463239844448	
505990000	-21.3152872306749	-179.718034949228	21.1644757811872	173.489770238284	-39.4603945632468	-34.3331281811337	-18.8328275284623	107.565688149583	
510980000	-21.8211399410609	-177.638153320286	19.2353893854353	103.663359022706	-42.2635794900883	-3.49717332904835	-15.8406455763003	112.058726373533	
515970000	-22.2356212171142	-166.19179196132	17.0223676707066	33.8571750479976	-39.075871124907	-142.877792100602	-17.9401433776619	113.315767496898	
520960000	-21.5695330175659	-160.453831638705	14.870929947764	-33.0725307029917	-40.417036400679	27.8395102570165	-17.227319368012	97.2797041799751	
525950000	-25.7761922176854	171.750559192501	12.2352856133545	-100.130769098237	-35.0977158117984	7.05189376319726	-17.7563418649083	106.528444495056	
530940000	-27.2567855563395	-147.092873602066	9.90918228792694	-163.417753963259	-39.6708010836866	30.1062974518896	-17.0036674910981	103.08859842307	
535930000	-26.0236098452025	-156.251489486261	7.20973727087576	131.668879231713	-49.6442557255401	53.7635189588026	-17.6800971859808	85.0274500831169	
540920000	-24.9859108830593	129.681671005598	4.35721841407821	69.5669553569524	-41.855326304746	18.9632186625205	-17.1010067771931	85.721530647435	
545910000	-26.5891995633464	-171.774663436314	1.35377988302081	10.1366371266034	-37.5740291271625	174.620978006717	-17.3965276448135	71.9807112913085	
550900000	-23.300555196296	155.14987818305	-2.02553540486019	-45.6875604113671	-44.9916092076725	48.7176892483342	-16.9620070971305	79.4972354230207	
555890000	-23.8250597633494	-140.178698993932	-5.11269264773139	-95.5617275142784	-46.0454124528158	-62.163999980462	-16.236941780748	74.3236967240185	
560880000	-19.6183292786592	-142.529997701096	-7.70009838569475	-139.773331611493	-35.357858900302	-155.114799677642	-15.903670910452	67.4755417687263	
565870000	-23.7846317850481	-146.694111722587	-8.96998514681306	-179.441176656305	-48.9685258804296	-35.5909450374314	-16.8687783852142	65.5013513129717	
570860000	-23.1038076086218	-168.846687363824	-9.07928711274975	137.902753356363	-40.5059753964857	-57.7930741482761	-14.738371904784	60.4655553194204	
575850000	-25.5372613104894	-144.546142792338	-8.49481121199367	85.8801520717865	-42.2272267713969	150.5711088873	-15.3083355520809	54.7477291950711	
580840000	-32.409591298497	-160.051449172339	-8.4280322149376	30.007908512135	-37.2221107666433	91.9586605013972	-16.5375344412825	61.4754442405878	
585830000	-27.7943026921755	-161.615449319118	-8.10181242412197	-28.0550392875912	-40.4840414257717	6.20418545172386	-14.2935596890988	67.6562862358536	
590820000	-22.387984929457	177.402893827709	-7.8921506521051	-85.7910622358508	-39.415894697428	41.6822115067421	-14.5827767326895	58.5687023928861	
595810000	-21.8412364377443	159.949692149016	-8.40963225005446	-148.496013156514	-38.5649667813269	143.578376959219	-15.7684680008952	65.7577321504008	
600800000	-22.3446084142191	-170.782582760814	-9.2486808324365	151.874514693351	-45.9444560940868	74.8586982527296	-14.4924426726406	50.9215990483108	
605790000	-21.1725361469566	177.69209468745	-9.69359305136408	95.1296632929254	-32.9361105521117	146.422635679422	-13.6856853746842	53.6961423987574	
610780000	-23.2682433662536	-161.997449430814	-11.0710591649259	33.9137495089183	-41.3223762615968	72.7754647344721	-14.9132180750531	53.5052700905331	
615770000	-24.6677006935843	174.438139098583	-12.7259917011789	-26.6707199576439	-52.09974807267	114.786686104605	-14.3617018544294	51.6083790476523	
620760000	-28.1335311473699	-127.652752712841	-13.760103601156	-82.9381402169665	-39.3480314655322	30.33520495945	-14.2729785738306	56.8190344253529	
625750000	-26.7006465090244	-148.723914256892	-14.7422614697262	-136.426618421699	-36.0587056834951	154.148902916085	-15.2178223838675	57.1444537793514	
630740000	-31.8606670909216	-173.446451338504	-16.1251092076291	176.79030413421	-31.1098430847401	155.848205956934	-15.5379269127418	54.9103688831267	
635730000	-23.0940366711471	137.797708323857	-16.5842762844835	126.64762308025	-40.2846464812469	108.884364552894	-14.9001240543519	44.5823283837746	
640720000	-23.3651193160641	151.367521808899	-16.8256353213992	77.9147328344881	-33.8059178960165	-74.0208503596935	-16.2561004872123	47.9321255129688	
