!Keysight Technologies N9923A: A.12.45
!Date: Friday, 10 October 2025 02:29:56
!Timezone: (UTC+08:00) Kuala Lumpur, Singapore
!Model: N9923A
!Serial: MY61181427
!GPS Latitude: 
!GPS Longitude: 
!GPS TimeStamp: 0001-01-01 00:00:00Z
!GPS Seconds Since Last Read: 0
!CHECKSUM:0222449275
!Correction: S11(ON U?)S21(ON U?)S12(ON U?)S22(ON U?)
!S2P File: Measurements:S11,S21,S12,S22:
# Hz S DB R 50
2000000	-27.1966141513784	-175.229600549618	-34.5988740630602	-77.8283716968408	-38.9532699103159	-100.205236423417	-0.119094821391855	-23.4803588890079	
6990000	-25.3889681046281	141.264763931324	-38.3801316448551	-178.334112242527	-42.1437447820269	-41.4849652986062	-1.21900783471399	-75.2331499378221	
11980000	-27.2113315093906	137.394160404818	-34.3642646214654	32.7620089602549	-44.8819174008351	110.690357602176	-2.28098789817145	-113.162994048025	
16970000	-25.0491835560013	169.174684470453	-38.5720338134894	-97.0212614997488	-44.116638387583	98.5463979206697	-2.9671295965168	-140.7467574589	
21960000	-21.92680061441	164.392551727501	-46.9191689102607	-19.8964385056393	-53.6879869637954	115.005928555542	-3.76488131507059	-159.589844735931	
26950000	-23.7816247615179	-177.132556514225	-50.6813289455291	-128.060992360748	-37.8270321651211	87.4577900740295	-4.27287007555578	-178.071143242853	
31940000	-22.7582291400971	-179.374141551904	-32.7422555014669	42.807942028988	-45.6989050885421	41.770790541378	-5.15459355095746	170.131869247895	
36930000	-25.3819443599515	-163.183073985683	-30.9249345883646	60.6435571965879	-49.2090989471399	92.7798746717123	-6.06522379470885	164.849673522164	
41920000	-28.3403940509113	-156.386619645066	-21.1605049861886	0.0401845069655278	-43.9038467022422	141.735390498707	-6.29921775155222	158.470739181902	
46910000	-26.4892940359161	175.377998279088	-17.4734641529736	-118.62035829467	-40.7525595960524	170.777939665267	-7.8758884967002	149.744904525765	
51900000	-27.508597132196	171.307240937634	-7.9664394127418	142.599002758459	-52.1807842632102	-54.7017690908272	-9.03709638385376	148.940858444524	
56890000	-26.4053487035551	169.328144623598	0.863354606797365	33.4856890409385	-49.3787088190833	-69.1651532307151	-9.06142700439535	146.897450982546	
61880000	-24.1514076515826	174.589093599879	7.82517605179479	-79.9227712060456	-48.9027860142303	160.071541838114	-10.4184656974984	149.549659004401	
66870000	-23.7818611974484	-176.222669360838	12.522738682052	169.571972758887	-40.0316435731185	-176.780779053948	-10.0704861882619	141.047150291389	
71860000	-24.5601592288678	-170.003337332283	15.9242265805236	63.3885556317015	-39.9251749807684	153.630431158447	-9.95235307865347	132.330959793066	
76850000	-20.7902702029931	-163.588630887973	18.5764995011085	-37.0396322895388	-41.1158821573741	-71.8302667770403	-11.4766496879708	134.188953881284	
81840000	-23.043427847674	-160.934662727188	20.6166815009226	-131.959851123617	-46.8426268416719	68.7341728446885	-12.4806436771599	139.964498445953	
86830000	-27.570875247172	-147.660823826292	22.4885598498198	135.830255319669	-39.9835690414134	-164.330389645603	-12.6417798700665	133.652039717826	
91820000	-28.3395048207728	173.075941763783	23.873406443702	47.6934179553237	-48.6321521342897	-19.8663284317525	-12.7435152707612	137.633716926695	
96810000	-28.0413840479395	165.895009818607	25.1088238082353	-38.6140560444312	-44.0072699006222	-117.647764888138	-11.9253681116518	134.769451049024	
101800000	-31.8183899969854	168.416710964783	25.8856882850058	-123.801273002189	-54.7700382141798	135.052015913116	-14.2520705465137	121.663580489393	
106790000	-24.6806605911423	142.971255162245	26.53849843849	155.035080968444	-37.6581177754374	62.5133615662511	-16.6361407368	115.503903021016	
111780000	-22.6869409971091	175.125837990435	27.1894390611919	74.8505415948267	-49.3251057108744	-80.8958879279441	-15.2865764494747	104.891299485292	
116770000	-23.9302585274193	-162.569241279516	27.3805410482497	-3.67965818064716	-44.3496652257962	-36.9456518281937	-15.7706196873812	117.297131206721	
121760000	-22.9684709222844	179.872271367971	27.9450814014549	-80.057728151799	-45.3494191754984	-51.6498968192382	-14.1242976096939	125.539048901369	
126750000	-22.4438397926677	-159.860826988205	28.0010894135258	-155.146640673575	-43.3226373603833	-158.838073196312	-18.2976950014702	111.451733106331	
131740000	-24.1408579075676	-170.998513799224	28.3193257563982	129.078299338621	-43.9496659443234	-49.2404700735674	-16.8761518456064	95.624288218541	
136730000	-28.814407588152	-179.627443637892	28.4913938862395	58.5775468717487	-42.4751140678241	120.887120744032	-19.6779560178419	95.2407986058356	
141720000	-27.3342612308646	-145.956502036748	28.8485058255719	-13.620738949313	-45.3361399768567	116.000875833195	-15.7411908445597	109.467930444799	
146710000	-28.9494195091234	176.73214505411	28.7472684481665	-85.4399106170171	-48.487605587352	-22.9191432836111	-20.7255412226513	86.2033989523422	
151700000	-26.8923191849546	145.652135000719	28.9602318907983	-156.40181090248	-53.8721712591949	17.214475168785	-14.0109165248329	109.742781095556	
156690000	-23.7215239066237	175.333803476631	29.0390208824884	133.282625081755	-48.0355599816322	30.3299262504647	-19.4259064048952	98.4124229666253	
161680000	-24.8339866337061	169.224056180686	29.1858944561762	64.0006200783547	-46.7080623340026	-2.3403495836382	-17.443533138405	114.723642558133	
166670000	-23.7371169060134	157.205496360064	29.2888391186662	-4.16451411980178	-43.807647411411	-31.403205946093	-17.381827883284	119.83295789161	
171660000	-21.5932902821306	-176.096142238808	29.4004956908603	-72.233763521498	-48.0936855158575	158.440287087651	-18.1996884174094	106.817919446077	
176650000	-22.8668102508642	-170.600790391371	29.3456192847458	-141.24949484084	-44.6515621584641	-136.221207858902	-18.4285407304229	126.800427589901	
181640000	-25.968544687233	-164.99928974125	29.51883670604	151.698812827391	-48.7719138140668	172.047269273599	-17.4171689482968	131.666937436294	
186630000	-26.371318333487	-145.017493005936	29.5451977886928	84.4967340880807	-43.9945535880809	45.1138451051146	-14.5208483805971	80.4646668017168	
191620000	-26.4902078323484	-165.275908130915	29.6553988580255	17.4512454180943	-55.730628600773	107.975866731863	-19.5866644838987	126.671255160608	
196610000	-32.4175446075941	-171.163874486937	29.6204365615088	-49.7095249688277	-36.4042407794353	45.7449983360482	-15.7444415363602	127.672374340405	
201600000	-30.9812776015852	-163.299430774229	29.6919443556546	-116.07552721029	-42.5165815885022	99.3252908191273	-18.7200482653327	155.288205339839	
206590000	-22.4272782735093	178.990956765649	29.7821065436208	179.027258724173	-49.9744562422155	-117.379527823394	-21.554785473136	114.418141693677	
211580000	-22.41442102099	168.181963632784	29.6610310984476	113.395335296518	-47.6728637650998	121.148555196621	-18.3262672745919	127.665006143293	
216570000	-24.448535364615	-146.319600351826	29.8500114201394	46.4246824986003	-40.8162643021307	-63.9009683696158	-18.3122072248748	136.515030900276	
221560000	-22.7016717645431	-170.841901899571	29.9074715238036	-18.5172362429825	-51.4467870742996	156.552240455662	-19.17877366713	153.968330831548	
226550000	-21.8662786405896	-163.523035372626	29.8111382479394	-84.2729464483989	-44.603729289027	-95.1222581652445	-19.4690067013496	161.620242925515	
231540000	-23.8517786154552	-170.643991064235	30.0410665325268	-149.097937815604	-44.4456895186764	30.4262268397589	-20.5251350038685	123.237990343526	
236530000	-21.8419671441397	-162.407083624922	29.9611738610107	145.360849876541	-50.8891334531877	95.2973723562696	-22.9312903517872	-177.517281229819	
241520000	-27.5734382976951	-161.641787015747	30.17376994393	79.8420242826138	-42.7526174389242	122.904979078568	-19.6438017299277	144.013530781236	
246510000	-26.6655545805545	157.38579734936	30.0918120033784	15.4795467257529	-64.7761907655855	-11.3068760515278	-20.8030720521404	150.832810884313	
251500000	-25.881800100433	169.660830506863	30.2201469022691	-50.0600339122561	-39.6671388899285	104.714437620465	-17.1020116862462	127.600373416879	
256490000	-25.8720729409185	-177.156866452583	30.0841753926537	-115.21337668222	-62.2904283474447	100.784994251529	-23.4738358667193	137.724277412766	
261480000	-22.3356125244907	170.231677594823	29.9543981601956	-179.952318274048	-45.7829989245491	140.627978598121	-27.7929159633434	22.4167546725835	
266470000	-21.4562698192908	-169.573790703521	30.0742015750433	116.133331637351	-46.6190117198995	-63.7920479621352	-21.665250419141	127.58860496937	
271460000	-23.308106818033	-162.674677019181	30.1896073046759	50.4001551836818	-41.3185686431929	113.795495766627	-15.3420164960843	131.115565241109	
276450000	-22.5809605714137	-164.65575182685	30.2442173517722	-12.3185653145657	-47.8286108091199	-0.65299246516616	-31.7224839734918	-96.8463331077987	
281440000	-23.2057533587796	-157.23080229407	30.4214723658597	-76.9563015914545	-41.6288929860098	133.536307124342	-25.554661658157	118.679730429672	
286430000	-27.7195265392484	-170.495917899745	30.5407855782291	-141.32963433279	-42.9309667430403	4.82889200167892	-29.5389083421508	142.207735493529	
291420000	-25.9667768420029	176.585140006475	30.4593304078451	154.115728410763	-47.5053323792427	-127.025744303189	-27.8789089685336	87.3253817329363	
296410000	-24.7810803567133	129.988692473057	30.3736422689036	89.1475952802338	-40.7377990382758	-142.088663896876	-16.992820478581	75.4598092067665	
301400000	-23.3138791971541	165.220756560556	30.5226838187153	24.3420615827172	-39.9691878213056	31.3612584235987	-21.535710969241	100.131298373641	
306390000	-24.282561039696	178.698980949086	30.5690320005654	-40.2816241448729	-44.9475308554231	-147.594505311136	-24.2212640567666	95.0455779762552	
311380000	-24.510793391069	157.413419339907	30.4279218278612	-104.653447883669	-40.675871954669	58.0788299372342	-26.380904234218	81.006780206283	
316370000	-22.6815715392115	-172.370283829118	30.5440895237627	-169.006211872531	-39.9858533228893	152.605341895757	-19.3558328962997	100.19655634339	
321360000	-23.0165667939776	-160.170383092733	30.5178658129949	125.918164788936	-43.5315428247744	68.8199176816988	-23.5180368217252	82.8575381538144	
326350000	-23.2864156334068	-166.826197942356	30.6035299223233	60.4417978536956	-47.8334713256853	165.002249517417	-25.0771802956392	71.3059573610059	
331340000	-24.87616068748	-164.088865096792	30.5203871239125	-2.63830202258329	-44.395953462972	135.467182187574	-25.2054432504921	178.860660719762	
336330000	-25.0819744458	160.426542535461	30.4511379682532	-68.2218116993311	-54.6777422951425	0.835270882137909	-24.7374590857379	54.549786454112	
341320000	-25.1902013033678	-175.412292675209	30.4238776073317	-132.68144669791	-49.5608835759246	-26.6770652602745	-37.0246348065614	114.145400249288	
346310000	-23.6746102001023	174.891838395013	30.4534412700757	162.020660140028	-47.3883461193594	47.8005037506302	-28.7612606550759	159.062173254847	
351300000	-26.8363137590744	-172.325347176731	30.3228959816243	96.8374120008611	-48.4732343268802	144.92352404979	-24.0187878385318	141.807316939623	
356290000	-21.9336442316866	179.449502257822	30.1464285191037	33.2303354048727	-51.3806166691091	-96.7100350290776	-44.4045163126609	-5.08024224918268	
361280000	-21.4656762026248	157.171793173475	30.0180385264103	-30.1240994129222	-44.3546002113994	167.492948318642	-32.5447910648165	66.1438376694992	
366270000	-22.944768042834	-156.819836090918	30.0199115053007	-94.800836615257	-48.9817848457995	141.30027710372	-27.1166501235261	70.8038537638278	
371260000	-23.4044314206317	-173.73584544139	29.9921722325	-158.806526553824	-45.4180769804542	-10.3241048284207	-31.3176298095594	-24.4544722825379	
376250000	-23.0809267646604	-161.941877561305	30.1506578298623	138.172316040956	-40.5155448730022	169.745963898618	-22.6023690089881	-175.094042461854	
381240000	-31.5163660630949	132.804211323092	30.1777834818122	72.2049518640246	-37.8912807917679	102.140222237915	-24.9876814239488	111.748951237767	
386230000	-29.4766446873186	149.263040957548	30.2673426279607	7.33031946020837	-49.3559601493887	-139.128190993474	-27.1705244617425	91.5191978145798	
391220000	-28.8576397494101	166.335713163711	30.2192420118323	-57.2744223504067	-48.2658837438693	34.8106052204203	-23.7305243877198	131.170562066705	
396210000	-28.0087875397168	114.521321825518	30.2252898495678	-122.045735322501	-44.9309805060457	-82.3213907871937	-23.8150009182651	129.986331061647	
401200000	-26.2185600937748	161.486476971602	30.1155716373578	172.516807100625	-44.001998562438	-42.3841110520326	-25.440611747982	-173.174905724305	
406190000	-20.1070489210957	156.671948201708	30.0333602863212	106.568918286528	-41.099424537037	159.580880001426	-24.7808325559376	138.555738931623	
411180000	-23.0106406714945	174.061150698794	30.0207607430687	41.813723924177	-39.8780140427433	-158.379577059015	-22.3781388249845	163.088693276518	
416170000	-22.516881739065	-169.202263624119	29.9605935996774	-24.8783298403056	-47.8352003006745	80.8521351949393	-22.391993981793	108.505887627887	
421160000	-24.3643165430501	-148.786784234985	29.7614393583368	-89.1466338329791	-50.135095488195	25.4860367220893	-31.3854233351948	101.037393438834	
426150000	-23.9016238307394	-143.161235351059	29.566466471231	-156.28233324066	-47.2329677423541	-74.8402069012392	-23.221691953092	128.458907860138	
431140000	-24.7925004076748	177.038292410593	29.664718321128	138.832959668827	-39.4385030761857	-111.565845350149	-27.9977194785694	124.230979873265	
436130000	-27.0140583247546	130.719185422518	29.6648861764823	71.5810021702495	-50.4949101466587	-172.159052527507	-34.0294500712951	-123.89591385546	
441120000	-28.7805937064858	129.313027088239	29.5080576842379	4.65475630764438	-44.6895490410188	-148.185304992381	-20.1936364067036	135.561415842986	
446110000	-23.4186037527033	144.257529238394	29.2669376351651	-61.6659674466906	-46.6364964628079	82.4189069310687	-18.1687723971363	115.017546006546	
451100000	-25.850744415282	159.422142071716	29.1793592743555	-128.179679948846	-52.1776810739164	-26.866761301962	-23.173611727488	134.795346061494	
456090000	-24.406657270386	-171.668918691843	29.1745012299834	163.216071942125	-39.0895134070741	50.643467686196	-22.609204433609	106.350621076633	
461080000	-23.9915272487429	160.813999942861	29.0983219023739	94.5039382823336	-39.0764356044664	-142.504548304063	-19.6550062609227	114.722308202701	
466070000	-21.9941111590466	-161.611069053927	28.8052367470613	25.2542601437524	-43.2391610411462	-69.1351190185184	-21.2588601168721	116.228817024541	
471060000	-20.4437483662575	-152.576742870367	28.4314881070745	-45.3250320445245	-43.0255236035881	-148.876177994284	-18.6737626712508	102.793726364364	
476050000	-24.9945592285316	-153.281030740284	28.2068132426964	-115.337325575594	-47.3767070722745	-4.15776173274683	-19.429361174853	129.228659635358	
481040000	-27.167307344647	-151.478112074073	27.5134503075271	171.322691598826	-47.4393811569527	28.0453649034774	-17.7210811963723	139.171862270331	
486030000	-30.4363867718466	170.58975795316	26.7778043316027	100.33726632783	-38.9334474659542	-110.076125254958	-22.4308523834616	120.709314509702	
491020000	-25.6000027826096	163.392881226682	25.8583126267405	28.2445948597144	-41.4061586707329	179.258697337018	-19.640317467075	115.5089593313	
496010000	-21.6365568409035	164.400499392966	24.4184057713818	-45.0061339885415	-39.0705811891118	-159.240381150581	-17.2676417867681	123.299489361498	
501000000	-22.9719036915357	169.941606593652	23.0529180382989	-116.225524358787	-42.0207051037013	100.96158566613	-16.5389299023873	119.575616376445	
505990000	-22.5184546830683	-178.818478394983	21.2246131517666	174.295955294046	-54.3155688696241	-155.159658685467	-17.5968773413612	115.405608878364	
510980000	-24.6042463212498	-170.878316589328	19.2662188201069	103.580658985243	-39.7172160882915	-81.4399748887975	-18.3024633553506	112.18583829184	
515970000	-20.9434728170718	-168.38542240782	17.04076913553	34.4482875458404	-46.8028729835949	-101.974120803393	-18.2684791101096	115.082373747315	
520960000	-19.9797571451476	-160.160920125406	14.9118072555564	-32.794436367867	-32.2120000832084	-91.9470893556076	-17.1498299788425	95.5837523964202	
525950000	-29.803658428814	-177.73785924653	12.3454434266564	-100.008626756747	-46.27057463053	76.7032031049245	-16.5424035633876	105.260356214689	
530940000	-26.9330343540932	-151.102544531313	10.0093532000571	-163.233330760997	-44.7541643254794	84.8036483914954	-17.588639481437	105.149992032778	
535930000	-29.0423929165015	-159.311947675001	7.3291152509412	131.5143711167	-34.4420734865788	-82.2334954387899	-18.2056009837737	84.1941182222345	
540920000	-27.7416698359704	126.727210151974	4.50571909056856	69.8795258103423	-39.5856804183946	-131.115390611255	-17.3966261771594	90.6547259298224	
545910000	-27.5295103989491	172.076201135075	1.63340680472599	10.3912239032016	-41.31159254171	-87.3811960201338	-17.0660439115815	79.2621890474285	
550900000	-23.7267471172774	172.449023431151	-2.00211104566679	-46.4265170650758	-36.7325807099605	-66.6356659575326	-16.6396693948241	78.1711037610415	
555890000	-23.4496022994863	-147.47736774345	-4.92338461914969	-94.8120903854666	-36.0925775112513	143.007421421525	-16.3229547070971	73.2109291331951	
560880000	-21.047751993669	-141.032058796237	-7.63696607497551	-139.223338282583	-46.3489297997588	122.192137769476	-14.9626605399261	68.6419820280666	
565870000	-24.7758702861565	-152.539633341629	-8.99581124542687	-175.391028719287	-45.3614032538612	-93.3557368508465	-16.4229093837104	64.8489848561386	
570860000	-22.4051451636464	-174.73107254201	-8.84051805527483	138.019909723358	-42.8861049025816	81.2444422776057	-15.4215509245559	54.6060175556715	
575850000	-24.3640509813534	-159.986619518366	-8.03288808814174	86.7273618362674	-48.5254549393469	165.867969792623	-15.3324845825845	58.9355677038124	
580840000	-34.8493729924652	164.810248015954	-8.2166343394381	31.2938342606516	-45.9614435232833	9.84896993683454	-15.5353985432091	62.8138362562424	
585830000	-29.650323117684	179.951957915418	-8.30708740039519	-26.6961624020935	-42.5651269348931	159.523537316749	-14.51667237385	69.3487247240324	
590820000	-24.4162724485027	179.806941277371	-8.39336883104654	-84.4949633620879	-37.5462701295518	42.775454292184	-14.9621763253817	57.3805112001274	
595810000	-21.2092960764412	157.639963199159	-8.51996805352601	-148.925177784131	-37.6457794732089	-159.795611320554	-15.0270466859478	65.9449637279083	
600800000	-22.1580697095364	-176.356988624854	-9.07363646275066	153.832515417123	-38.1212950328873	57.0776490285534	-14.7417660601398	57.0712896748418	
605790000	-22.2608942518352	179.608969597032	-9.54504357205814	94.3585843564682	-44.3267952751053	-120.591847186446	-14.2116562321891	54.2443792174068	
610780000	-22.2642363946471	-151.388418242184	-10.7906421838961	31.5996944526776	-39.1193726809625	-140.285801616896	-15.1906180692457	56.4111966622203	
615770000	-26.4126674713425	-171.579157418435	-12.4463213520583	-24.7310036595281	-51.0551835759906	156.290368480272	-14.5088078300366	50.4336236438736	
620760000	-24.8010430313767	-153.501652730726	-13.8350949322467	-81.5791508071817	-35.0657979775958	42.0150434824173	-14.825815479612	57.4052972919928	
625750000	-24.503682315238	-168.5926502597	-15.3300958734839	-134.099827046163	-37.3581033676818	133.667204582989	-14.7817263445196	60.6949920927836	
630740000	-27.2850677789019	-167.382660535808	-17.0907550979743	169.816060361026	-38.1538958070826	-53.5703854078615	-15.7943451518388	57.2858125470355	
635730000	-23.170784565136	121.81209850018	-15.817590412001	119.048983600858	-45.8889042830479	166.152223799336	-15.2792602889109	50.9096828166946	
640720000	-25.2750955715467	161.047405078052	-16.5445073229322	79.6329457895635	-35.1678598575553	72.9711878521581	-16.9511607887843	50.2877995364517	
