!Keysight Technologies N9923A: A.12.45
!Date: Friday, 10 October 2025 01:56:01
!Timezone: (UTC+08:00) Kuala Lumpur, Singapore
!Model: N9923A
!Serial: MY61181427
!GPS Latitude: 
!GPS Longitude: 
!GPS TimeStamp: 0001-01-01 00:00:00Z
!GPS Seconds Since Last Read: 0
!CHECKSUM:1989590192
!Correction: S11(ON U?)S21(ON U?)S12(ON U?)S22(ON U?)
!S2P File: Measurements:S11,S21,S12,S22:
# Hz S DB R 50
2000000	-28.5361487052283	150.332947375089	-49.1408025953587	11.5941646934339	-56.2103960078006	83.5178462839988	0.0891322199931899	-22.7640588896552	
6990000	-24.6985736125647	140.969788631653	-45.220134372942	50.2092722744227	-46.1813373775845	-152.339143898058	-1.10725049528077	-74.1214095453301	
11980000	-26.9901539081106	125.806726803168	-34.2526609474239	-77.6979545734511	-47.1318073679896	-92.4175517824312	-2.14437693264324	-111.19128188562	
16970000	-23.9670990794805	161.142502374075	-44.5525125019546	-173.971362369045	-42.5174858640734	44.6079984271644	-2.94275927453647	-140.410119785786	
21960000	-21.6317943355548	168.536030674882	-34.4887744477117	-86.3070179611644	-41.2618767414809	-167.014074077902	-3.71129247908337	-159.366720866992	
26950000	-21.4424816380686	-179.806147674609	-30.229323421951	5.62052333386713	-35.6016636727097	138.929882925052	-4.60280728660304	-179.821192703258	
31940000	-23.5623645578307	-170.17989672443	-30.3006106085818	-40.5022356815163	-34.454805033937	-111.082254594577	-5.57846102089925	174.742124916692	
36930000	-26.1723234260591	-149.510111200973	-33.001705546345	109.436468872812	-46.283086144011	-71.3142517340816	-5.8584961577793	160.462885292074	
41920000	-28.0229641924922	-161.123685012112	-27.7890423968618	-17.1881650907228	-49.5459421880316	-97.9056515930133	-7.20159281161033	153.861148240861	
46910000	-28.2712686013035	173.557526070771	-16.074074979389	-108.68184351132	-39.2677136880275	28.8426135413067	-8.77156658008465	149.472028324035	
51900000	-26.1669425322714	174.373929642341	-7.53084317975488	141.678683411754	-46.3630939648736	136.528105374993	-9.0433449792258	149.213697392096	
56890000	-27.2163738571867	160.243689730474	0.307358873200107	33.3946665944531	-45.7626592693271	-67.7506590898881	-8.39371705241014	148.054009186847	
61880000	-24.6433926695476	176.90934484831	7.25200873967766	-78.7610021860279	-40.9778396653356	52.4150057437283	-10.1652105137837	146.450199750826	
66870000	-22.6826052230802	179.102041085958	12.0594349410537	170.481006936361	-38.0058268896671	-42.6030540478618	-9.00320914419331	140.66345839736	
71860000	-25.4491481711983	179.650393089343	15.6032924463446	63.6598205284726	-54.2671419068692	-83.0306021921037	-10.7447431791109	137.390796687436	
76850000	-22.7346946870204	-159.474929926145	18.1358951392043	-36.1547802713709	-48.7132220949009	-50.6268050774276	-11.7593587023145	139.770739585476	
81840000	-22.9752846199059	-158.902131849516	20.2563224223552	-131.075055560671	-41.0998312697006	13.145316583716	-11.8300989606362	125.890306195757	
86830000	-26.4693726087862	-145.912743245399	22.0848367785809	136.487821740671	-41.650233181039	-121.547680252725	-14.5427326274625	132.080610068666	
91820000	-27.5404314498249	176.461561435271	23.4563713433543	48.4117812372647	-46.0146580602493	114.090929352844	-11.2555246217804	141.129149942663	
96810000	-33.1753550853653	151.617336135967	24.7191148533688	-38.3358609915313	-36.9281615451417	95.9187285890218	-12.2335088076973	128.369848768841	
101800000	-30.0648623977323	170.119158549603	25.4774563760211	-123.171999630083	-39.6388538762724	64.9552420357012	-15.9269345469283	136.671282686962	
106790000	-26.8708803370772	170.595553171579	26.160426013886	155.528121555656	-40.5846544083663	-132.781434096593	-14.2281229968488	122.151607699799	
111780000	-23.3459416023624	168.54071074203	26.7920313019272	75.6885692985802	-40.1804425583545	6.72566030928491	-12.8072719844956	122.779176766888	
116770000	-25.4411082189105	-178.663252939537	27.0231392739719	-3.11313435617305	-53.1336203078769	95.6643155585399	-17.2719925304332	121.56424602771	
121760000	-23.5580216900852	-170.352269022808	27.5340665709261	-79.1983256809898	-44.0228921728487	81.6894091540921	-15.2297051875708	118.86024104886	
126750000	-24.1082013299032	-169.069205747363	27.6318318045774	-154.672043071586	-40.4636658502698	42.0650799100375	-17.5249002508171	142.932998648116	
131740000	-23.0263351957162	-175.505889632289	27.9135729405078	129.633403351506	-44.093832950168	154.535221362839	-15.8468598675347	112.187051413088	
136730000	-26.1373378794747	-174.121520780248	28.1201267220833	59.1205616773126	-42.0993052841908	-102.220011534506	-13.9912541432924	130.137638394338	
141720000	-28.2060676052318	-162.368281982862	28.4166071142067	-12.8587217555143	-61.4005545686864	168.871582898975	-14.9231175999784	121.755898889884	
146710000	-28.0152574854855	-179.021865106832	28.4419495136325	-85.1859271390185	-43.2642188875752	-20.6424497931265	-18.6489310292612	131.573645784151	
151700000	-30.2067789757493	-175.844738441944	28.5902689067765	-155.756482667105	-38.6705335918303	-81.3841667048715	-17.1062483180027	97.4059363946748	
156690000	-24.7645228494517	179.937046800187	28.6969332281429	133.894371515422	-46.4974971775169	81.8289634583251	-24.2949146896263	113.860907823909	
161680000	-24.2416228759914	165.484760194601	28.833425348073	64.5645148396366	-44.608546682293	-107.036876645192	-16.4504071087454	113.506347196452	
166670000	-24.4513080948841	179.283272587002	28.8982622061825	-3.5252683180594	-40.1551409889613	-165.943385053227	-20.0586158077644	120.69872487811	
171660000	-22.4434208770569	-178.52677487846	29.0223528481887	-71.7118095004661	-50.778078551118	-63.4293471546481	-21.1997746000541	129.494385380425	
176650000	-25.7303843055407	-152.689637425594	28.9379907198125	-140.857766738652	-45.5886741594324	131.688593977931	-19.271824373673	131.236478126917	
181640000	-25.8742199309306	-165.564590380443	29.1414145582748	152.195568471466	-40.4783059271704	-89.2975840736048	-20.5018791495531	84.1002459189109	
186630000	-31.8249295768426	-127.34229511867	29.1591769446864	85.0183387351596	-59.248078584938	-48.2750611649191	-17.3003306343048	130.141367682759	
191620000	-25.5874822132126	-162.261374107463	29.3042581718396	17.8058216761333	-39.4333858232275	-151.517260598478	-26.5055368437653	137.294499978403	
196610000	-25.961328320484	-170.99691603909	29.1799985238135	-49.2930773789358	-44.8852946273474	-18.8805573946246	-18.3757471823135	143.849305636577	
201600000	-32.3242085677022	-175.819628278439	29.2917893358587	-115.039150742131	-45.256865364012	111.636467022455	-16.6336986862486	83.6446320532773	
206590000	-22.7703135101447	-176.298624460372	29.4239989451761	179.310356029637	-54.7237792190696	-142.234379125497	-24.8772323084987	129.180885640215	
211580000	-23.5006642868912	165.990592180416	29.3045985867475	113.910453170846	-44.1023169620007	90.4591558996564	-20.2929100287646	102.501558399917	
216570000	-23.9820011944854	-156.862309464419	29.3908180322203	47.2281901161767	-62.4290313240818	-47.5683027548488	-15.7697585752009	156.129922647757	
221560000	-21.8993254015546	-176.428504459237	29.5138505530272	-17.6568953009162	-43.9192338003075	-148.908961711194	-14.0562487351337	133.518767278926	
226550000	-22.5875149006315	-156.450227294391	29.4498219272516	-83.5871857462496	-50.0951525180692	67.3065315769069	-18.2206838369485	159.842052670758	
231540000	-27.3141931177443	-165.874468567273	29.6434233471127	-148.258160865475	-37.6091832112004	-77.3053530547182	-19.3428548675758	113.275185375259	
236530000	-24.3763490622338	-163.352953813076	29.5664363284592	145.813036154163	-45.8166200114786	-122.546137030108	-25.0292105354879	107.07688054835	
241520000	-24.2234000064974	-162.522000392349	29.7662216932333	80.7173209156793	-41.2149738460921	165.827330302096	-21.2158287180399	124.575391353023	
246510000	-30.3540741054308	146.668275560219	29.7717533601299	16.0691035439314	-51.3062040634077	123.188645276897	-16.3103043160449	120.133730457879	
251500000	-24.91111773631	140.973331226845	29.8043567063933	-49.1205639190958	-48.2156760185745	-119.87679746571	-28.6108634200402	178.7740833898	
256490000	-29.2850933712046	-159.981581089184	29.6616822862719	-114.699729238504	-43.184093003347	-166.772712228764	-19.7158129271448	145.209292462898	
261480000	-21.2536545075178	164.401681199755	29.6016583990435	-179.217287801782	-46.330137332618	130.402803731364	-20.3509756495023	123.067998409549	
266470000	-21.6368132322016	-171.618112137511	29.7127091340505	117.226935202372	-52.5205652893431	-57.697271465907	-18.3983368873255	159.539256323959	
271460000	-22.2414405935224	-161.953006631837	29.7579068823711	51.3656728747691	-40.5117894389166	87.7234104105991	-19.566366876212	110.634721094025	
276450000	-24.0815574804122	-148.839389898641	29.8288956663691	-11.77632181352	-58.6989057357379	23.9919942828417	-22.6056119926205	110.13625343603	
281440000	-24.5042773417129	-151.957459330758	29.9842608136603	-76.4270588417107	-48.5856161061007	152.023550042806	-18.4117436820049	99.3909573270932	
286430000	-24.3526239879465	-162.89694921712	30.1171286467803	-140.37066748765	-56.2891334120513	-66.8719270793538	-24.5627217753099	93.4922168900507	
291420000	-34.5960902627616	-136.506694454943	30.0570450700246	154.799306154768	-41.9354681942685	58.9095141523835	-23.6609241995599	121.023738160342	
296410000	-23.8030608036026	-179.266332437479	30.0527547759645	89.7406212467514	-43.2382137277519	7.09610712208317	-21.0081920593429	108.076096039973	
301400000	-24.6056931514531	166.812343994108	30.1852174181625	25.2273155008463	-45.6912928148475	77.3558048953796	-21.0181519639404	108.536437465233	
306390000	-23.3640074981176	155.926852343803	30.1476535935979	-39.1304815948589	-43.2912322169317	32.5091545986128	-21.2374393367407	63.0626108349031	
311380000	-20.9188306255773	168.287885065798	30.0342421876356	-103.546795498227	-42.7845899122511	170.819818864632	-22.7050464579393	73.4846309526909	
316370000	-20.9433383417834	-171.22576997906	30.198647933421	-168.487468218799	-44.0820635767927	145.513329315519	-21.1705361473759	108.27625206784	
321360000	-22.7337046268061	-158.918849637042	30.1228327397532	126.600446570741	-42.5061206785465	46.3925114291016	-23.25420667367	93.0671849604759	
326350000	-22.7131324872802	-179.221467355569	30.1709531201575	61.338980701227	-44.5275725845891	32.8624815850292	-23.484219866373	100.450912533373	
331340000	-23.7167481835015	-142.10908581174	30.1274455888156	-1.25137290859105	-36.9669110842228	-156.512712207705	-18.971167471639	94.6396817701972	
336330000	-24.494057868909	162.204997814443	30.0438114261019	-67.4146740718645	-42.6952463964435	-147.708473518469	-24.6294770808892	150.414164655242	
341320000	-22.1774229423374	-172.414210330605	30.016057864832	-131.850526017861	-42.284534633766	-42.5044033603803	-21.2408740274688	159.348867169471	
346310000	-26.2688563210129	173.706760476924	30.0475118188332	162.877269896105	-58.1471119602123	90.2865161479003	-27.1036506942363	86.826675801827	
351300000	-25.9567737594042	-168.404520413456	29.8922064524021	97.862005918743	-51.8435672039086	113.258501593871	-22.1680621354552	122.723838925278	
356290000	-21.1362723736406	157.747744466503	29.7590322442722	33.9851168934775	-40.3518525441349	126.395858843234	-23.912168282661	158.906116952645	
361280000	-24.8582141304778	178.192066700663	29.6146931573362	-29.426421663926	-42.3494518283162	89.4327806012863	-27.4210799704495	109.879889896835	
366270000	-23.687046735778	-149.865380381262	29.5138559077453	-94.1028569148128	-41.3094812580406	160.561523014735	-25.0674391208027	-58.6123928876106	
371260000	-24.5935258027085	-156.091432242624	29.5648284800008	-157.32458546222	-68.9498658063451	-95.8835995803688	-24.400394144501	-157.905749688757	
376250000	-28.0225248939201	-104.772512836053	29.7134756068254	139.613915721778	-38.7769313844495	-82.2565735698456	-19.6435520595725	-174.154426647842	
381240000	-26.505079500925	-161.723118412187	29.7360249988334	74.0440469135967	-48.0693623101353	145.71925744052	-18.8353898371042	166.430891360379	
386230000	-27.7426278596882	164.102614194615	29.8400242142739	8.72122420904427	-55.8530382626256	-107.221290739449	-22.83678904282	146.752455049074	
391220000	-32.8544084691904	-179.127085605817	29.8072281801416	-56.2798736477287	-42.1394931857395	64.4939162253309	-20.5401236744698	115.136287627213	
396210000	-26.3580824843311	168.566006511279	29.7972353269301	-120.609505928407	-43.7874289432246	128.510541229839	-21.5166609566813	157.163362430097	
401200000	-25.3238220896395	157.984443092981	29.6360701872309	174.319799430471	-46.3526129180901	-41.091187090444	-29.5012711264903	-116.185047175762	
406190000	-19.6406518311864	171.554383423329	29.5594931403874	107.793951467858	-46.2457753921278	-144.766356750846	-26.4760928487768	135.109550598801	
411180000	-20.3683223754527	-168.408200326005	29.6082841261979	43.4515267578729	-46.4142378098947	-82.6337422738134	-18.9048196029902	178.287642447036	
416170000	-23.4469968518635	154.020872513367	29.4382858232091	-22.6530903106149	-42.0372662795453	-90.1345889037168	-28.5946929865666	-46.8831874832384	
421160000	-22.616302023552	-149.409660683599	29.3639380345347	-87.774717931854	-49.6634229595416	80.4247264514117	-23.8013111863349	108.442369131054	
426150000	-24.6608298999051	-133.108447428714	29.120280516082	-154.960342385892	-45.2207944947539	-38.3994073529913	-19.1618660296689	116.416053688144	
431140000	-29.176053646828	172.42954572035	29.3094881534371	140.409096880092	-50.3455985358471	-178.289013615469	-22.7156517355474	168.044116378333	
436130000	-24.8274146562987	139.498581047336	29.2542214378014	73.0686172873955	-43.4482112392958	-96.6391247490311	-20.5036331676642	116.57209969578	
441120000	-29.9168859134573	166.664663396967	29.1308301324778	6.76097128280566	-43.3345170837013	136.028537521893	-18.8607513390792	146.828542721072	
446110000	-25.3709163395807	119.438885678694	28.8909258677268	-59.6653683761669	-41.9141057326924	13.3586216644242	-18.094407165892	140.077281719681	
451100000	-24.9444388773209	152.886842784379	28.7591717028934	-126.08484329001	-55.4426866968043	-137.091362007027	-18.139867272062	113.825921281678	
456090000	-24.0591062791984	-152.373594824412	28.7512731845291	165.056386308795	-35.7344646553157	22.0597665493776	-19.5696514673264	134.151809476545	
461080000	-20.6315021718147	-162.15077839418	28.6373122705149	96.9006121471553	-39.4640912804765	103.868435928826	-20.6739749299629	104.101097723517	
466070000	-21.9893543396633	-146.655372221716	28.2432652566901	27.6582810745927	-49.1087001104318	-129.640502447573	-15.3802083585385	111.788146468552	
471060000	-23.1853898116001	-154.032197156012	27.9990167830547	-42.7155482112327	-40.0064692399059	-2.60776283090645	-17.3245761796812	133.719930350354	
476050000	-27.7397143826882	-171.111459546444	27.7557355557434	-112.160312366959	-43.2830811748753	-179.612847877129	-20.3865207270166	117.627544723628	
481040000	-29.6829198289848	167.682809871111	27.051913153837	175.055108322276	-42.5730241155557	-113.046773877775	-15.8913708331294	128.023372337273	
486030000	-25.8583692066717	179.074362229639	26.4504390210901	103.978239760786	-44.3231024434925	-14.7780140915655	-21.5833779182841	115.069026197283	
491020000	-28.8760642847605	147.356969423405	25.6002493517436	32.3073908536909	-52.328770847352	14.3789370113604	-20.062544446184	89.1782622659871	
496010000	-22.0677245056241	168.379305491704	24.1895292289434	-41.0415711506201	-38.8569209035691	-92.8837252694272	-17.6952923800463	123.395001927394	
501000000	-22.8964387772326	164.481501564471	22.9278069191994	-112.308238846519	-65.7657628613738	147.001167178239	-18.5168828243953	139.325945209838	
505990000	-20.1678757697035	-172.371046421425	21.1205636096577	177.930107282382	-40.5025692539952	108.532580638058	-17.2908012778277	125.665500090849	
510980000	-20.9197897832587	-168.008305433464	19.2472985354477	107.742415754	-38.9041197651214	134.735663520986	-16.4624225772522	121.791018155067	
515970000	-20.0199929743911	-164.492110111193	17.1094982028424	37.7633508308488	-48.3330306283774	3.78764208291666	-16.3390985766888	118.535496203615	
520960000	-20.4239845690902	-158.121745675352	14.9797406929454	-30.3073135356031	-43.9558609462173	-91.5461349855233	-17.775281746406	100.010049595426	
525950000	-28.211359431464	173.205647091434	12.4448517265261	-97.2253178363969	-44.9004778251099	-46.9180730188472	-16.9820415683162	96.6071764265423	
530940000	-32.2020562166543	-142.548588348775	10.1078880640437	-160.769082073968	-35.5204753577267	-137.6405167372	-16.1784740935463	99.1717143006292	
535930000	-27.931237572198	-155.240636150375	7.43485474611785	133.582264044743	-36.418100962644	-137.169157396353	-18.0207178025803	88.5194026631327	
540920000	-24.9911357821806	131.999531563455	4.56665436762883	71.6652199608268	-50.0216331883798	-164.287112770472	-16.1751424455746	85.197825780276	
545910000	-27.9878148844483	159.281492977895	1.52664076858964	12.1243028067232	-50.1426560448053	53.3183034293053	-17.4180614900001	80.1604797639715	
550900000	-23.9270541045965	150.44435650138	-1.81447510694741	-43.379976925423	-45.4817616449379	-106.938971314945	-16.5959176825942	79.75631400091	
555890000	-24.5024136022092	-161.919427847874	-4.90413214101834	-93.0100429067443	-36.057790071413	167.532453530767	-15.8342038283453	76.3449388123005	
560880000	-21.5688973749609	-154.491039562675	-7.7394447954746	-137.895549203246	-45.5716339054634	146.804026029432	-15.6331216187612	73.8935481064889	
565870000	-21.7500916984719	-153.250040807311	-9.20320483658104	-178.832869419111	-48.4092681880786	96.634976063941	-16.9113110570009	60.7484206885236	
570860000	-21.7101902146755	-167.89244661973	-9.37522884214993	138.716176933512	-42.1029242691111	121.961348306272	-15.4343559940778	53.4469198253567	
575850000	-26.3527191727314	-171.83283995665	-8.19113737770569	85.0230882332536	-44.1742884786044	-37.6575166442081	-15.5948447521676	56.9977062625869	
580840000	-29.3812187689627	175.469060324484	-8.05833751532887	32.8401505860006	-50.6252203096768	23.2210350689742	-15.6522517677453	61.4338345250411	
585830000	-26.0554071836564	-165.917597515045	-7.37024917345804	-26.8910138565953	-42.0835540371222	59.8646475957511	-14.489372338197	71.2503174843984	
590820000	-21.7591609587318	175.265504224886	-7.74343366577888	-86.1087807019359	-39.011699853713	135.237615007341	-14.1377394578721	58.4445175678953	
595810000	-20.6159861864877	152.319957721791	-8.23110364669648	-145.420871323907	-39.2273675667514	-33.2972556359768	-15.5451895834072	66.920568538787	
600800000	-20.5614592293261	-175.130009672052	-9.0344284376643	152.408751307238	-38.5326431645675	-54.9744110401771	-14.4862690728044	59.4000890349332	
605790000	-21.8720698815079	-179.112654198442	-9.64369107669489	95.4618103675462	-41.6854930814394	46.2024676353979	-13.8780207212298	50.3947203984645	
610780000	-24.7099871427077	-147.764234471516	-10.7879569945901	30.4491559852147	-35.0943407796516	164.576223029921	-14.4429978260052	63.3671786746293	
615770000	-23.0472318567022	-176.477221838698	-11.9629849696456	-26.6250290752578	-48.3771098716382	51.1076145887036	-14.7597485136256	55.0893721890457	
620760000	-27.278244876709	-136.662836961056	-13.1985575473194	-84.5142637346732	-42.3604921199564	46.8955875811886	-14.2404288767812	54.0807457692716	
625750000	-27.5182070941173	-151.664501450196	-15.3111049830701	-138.567470482514	-37.8775702156694	138.720551471186	-15.4727014972671	56.2930519045867	
630740000	-28.0626295612576	-176.534644460683	-16.4420252661338	171.112512365831	-46.6886046818622	-78.5869112934171	-15.5812999917261	48.8176662723869	
635730000	-23.4488915722264	124.711294287183	-16.4949722468441	122.375688842923	-41.0181589559784	-166.286495784875	-15.7112859616657	44.3960722523432	
640720000	-22.8412322229244	151.026537128602	-17.342222514885	76.5337455076926	-34.1580519693075	-24.9498420722915	-16.3660842436831	50.2902784336269	
