!Keysight Technologies N9923A: A.12.45
!Date: Friday, 10 October 2025 02:30:32
!Timezone: (UTC+08:00) Kuala Lumpur, Singapore
!Model: N9923A
!Serial: MY61181427
!GPS Latitude: 
!GPS Longitude: 
!GPS TimeStamp: 0001-01-01 00:00:00Z
!GPS Seconds Since Last Read: 0
!CHECKSUM:1537345964
!Correction: S11(ON U?)S21(ON U?)S12(ON U?)S22(ON U?)
!S2P File: Measurements:S11,S21,S12,S22:
# Hz S DB R 50
2000000	-27.7923104779124	-177.889352434904	-47.3431835792946	169.601457446578	-40.680145365159	158.660685601958	0.0236663453966393	-23.6951111376093	
6990000	-24.2842525061682	144.542607483056	-39.7540174938799	-55.66011739083	-37.5373250295149	19.8164690233774	-1.03997634068348	-74.0358074709699	
11980000	-26.5821202162071	128.54540531908	-35.3389333129418	1.88724271760901	-54.5656899808224	-51.835693663897	-2.67180309661006	-112.138328762508	
16970000	-24.2127772077177	178.469389641386	-31.2919206216337	15.6958053134267	-41.9101884661957	126.953357081966	-2.81777949908235	-141.118158523109	
21960000	-22.3657567217746	168.754303647083	-43.2853995084455	101.206224615386	-38.8040082652712	54.6723330677768	-3.54569359322087	-158.886602817573	
26950000	-22.9450284237749	174.127047188896	-32.0062009702463	-156.936441501345	-40.3474200875158	-124.125861904149	-4.11361988100779	-177.609898352899	
31940000	-24.4986586150175	-177.725678778918	-29.6392604048468	-9.11435356672957	-39.586638363534	-14.0123917409452	-5.29215873102758	172.820023006151	
36930000	-27.1776441680169	-144.330122243504	-31.963329936586	123.410608012501	-44.8370612186963	-82.1463742138603	-5.85147497255476	161.791003816865	
41920000	-26.7762281941283	-153.557288182271	-22.9378743535378	-9.17891541945742	-38.0659513738939	-95.4466390363364	-7.18454251945376	154.314835962562	
46910000	-26.8446744893688	176.272612717168	-16.1979145790438	-108.025057397649	-39.0558114505645	-38.1261430175538	-9.06568744492393	150.345647341751	
51900000	-27.4708842031115	177.797067619133	-7.96384838011247	139.454972276142	-56.1622115087941	-163.198389820028	-9.78901696612161	152.942675609333	
56890000	-26.2545241174092	165.661734941063	0.180988178783206	32.9746683856177	-64.4513543605042	-124.140025084132	-8.74530328836161	149.103268177989	
61880000	-22.0677050821833	-174.842108796161	7.21818954767845	-78.6080644021023	-37.071992412541	-91.4400318611279	-10.7968976787213	149.159534509782	
66870000	-23.1417277650308	-171.47471966037	11.9054947711937	170.921198753229	-41.8413778473409	34.2731107601159	-8.74335109680825	143.932364060801	
71860000	-23.8255830093831	179.763736505071	15.4882235054305	64.3705295664415	-46.9047412979418	-93.7210915985639	-10.304127475276	137.744013705867	
76850000	-21.9773139581411	-167.892994005584	18.0281570992432	-36.2710732830736	-47.5860746585344	-2.2844353320131	-11.1401357536108	141.690525922178	
81840000	-24.9958816738507	-162.787452879273	20.2491096212717	-131.360528981388	-38.3187358550431	160.421102100483	-13.2398057150362	134.045445512732	
86830000	-28.8284947464272	-153.449760387141	22.0195646928134	136.580598057	-36.8579110225002	-63.6252587094158	-12.6629779624936	131.050441409931	
91820000	-28.9836084755346	-175.063839594624	23.4344610207643	48.2986027957646	-46.3366040555365	-154.124518223413	-12.921802187857	134.229727952194	
96810000	-27.5613066781291	163.284658317574	24.6324089554531	-37.9185628755204	-46.3593558668518	-10.4715662055955	-13.3444177864344	139.227532789378	
101800000	-31.203088111648	159.460178563816	25.4040373180466	-123.214231359951	-41.5103993356554	146.053109195486	-14.3684897050022	139.496035325458	
106790000	-25.8369510784937	158.402214629852	26.097384227047	155.274003620399	-45.431944569407	-179.451800918651	-16.0461247682264	106.795238461269	
111780000	-21.5655867443386	175.449417617898	26.7217218828006	75.5341863049631	-42.6935668945238	-138.925233827295	-15.6746716248373	122.790156978182	
116770000	-23.3731340427722	-179.85236515176	26.9009165241037	-2.97854627885699	-53.6692030223249	-96.3426421086984	-14.3059196106006	137.75759242039	
121760000	-25.3953356641907	-178.575977974595	27.4678480929779	-79.3633247464895	-45.5368147299754	131.582435658551	-14.8690940822644	113.674022351933	
126750000	-24.6526631813146	-164.904525941729	27.5810891665587	-154.577070593264	-42.0435658477545	-49.4066545979932	-13.28790175579	122.949628433425	
131740000	-24.2155641431276	173.021658109667	27.8571509852336	129.683642020111	-39.4737055603125	118.576735345559	-18.0567445191192	101.99181080525	
136730000	-25.9314334521917	169.412303485212	28.0343373573025	58.9093917900207	-45.1909911385878	-133.352938971781	-19.0677104241704	105.055495514879	
141720000	-29.3037386352962	-168.278921263604	28.2721811907378	-12.9524035828666	-40.2994886589121	-145.789538811316	-15.4388706893635	112.392032496719	
146710000	-27.7287451288116	-179.521646586107	28.2944827325182	-85.4226639440858	-52.6186915270885	-148.084450069548	-19.9125396590153	93.6658636898735	
151700000	-26.680343031858	155.653225514549	28.4864725334441	-155.818383193079	-42.0550257593834	171.040729892528	-15.5932944275218	104.389505408016	
156690000	-23.100332303264	172.396822263252	28.5974455670153	133.713192450484	-49.1393858777908	121.609306671556	-19.9801097189893	124.344749039832	
161680000	-24.5880061130262	162.449630820631	28.744479375679	64.6490076637752	-49.2326324245348	16.7685114120541	-19.2715026686854	118.84771082388	
166670000	-23.9243638833392	176.430686913346	28.7928012821291	-3.33938301691099	-41.2540338367497	144.497447866318	-18.6543931756644	86.8216477160148	
171660000	-22.3882709677291	-172.154211192475	28.8980759917332	-71.6078378252047	-40.4124732931325	-108.16741136857	-16.5349823094802	99.9531546218262	
176650000	-25.1031224196679	-140.99463614417	28.8940882456157	-140.564670092537	-42.6473843832845	-14.2508849545234	-19.9089081554216	130.928340375192	
181640000	-26.5582468780076	-156.36568439954	29.002273414116	152.127850859598	-53.6240939180596	-153.0278813761	-21.5698328728842	143.6651983427	
186630000	-29.3026694247731	-151.097065828505	29.0643037596047	84.9962805354145	-41.3555773554251	-9.85580670464729	-17.5592240281452	105.910169389433	
191620000	-25.6951785614679	-149.95655602556	29.1465711960887	18.2543656271163	-46.7290974758901	-61.3220812013783	-20.0515221437736	99.8430198913504	
196610000	-27.3791597450895	167.319061069501	29.1168054666207	-49.0502308150961	-49.5419177921411	56.1715024973846	-18.8406058116717	120.165151394682	
201600000	-29.5406382224344	165.072930469656	29.2011777567559	-115.335539702357	-39.5880425069822	-141.634725696749	-18.6405690990754	111.424519067645	
206590000	-21.4250918950989	-175.768217841277	29.2960277869217	179.493324301449	-39.5677702888615	-11.2260881045002	-16.2443511827658	142.637449761344	
211580000	-23.4459619935045	164.864077707031	29.2306448346211	114.134138886166	-42.9824880298435	131.348103829628	-19.8411355396669	126.991254055108	
216570000	-22.2743576581294	-163.93978405823	29.3463999748501	46.894948168591	-53.204625220997	-62.2341619262781	-18.8711802152768	138.772719785619	
221560000	-22.8502294350556	-178.415791748861	29.441356015006	-18.0072928099554	-44.5854221360912	-170.291309218077	-21.3932040244893	134.675543115107	
226550000	-20.5204904970593	-163.154087864685	29.3744192542797	-84.0204277130649	-44.0572435358846	-66.5205989963969	-22.2096485592036	138.559870242282	
231540000	-24.2095480902356	-160.807081499743	29.5784297848049	-148.494835604189	-50.0975024020394	-116.754451562509	-25.2901436116753	112.574375580064	
236530000	-24.3448661367492	-161.753963608303	29.5521549620522	146.036893375673	-44.302732230169	-111.998139278462	-23.7604478000052	138.610460419696	
241520000	-23.8666143168892	178.483425109175	29.7049046602455	80.447349859188	-36.2523450583267	-163.371022468171	-18.7889278212637	106.219524681122	
246510000	-28.9119197147932	-169.02895042421	29.6386549968724	16.3768053700197	-43.7455274489604	-4.63589640693224	-19.0612930329781	153.257355131702	
251500000	-23.6003527029698	144.700842433392	29.7162253030324	-49.4792474514499	-44.6264857977823	-21.4099725586862	-25.6857860153166	141.522525054882	
256490000	-25.4686662483165	-179.368973536666	29.573008362101	-114.780887756045	-58.701304760799	-142.375011223187	-21.6865676593508	120.715082274707	
261480000	-20.9622616040102	168.571010968217	29.5278370868324	-179.047367077365	-41.5198464852006	127.558909387285	-24.7923345181635	168.983589969936	
266470000	-22.8094769425763	-171.388050696457	29.564938368648	116.798929933385	-46.9828715498013	-6.68841459678524	-24.7560723066751	96.3363519972008	
271460000	-22.2690385636921	-174.259225621681	29.6538789101555	51.2698015502358	-48.7475627516535	-119.837076008928	-20.5868535861274	112.36501210418	
276450000	-22.303806467346	-157.813816290392	29.7803039442299	-11.6555023396868	-56.1965513759914	48.2376188761245	-25.6181499197493	179.139234108165	
281440000	-24.0821390480987	-150.45379534469	29.8953805276837	-75.7931783870447	-39.2717423047326	-171.622889022639	-24.0939652543198	101.965476871818	
286430000	-21.7876332026328	-152.239113880959	30.0638393464565	-140.34818988478	-41.9168607060952	-128.438923076263	-28.3479443609294	110.550629262182	
291420000	-27.669138800086	-170.081004662638	29.9601946401872	155.05290903665	-51.82651154233	-123.373160472486	-24.8229518906594	66.5813101207503	
296410000	-28.1451876470343	160.804305502499	29.9685989147269	89.9811160358689	-50.8457371683672	147.817309946899	-24.2578143037218	133.072511502346	
301400000	-26.0499410498027	156.939937539101	30.0734800789677	25.4965365329497	-47.0907278261115	-33.7458573941701	-19.7340251538316	66.5894647917268	
306390000	-23.3669075161711	157.355166388738	30.054725132637	-39.2478565694979	-52.7403613372827	124.480853677227	-22.4483955403445	122.015970052225	
311380000	-21.9576361827803	160.851306543099	29.9927692581804	-103.595875195433	-45.6665103456777	128.538004119509	-28.962730574564	76.4616715284567	
316370000	-21.8509748460648	-150.821372787359	30.1405204515178	-167.891463083139	-42.25771544431	49.4826198165982	-26.3835298637568	108.142013852967	
321360000	-23.213908566884	-167.669867737379	30.0456160339038	126.658299738329	-43.7572516138094	-13.8349689321562	-19.9436212268837	84.0533369916347	
326350000	-25.0459761477929	-176.892128222059	30.1111671110206	61.5765507323012	-43.9588044888862	-56.6404456274861	-23.9238530604676	85.822719656467	
331340000	-28.165455188002	-150.659399909808	30.0895737786542	-1.31732388676435	-52.0342393096687	46.0765396021455	-26.0235527679704	113.49410437462	
336330000	-26.8276389541608	160.702972867371	30.0372283978559	-67.1677361691976	-60.7660368248445	110.55090581863	-27.4249666548589	169.168460109102	
341320000	-27.2053849441349	165.955847069253	30.0722991321115	-131.84189984276	-40.5998873439828	-158.290173432272	-26.9855617469842	92.8992695259189	
346310000	-26.4041891657531	-177.494273506676	30.0696668362234	162.54543397705	-46.65372381215	130.708809836309	-36.8898716660584	67.025701563594	
351300000	-26.6703411925513	-157.116378574068	29.870319235744	97.5463639568406	-46.3246557377208	167.528136436365	-18.547158844243	128.746938537127	
356290000	-24.5409261408617	-166.121665734608	29.7981923153887	33.4806053964464	-42.0850112517014	-23.3258341146937	-23.0819296691062	80.38643401371	
361280000	-21.0788947896326	-179.517072030546	29.5998258113792	-29.6805867075946	-50.4319965146075	-69.9259487566284	-22.1176837966374	120.972520781488	
366270000	-20.5007732126259	-153.107523267146	29.5877678111012	-93.7847815242613	-43.7382311542341	58.2437686167466	-20.3519793890137	121.248173929417	
371260000	-24.1814579151422	-139.288668091513	29.5079134338868	-158.243109003856	-43.0154077965535	175.194668830954	-28.7994468723184	56.1415935946422	
376250000	-24.5128007903023	-159.761886817593	29.6877188908974	138.134658501958	-44.6414147450161	-150.101616329745	-26.3453049656776	149.046252049831	
381240000	-25.0232534099862	-139.610423441905	29.6172214708685	72.9964970466936	-47.347339532712	-71.1634762591	-22.7069216234355	151.737936340064	
386230000	-27.065639356487	125.723983614861	29.7534500510028	7.53190287240603	-39.2747338394822	-169.760936610143	-23.7333422808524	140.587934113224	
391220000	-35.2754161206962	177.228926795667	29.5430744740292	-56.8238758071064	-45.7350715816515	146.16569851864	-23.0076647853816	-107.482250397925	
396210000	-26.7464878842291	133.066188187853	29.5610870079443	-121.259475072527	-54.263635262437	-15.0900922809856	-25.586087419903	-144.470535988944	
401200000	-20.6671190894064	161.947163792777	29.495531581675	172.513009421807	-49.7918506046843	62.5371497100673	-29.5953508091016	91.1165747419259	
406190000	-20.6213637693249	175.384442861432	29.3542632604007	106.823236846389	-45.1278759223768	-115.708078731621	-22.9296776631393	110.509581835147	
411180000	-22.1706463495297	-160.176111077101	29.3435056304758	42.1060177266659	-54.7531141976818	-39.6178036036552	-17.7483007427229	112.764035798012	
416170000	-21.6764707338453	173.328380096436	29.2693530169031	-23.2179572254942	-46.7822804793503	-17.5259935783633	-22.9801186892999	169.26714464769	
421160000	-25.7844543469987	-140.416560101195	29.1116459319679	-88.3682138148821	-54.9902211824526	-131.511988012106	-17.7054901638384	104.42283581872	
426150000	-21.503563287801	-152.19115712531	28.8635349241221	-154.308872402976	-47.3057625760168	105.503585014141	-23.4375035340941	135.416681757083	
431140000	-28.0534911858316	-176.491818855191	28.9207782616113	141.198421116228	-46.5532663942756	-86.427076977614	-24.5543509863353	93.9308664080154	
436130000	-36.1039556569057	132.19926393878	28.987049992497	74.2454500794336	-36.805500005473	126.557416108969	-20.0149677998442	129.897650962075	
441120000	-25.5534269373703	106.992482793571	28.9291439829458	9.10457720592024	-40.1296611808233	-105.884715371177	-46.3394171311057	154.339383080255	
446110000	-26.5634181470392	164.461494416103	28.7640187072755	-57.7619099492911	-46.5793802151009	162.279832117494	-22.6400665495844	69.6840848951187	
451100000	-24.224530801246	166.885718896297	28.7744736968035	-124.958588613089	-45.9604462203032	-153.318314108135	-18.3085365084443	130.158226808875	
456090000	-23.7940406930545	177.523773400153	28.8086654231406	165.79982388038	-49.7204939676103	119.4258987611	-20.2375708152766	157.505722735391	
461080000	-23.2150737135019	171.41094650197	28.7170554892349	96.856000580127	-42.669547246968	176.949855207763	-18.5921451240995	139.658977128402	
466070000	-20.7516136726327	-161.589610909359	28.3059776077458	27.3919374084405	-58.2810577977084	95.4980843734393	-14.8996686004023	145.323389662658	
471060000	-20.9328873220677	-146.522245963756	27.9244374599533	-42.9464267666647	-46.8098499735353	-154.781103538381	-17.5827649027834	124.770517052074	
476050000	-26.2130388473729	-160.16150491888	27.708167228733	-112.606093992787	-43.8125438379833	107.203083112204	-16.9785306877653	134.199045928916	
481040000	-26.6507318901623	178.072531964769	27.0164606096781	174.759950068126	-48.8029178370456	-144.188762905123	-14.8233583081209	119.325263203084	
486030000	-24.8624913620646	-159.231445104585	26.3390189867054	103.670047361357	-44.4621224547782	97.6905283639619	-18.2880256141291	116.340553826817	
491020000	-25.8736425294916	155.715148462189	25.459346985933	31.8112053340417	-57.7703727012557	168.819619236	-18.6009616252137	115.85198243651	
496010000	-22.0766827646217	155.352559329175	24.0819538099111	-41.2946916089607	-72.3078122663696	72.4612099459927	-19.2502644908341	126.496041965981	
501000000	-22.3903659505684	155.177170157745	22.7940298385954	-112.364367905676	-46.879386045085	-158.825308225216	-17.854242413819	120.460989781137	
505990000	-21.8191516705942	178.479131120847	21.0235494068784	178.297016226077	-44.6734467994	66.0359308173097	-15.6236565052623	118.031570069672	
510980000	-21.7577586055566	-163.526428526786	19.1189733142849	107.287227490991	-43.4530695076163	-161.579963549473	-18.1882816181887	120.219922879428	
515970000	-20.9469725639651	-166.74195106747	16.9366277830738	37.7143958120062	-37.8470851855801	-95.4380074704269	-17.1069004398246	123.497494416156	
520960000	-22.6018340715494	-170.284417581658	14.8868921211531	-29.8655858254778	-38.2687198048465	-116.579984884158	-16.7187467718483	98.5113623215158	
525950000	-24.4204106070794	-172.5674258892	12.3188095611082	-96.7260620732789	-32.8670792158668	10.0860340572473	-16.2282513327857	107.725603166996	
530940000	-28.3087335741144	-151.742947287509	9.957868450717	-160.591878002482	-42.1333872972769	51.7570083171817	-16.9242559919542	101.386205704013	
535930000	-29.8948036340668	178.882178818429	7.277139411496	133.45972745605	-52.4196243988862	-16.911898112477	-17.5314081034911	90.4904825037096	
540920000	-25.6081790572663	136.6604354925	4.34733223204127	72.2625314331716	-53.3513396747285	-172.321315513171	-16.9691401580848	83.6234299056679	
545910000	-25.406217624522	166.585575833219	1.52006443178898	12.6118340256421	-40.820443719174	-76.5069992879998	-17.6911625521603	78.3728458929646	
550900000	-23.9772986728489	158.943520725765	-1.92764613217935	-42.1231704002422	-41.5241446041987	-55.6389343836262	-16.437213193605	83.6568081715431	
555890000	-23.9384354076035	-152.486989378729	-5.06402648018856	-91.1539543773851	-48.6549621170889	16.2828418300874	-16.4879959167726	75.6459412627177	
560880000	-22.3712680714906	-148.289277148968	-7.59059575434538	-137.326347885722	-43.0284856196551	80.5685350922897	-15.7136610441522	67.1615985545817	
565870000	-23.0498611591174	-161.331709453431	-8.69785265827996	-174.446109874004	-41.8004760747094	-10.2184858852809	-16.9166238738224	63.4871715390615	
570860000	-22.376201092108	-175.355002645457	-8.82762983306996	139.701632513973	-54.2525696107964	169.711702375655	-15.3024708649851	55.4954790359715	
575850000	-25.7283311584367	-148.216895548859	-8.35254328809182	85.5265505674217	-47.4243784692398	14.8299353516439	-15.4247555227205	56.7371905682565	
580840000	-30.1414008042039	163.181452501968	-8.11833297364927	32.9561642348064	-39.9871463790312	12.147103265166	-16.4852670734756	59.2237647986104	
585830000	-29.3043548857587	-172.532180296337	-7.66980493725496	-24.8657200404989	-58.1562298969265	82.6490130056362	-14.8489505662052	68.4932470780524	
590820000	-23.6655968667387	-168.887315896688	-7.82208130180026	-84.3902504242381	-41.409234086386	-36.911476554553	-14.2869096721606	54.3024993492299	
595810000	-23.0033600929713	164.881142334365	-8.02688621850615	-144.74351841789	-40.2900374214338	121.621574885409	-15.2330629508807	68.2777012182447	
600800000	-23.6014245900392	-160.006093261527	-9.16665965291534	154.117747297943	-53.6515646924094	-126.007153803949	-14.1191169385307	56.0535047121967	
605790000	-22.0208764501426	-178.18685027981	-9.3352287067224	93.0108452479228	-40.3885315180906	57.3703924075739	-14.1513051076485	56.7210014200665	
610780000	-23.1926273886505	-151.370726849874	-10.3833080480121	30.4997681676168	-35.4047713935305	-106.769265270222	-15.2971087114081	53.8326858125169	
615770000	-25.0861669669806	-178.172496611936	-12.2896001778662	-28.0350310969697	-43.3083461768553	-30.2412757553596	-14.6086183656046	56.7155735835755	
620760000	-25.3839891253998	-137.592406567121	-13.210400652047	-85.6287747727032	-47.635716245182	19.4783777730919	-14.4319113413356	55.2258133449255	
625750000	-26.5565320525198	-160.266902768888	-14.212856543802	-142.444402277018	-41.9363564642559	-137.965620746085	-14.5775938624771	54.3391433002049	
630740000	-29.6363889367062	-175.693055190424	-16.2160665705128	167.961381092853	-38.5333527338491	171.124474054187	-15.4618658365472	51.6121124556969	
635730000	-26.0953533800038	136.942618205505	-16.3266664319303	122.062796604444	-37.2823919547779	-5.87079586266619	-15.350759724514	48.8473948527652	
640720000	-22.049318663299	143.943151830647	-17.1138828079299	71.3315458747641	-42.2383428619241	142.215305625809	-15.9055017793204	55.3703250472645	
