!Keysight Technologies N9923A: A.12.45
!Date: Friday, 10 October 2025 03:06:30
!Timezone: (UTC+08:00) Kuala Lumpur, Singapore
!Model: N9923A
!Serial: MY61181427
!GPS Latitude: 
!GPS Longitude: 
!GPS TimeStamp: 0001-01-01 00:00:00Z
!GPS Seconds Since Last Read: 0
!CHECKSUM:1676709566
!Correction: S11(ON U?)S21(ON U?)S12(ON U?)S22(ON U?)
!S2P File: Measurements:S11,S21,S12,S22:
# Hz S DB R 50
2000000	-26.8813189341742	172.869865698152	-53.4511241513688	-158.976165089834	-45.2257862935606	24.8048319687478	0.0138106474647139	-23.6869411992244	
6990000	-24.974502321452	139.907808615276	-32.0183034576769	-50.8649071245498	-53.1424164296962	-14.6486654431903	-1.0562287538415	-74.7089425076253	
11980000	-26.9983011239982	123.353863110971	-33.4452126476595	109.227550638305	-49.8471403441316	-25.1843613536588	-2.33190451005031	-110.03927568899	
16970000	-24.2674334499742	168.087441768144	-36.4223775522979	-13.9230624614832	-38.355939575116	-119.628718122957	-2.98375140855001	-141.96563363188	
21960000	-22.391721785053	171.590412025221	-29.3366304535194	-139.013674668186	-45.6908571432255	59.3331665481771	-3.7936105826829	-159.413259278236	
26950000	-21.8006522000145	-179.963387330898	-38.0124854781041	-56.5458783561497	-36.9478042428717	108.157992359897	-5.23260231283297	-174.798611168127	
31940000	-22.2278247554619	177.989761356546	-34.4901926961098	137.881079595817	-42.1505187383864	-14.078463557228	-5.14006713168025	168.899110764589	
36930000	-27.7967133391071	-148.696740060946	-30.3842845199666	23.6010912458183	-50.2921172091535	-119.399725143648	-5.82629301803318	157.626291452217	
41920000	-28.2088638618433	-156.093730857595	-23.0346072878705	-14.0899293308045	-36.8010362154487	-80.9459279490199	-7.06052507349959	156.974717552828	
46910000	-26.5132753329436	-178.196057048157	-17.5256153083948	-115.327179355523	-39.5703113398034	-91.6447515893959	-8.05974035560054	151.311219558487	
51900000	-28.2979723585239	161.662804677723	-8.11620384118296	142.397453162102	-43.1592365636833	44.1238858389925	-9.65145758717295	141.336721313603	
56890000	-25.4467097327013	165.650175506461	0.164488004916422	34.9103493826204	-45.9230374826872	161.007193498288	-8.85787101343261	144.677596841377	
61880000	-23.569528991019	-179.873574353598	7.22925970872066	-78.535116985355	-41.0775452206427	-44.7026010368769	-9.82309668650971	148.483030494736	
66870000	-22.6568583558492	-177.993398221519	12.0212466989312	170.723580257253	-43.6413964837464	-130.03067046229	-9.90617050926068	146.972994817338	
71860000	-24.3103336325331	175.662139080391	15.4501225494047	64.4089374705781	-46.2278020010921	153.882724051465	-9.19158874942469	134.736935912623	
76850000	-21.9110598908026	-170.104125426629	18.063504562958	-36.1861027021071	-43.335264861077	31.9274069102559	-12.8022263609698	129.88113918342	
81840000	-23.8136390256356	-170.986606980102	20.2244370326893	-131.300104408484	-43.5068912064349	-124.749920921229	-12.2997129340789	126.161958373859	
86830000	-26.4993931062008	-136.348730456587	21.9885513789384	136.245596366677	-47.3669015656744	165.88681582354	-13.0637924198911	142.988799453577	
91820000	-31.3887577885794	-167.361876193544	23.3897482739118	48.2096828395179	-45.7422272370095	-35.35017454288	-13.5607703178786	145.858604046309	
96810000	-27.7148263974846	176.333870821518	24.6268798615146	-38.0861169574274	-48.9682037882384	-156.460194041236	-13.3417435610444	136.386024667184	
101800000	-27.5975529909376	155.369997668282	25.4270265223164	-123.481829318085	-45.7039612508685	-92.0541217133407	-13.6484067042435	129.667668835084	
106790000	-26.301689400211	167.767662326402	26.0984327657542	155.468115865395	-37.3521280922026	-178.429663840602	-12.6268958483563	116.337393488356	
111780000	-22.1461752153726	167.167683972249	26.6688842798281	75.3952375056162	-41.4105388577468	97.6823916975962	-16.1902654672019	143.868681875339	
116770000	-24.8003686568651	175.511735461002	26.974508750601	-3.11120505085704	-43.9480808595715	177.987847234982	-16.1119960702638	119.585520147639	
121760000	-23.5150657936363	-168.783510726684	27.4972438279271	-79.8482655365538	-41.4134234561449	82.5125665620851	-14.7518623599334	108.264472240473	
126750000	-22.1441231524537	-148.179005738258	27.5326786775569	-154.651762068196	-41.7750175764524	171.400163350148	-16.5439034421852	117.200819783956	
131740000	-24.5909979458029	-178.184921118666	27.8897400458258	129.580886793356	-42.5385714066864	115.171994839908	-17.6121642679373	119.435970576924	
136730000	-28.7406506387081	-165.718168944518	28.0886314695606	58.6452406067545	-36.9990429347917	84.9926159310004	-15.7453649899764	95.8346231604785	
141720000	-26.7089489497956	-142.479364598827	28.3074239358839	-13.093325945838	-40.0344991947893	43.7813048365364	-17.4581710073967	119.763181742085	
146710000	-27.6147857139645	175.307871004102	28.2993726520958	-85.5019609736734	-39.7886271358219	12.0588521324935	-18.6098298565968	105.067271141661	
151700000	-28.1553018961685	159.061512822855	28.4796895638979	-155.739086321589	-42.8054419009697	-18.5790572223142	-14.7312789861365	96.4476987184409	
156690000	-23.3555427623457	-175.871947093775	28.5536202600116	133.665458243801	-40.2286990301609	33.3431954066765	-18.6131361343919	128.892362432401	
161680000	-26.1961874609327	163.636803076328	28.740585133706	64.305666629133	-43.6745213504097	115.329037688589	-14.8116556955535	108.026034479763	
166670000	-24.4353123417783	176.551696540906	28.7899593597548	-3.72263746013343	-48.6106374271125	166.334475353159	-15.4100260387885	105.654736770304	
171660000	-23.3171667753877	-177.332322169267	28.8904356789442	-72.2137385782379	-41.5565279807439	-32.3005507774008	-16.8529891528809	126.575524274764	
176650000	-24.0024761099585	-156.327575563216	28.8779808077288	-140.324855729341	-56.409856988979	73.3052211429871	-17.637150126908	100.36438709515	
181640000	-22.8323393967334	-156.85259965944	29.0364843242542	152.256155548214	-40.1783979307522	-68.9848147805819	-19.9644477257918	69.9303759096452	
186630000	-27.5531281294465	-143.511013364369	29.0816279591881	84.8111455028558	-40.3652333568093	111.617049571812	-19.6992012528836	107.010176227945	
191620000	-26.4114272499574	-170.588603262918	29.1816575842432	17.8283222213364	-48.8091555701919	-140.1698663712	-19.3275601822677	127.742704046411	
196610000	-25.6264292905169	175.469730554219	29.1227020060928	-49.0657458285023	-54.9007589582619	-79.9956342967015	-19.9303343666673	112.481151273665	
201600000	-29.3210807785141	171.133354527304	29.1688550060725	-115.44042003588	-41.6324167012794	-107.226732661613	-19.002939523304	164.761072442959	
206590000	-22.1231405654533	174.853499228129	29.3268997203058	179.502886119881	-38.7204135777717	-78.2529640542859	-17.5531650713443	128.258851038338	
211580000	-24.5442097414573	164.067385980928	29.2287676105385	114.052160188129	-50.3317190214566	-150.507145169027	-20.7277870782033	105.312538240653	
216570000	-25.7192505054679	-169.315078650616	29.3592376023244	46.7356116630637	-44.5564354462558	26.7883076839191	-23.8222622677625	117.770906716847	
221560000	-23.1037710625703	-163.171232533	29.444964644185	-17.9508566766374	-51.8711978561915	10.4940942993257	-27.3148911776857	107.243865905163	
226550000	-20.3408665089208	-151.449827341637	29.4196775359606	-83.6654234333909	-48.8045182787837	15.9775925456814	-18.523499106104	140.316879559042	
231540000	-24.09161635549	-175.74306084495	29.6199083131876	-148.47525591424	-41.6260892068504	-17.0784614290012	-17.9366752698744	112.372936885164	
236530000	-23.7018165776866	-171.714389896518	29.5420880212476	145.781170160255	-69.5567107034848	-59.4781320493837	-27.9756664715191	102.816713067135	
241520000	-26.5039042587227	-155.350528137673	29.6936209559297	80.4563816254603	-52.3368240130584	-81.2121814946556	-21.5251679749811	139.307446813576	
246510000	-29.624670830615	166.237219438072	29.6439067155188	16.1534386704575	-49.6595062120068	-5.62165162775714	-26.3295743936685	122.545297859053	
251500000	-25.0121266524573	154.162162477108	29.7763170439375	-49.4675336421216	-49.4280412015637	34.261760106612	-17.6668498275637	112.259950632708	
256490000	-25.8324818376652	-173.221736399011	29.5930517614168	-114.490626427553	-52.6876439982634	-175.680273934835	-24.2353115160869	-177.706676092693	
261480000	-23.1339022577403	-177.89907712401	29.5541310810022	-179.307276991873	-44.7126381236259	-104.770354663414	-22.204936124412	136.344550466293	
266470000	-20.5417911130164	-172.582135232551	29.5969013505417	117.089803735367	-44.8254998523147	-113.406760240488	-27.4800524469191	124.945342307158	
271460000	-21.504751572292	-168.937606478672	29.6885682226903	51.3372987977748	-44.9320329465205	29.1274616678801	-22.0975888177205	135.03379042532	
276450000	-24.1711221445698	-157.516206577952	29.8000531899253	-12.2514125308645	-46.6946835259711	-168.313164864004	-15.1397143540251	118.935875244112	
281440000	-24.1768879562539	-169.395441255879	29.9831065297976	-76.1582962797247	-44.8313581981729	59.4360206180203	-24.5968219541476	112.165475020858	
286430000	-24.9230661088087	-165.02277805509	30.1050799810886	-140.264926933131	-48.7514626308616	4.59495309719141	-20.0063093015179	111.060406066042	
291420000	-27.1166089348011	176.287343544255	30.0119923624373	154.741403469871	-54.0150786607874	-95.2650847341581	-34.5847424493152	120.673550319388	
296410000	-25.3452659788541	150.640350626802	29.9875141742416	90.592733383615	-48.280374895622	-113.32152794056	-26.2444691841482	0.361321345484187	
301400000	-23.8338367551152	168.064687144353	30.1237465351208	24.9339773243721	-44.5771065646844	71.5522063699501	-23.0738606462694	93.7520087478855	
306390000	-24.620107456319	152.307572392525	30.0785493956905	-39.5300088397395	-41.2157220260738	-15.7728507283409	-20.9525721307733	111.436772761431	
311380000	-26.7029726543737	169.525131975742	29.9804975814868	-103.583211089285	-40.1481166760648	8.15257780877526	-25.3345134579959	38.0511377583613	
316370000	-23.5252537672975	-159.404630269427	30.1452620879437	-168.245333537507	-47.0785346815461	99.8792711046442	-16.223785466129	85.2644213032154	
321360000	-23.8736564665302	-174.635624600463	30.0463103350277	126.292381794665	-46.928228440069	-30.8846924904256	-16.9167074566988	111.462871293004	
326350000	-22.0492840346615	-179.760681957642	30.1481897499273	60.8446120180854	-50.7069936487116	77.7051336999702	-30.1917074347119	129.238697665556	
331340000	-25.9685541247862	-146.97160591729	30.1166105994434	-1.5944047738028	-51.0522999626229	152.264036245536	-22.9169894954673	108.489308249682	
336330000	-24.543300380563	152.903366899043	30.0237893195439	-67.8860194168454	-41.2939867506704	162.995813666227	-34.3620658042541	142.976720490504	
341320000	-25.0758748751937	172.112692384754	29.9401934122326	-131.67771401746	-45.845626777136	-133.342935929308	-17.244386204344	128.695765126464	
346310000	-25.4517328627573	166.700214537354	29.992188125843	162.880618401154	-50.2139974460674	17.8465849815903	-21.5207345529498	149.91644193411	
351300000	-38.6862068272755	-143.437526535499	29.8329760606519	97.5027899660174	-40.1565034025716	-66.4847247806187	-20.8658849250123	121.318328374668	
356290000	-21.0669175070532	162.186229993343	29.6721751027431	33.6779097937527	-39.6795685276531	135.507629763977	-23.9582084313411	167.221359023656	
361280000	-20.9323963250828	174.634886426783	29.5338323933258	-29.5091980238969	-44.8005369517115	-105.985493406965	-17.75148737077	135.235606911963	
366270000	-21.2779291356562	-176.212420697813	29.4899786546634	-93.9402901013112	-43.8006581334917	-101.793040004958	-23.3543429440497	136.467820225453	
371260000	-24.0920813190942	-167.675593311797	29.4767033503013	-157.989489416505	-50.1028235777014	-43.386638153802	-38.386398658569	169.357095745226	
376250000	-27.8268927438881	-164.394222773353	29.5843736674175	138.622062473224	-47.703731574173	-86.3311324126878	-22.6050122947505	153.62142132176	
381240000	-30.8537657202347	-117.390238451103	29.492404393388	73.9054661349214	-38.7064516646933	35.5856020104126	-20.7809506208771	-133.796863107998	
386230000	-28.1025647682769	120.619339525877	29.7177970830494	8.03985914175824	-40.5015630645815	-178.823983426299	-21.8483163275652	32.2001655020475	
391220000	-29.9148788047333	164.319980771372	29.7364118938183	-55.9336917482011	-44.3824231830067	56.1515281341562	-17.4729864800112	160.626877009729	
396210000	-25.5732152824669	141.99986067496	29.5742645468985	-121.06133587607	-47.4903177533434	79.3507880421302	-24.5937160275799	-55.5684283690403	
401200000	-22.0527716587042	175.30633633018	29.593294822687	173.307360169154	-45.5874381189035	-171.118577994518	-32.238996223173	159.044235451462	
406190000	-22.0881888248073	-176.694858670723	29.5420749373101	107.634915107307	-41.5780271905648	-51.6741854648349	-20.8211722932614	140.920999257938	
411180000	-26.9170486116524	-140.25884272663	29.4878197588686	42.4832331042689	-40.7029438371115	97.6320561399656	-19.171892717083	120.802231470083	
416170000	-22.1248143394401	160.17868294529	29.4151325742801	-23.3307793904105	-40.9786594216544	-24.6194976403305	-24.7941883311332	-161.706590385654	
421160000	-32.0724017744676	-131.094129486119	29.2054981273725	-88.4702914812001	-37.0033217341655	-82.0736782755195	-19.6676032396729	78.3990924685954	
426150000	-30.1120795932004	-119.531932961001	28.9860052013994	-155.217745455219	-37.2092855416819	2.33663690483153	-18.580037139723	105.391160600679	
431140000	-34.3874710092221	124.063409277619	29.1938168916019	139.911983211372	-41.1056313873162	77.2196054901555	-20.5306019327399	154.596782585398	
436130000	-25.6093695524408	140.608321061409	29.091489477032	72.4625861801785	-51.2959492478793	148.582162762601	-20.5290570005678	103.98289845301	
441120000	-25.1728015344009	128.060599164577	28.9261653882954	6.20614852269051	-51.6867962116476	-17.3735747833837	-17.6695706450686	128.624981462019	
446110000	-31.627505191365	114.192774695509	28.6645825563963	-59.9279438076341	-40.1514527638931	-74.603082030508	-18.4181265972531	111.434034667099	
451100000	-24.3813515530114	164.421025431688	28.6101409627359	-126.22728975763	-42.3397611423241	161.55856384792	-18.1561147932972	102.920910621763	
456090000	-23.0027976187747	169.130395755977	28.5377181780437	164.578739017731	-68.4487650094128	-149.088172743523	-18.4700523356322	98.5565665685422	
461080000	-22.4335297048088	176.742769157197	28.504050914372	96.5200315653977	-47.1882453169	171.380140729354	-20.7082591241826	130.089093179989	
466070000	-21.2780949121577	-141.538145021209	28.0810533235941	27.5554280437611	-47.5753062058255	179.488839467934	-15.9682521608795	149.936438948579	
471060000	-21.4254315054719	-148.899384081401	27.8039449008216	-42.0606594812408	-42.7907228609545	-43.5939981247949	-18.0036337665358	89.5169991846955	
476050000	-24.4949492590236	-172.833944711423	27.6080912554237	-111.61786742692	-44.5148151455346	146.368339443533	-20.3820245792536	127.89494604119	
481040000	-29.0854114382516	-154.237198214437	27.0693258825409	175.396630922977	-46.5790794467677	102.061473086408	-23.4877533587341	108.40969609778	
486030000	-25.8562061366035	-152.651524383179	26.3589440049154	104.926982432707	-41.7947014330941	160.326177192564	-16.9275167027499	112.65795232437	
491020000	-30.0040594878216	145.631684646403	25.5032538220836	32.4430550265016	-43.7601489740921	-41.4458105257259	-15.5851706845167	121.820234201525	
496010000	-22.9112538582479	155.083353428345	24.2162597961131	-40.6483306746939	-46.0089630603512	97.5457754948763	-15.8895537215822	116.943638026657	
501000000	-22.4517629967222	174.24318657962	22.8066789904003	-112.729819619547	-48.3156899379618	83.6217317423344	-17.8451550892528	128.789239684083	
505990000	-22.8152480853869	-164.924172426232	21.090553953606	177.959973557582	-37.822951286614	-145.256885281849	-16.5515837643211	120.113869279455	
510980000	-23.2577036780673	-175.019355926689	19.1899837982496	107.359856895735	-49.5682953039626	124.382940462208	-16.6438329222864	116.313739789423	
515970000	-21.7122126220698	-168.630381937482	16.9937200588424	37.5922961312669	-46.9810117606757	-88.2467846176248	-18.1297795267726	112.184114222013	
520960000	-23.437962143177	-162.105644521924	14.8694494088935	-30.1256568415814	-50.4213358406743	56.6167635332736	-17.8841922794167	107.06707600634	
525950000	-26.6747096967867	167.928303662489	12.3059962153527	-97.3670641413057	-35.7732063756771	-33.1522946717136	-16.8862423491688	107.071379332767	
530940000	-28.7032102305247	-148.980317579856	9.93794945278305	-160.790531206241	-41.857534551035	112.423871519771	-16.9901091284447	95.5494696376047	
535930000	-31.4955296937406	172.3081107534	7.22785150961556	133.479542932671	-40.9362323426458	-107.654318342264	-18.2890296073561	91.952988622407	
540920000	-27.4075987789763	132.259518196791	4.30913681085652	71.6206767507331	-49.2531048526006	-11.1965019837041	-16.4037007806897	83.2901459881326	
545910000	-29.6469806532658	165.593311922663	1.46576010532103	12.8136583632007	-37.0625714927203	6.55025485126669	-17.1458925110681	78.1652491103457	
550900000	-25.0330527794787	168.349111138299	-1.94861871565899	-42.344953038442	-39.9417794715457	-103.457692395267	-16.7629711820656	84.5005511021595	
555890000	-24.9961331542045	-159.003012066265	-5.29151524546066	-91.3847151047643	-54.900680097983	14.308682123067	-17.0717339185813	76.1504605097867	
560880000	-23.0809103231756	-162.930809655974	-7.85788819703799	-137.959255077295	-45.5023634484962	-156.281278177315	-16.1913136127156	65.8929247494383	
565870000	-22.824056246323	-148.992884911386	-8.87794588261977	-176.499758838704	-42.3098062759771	-85.47859642266	-16.3382667406557	58.7626109605651	
570860000	-22.0560376054508	171.838825386496	-8.96731256814489	139.125261359673	-43.1937274076962	-62.5253817930875	-15.2533070302078	61.3148519805348	
575850000	-25.6280611794732	-147.083343117895	-8.1502219277528	88.0362550207525	-45.3564749127671	157.58212566126	-15.2923583530198	55.9993770174068	
580840000	-31.6713199833566	155.463023218251	-7.89962272980339	32.7609821052086	-46.8788822307672	88.1806111343023	-15.3229173519869	58.6250494456617	
585830000	-30.7999502652046	-178.845740121347	-7.60995127567035	-26.1232623227305	-39.7619594086036	103.736663183137	-14.9152423653769	70.6413781396982	
590820000	-23.9401071717771	174.739473578167	-7.83600368952349	-85.1895271668923	-35.3138889891519	-169.196478351723	-14.6510086304492	54.8589800924885	
595810000	-21.1246599539688	165.620817678585	-8.08375496613658	-147.757719439932	-44.7435779185893	-78.3461009418009	-14.8754885933463	64.157289960355	
600800000	-22.6986415367333	-169.827257217303	-9.30081929666178	151.150080071684	-38.3364322115448	-45.8602725957219	-14.4655396656417	54.1025451191041	
605790000	-22.0175426385634	-171.196770868542	-9.7053256372254	94.6255391306334	-36.7840400901445	-67.4528392591006	-14.6516590304459	58.1754716506168	
610780000	-23.0615750502978	-144.226574481027	-10.5924036584549	27.4162074078622	-35.9158936009064	-138.195193416883	-15.2742509232394	55.4674565363941	
615770000	-25.2483212325114	179.450344744323	-12.0096717225967	-23.3665796918412	-53.6920507446469	-88.9225360184292	-14.1203148187574	56.3790281175162	
620760000	-29.5036643565192	-143.608534112684	-12.8929031152033	-85.2851741040098	-39.1764662138109	-58.3045056671025	-14.6018645766393	58.5437659777064	
625750000	-27.1735203310139	-156.522233933251	-14.047049517494	-138.966820048551	-40.920273335089	122.163650758155	-14.897495188664	54.7425963734294	
630740000	-31.9752569652909	-169.762514214971	-16.1114369324497	167.186764041972	-40.6253926705932	40.7584535222142	-15.4873930377804	58.692818921175	
635730000	-23.9054042725403	140.486502424071	-16.5011692328047	119.758022214001	-41.5903874171563	-158.719679953206	-15.576161251723	46.8731058508918	
640720000	-22.8550857736119	161.149070829677	-17.2374106682178	71.6410504669534	-39.7378702876416	-102.177781588014	-16.0190334216106	49.4286653433641	
