!Keysight Technologies N9923A: A.12.45
!Date: Friday, 10 October 2025 02:27:59
!Timezone: (UTC+08:00) Kuala Lumpur, Singapore
!Model: N9923A
!Serial: MY61181427
!GPS Latitude: 
!GPS Longitude: 
!GPS TimeStamp: 0001-01-01 00:00:00Z
!GPS Seconds Since Last Read: 0
!CHECKSUM:1703529091
!Correction: S11(ON U?)S21(ON U?)S12(ON U?)S22(ON U?)
!S2P File: Measurements:S11,S21,S12,S22:
# Hz S DB R 50
2000000	-28.6531337620889	163.402214394571	-41.4117294045996	121.074176785056	-42.7005201210686	130.795201242477	0.0323357241076017	-23.3893625582533	
6990000	-24.7374056869755	142.040853728682	-42.7184349961822	36.8464061004038	-46.6035300074147	62.3453228865985	-1.06339207325499	-74.7197598070473	
11980000	-27.0015075274691	133.895887468792	-53.9276353093581	161.883729598003	-44.8233364683416	105.379463235422	-2.26160638378729	-111.59895758392	
16970000	-23.1832181308819	163.464986749016	-46.8554081028466	158.810351384036	-49.0543214453472	-62.4296624922865	-2.96519648087752	-140.415572960241	
21960000	-21.5503232356553	177.143702302359	-40.5122242949689	75.6202307780874	-38.5634471668924	75.2973794048064	-3.74021841689388	-160.884642216834	
26950000	-21.8517149527487	-179.79509665056	-47.1763137777222	119.135143080654	-41.4553128744344	-53.9058062013079	-4.19991615734931	-179.132260363359	
31940000	-24.4051682120649	-175.711958066964	-37.3606494358693	-136.874195621407	-47.6924519087598	-69.5996765148285	-5.25912282593052	171.53975775371	
36930000	-26.7393342185487	-158.489632518962	-45.890126864636	-32.7083401694154	-45.796574673178	-103.525697250426	-6.01727059707123	160.830178194477	
41920000	-26.5190197766545	-155.697554307824	-44.0639132271193	-133.930524804937	-46.4052274540865	-69.3622490123601	-7.19846359445006	154.917976871911	
46910000	-27.4521986291106	173.013043488486	-45.4222178973396	-86.2685890928628	-45.0285465494936	38.6221915160023	-8.20468040557395	151.893848449006	
51900000	-27.401768098314	-179.646213502902	-39.8501929768902	110.119966024136	-40.0898921442153	64.8187339038931	-9.3549615953123	147.686620796307	
56890000	-25.694904363638	169.549174704006	-43.8819837368265	54.4152706215841	-57.1795308409309	-91.1166963722698	-9.19199805482852	148.544294927034	
61880000	-24.132651833751	175.94946439876	-40.0022431883352	157.539327233403	-55.4813029806628	177.755830191041	-10.1079481373318	149.676150226305	
66870000	-22.5406782913108	-170.568061422882	-46.7483965566185	74.3955568666461	-43.9583751723585	-90.7695193138363	-9.15116858418361	142.448501504687	
71860000	-24.6224909787614	178.626058527868	-41.6798913220122	-65.1234141529978	-46.9893443714598	-122.504088037742	-10.0975209469261	138.400290281014	
76850000	-22.413305618467	-161.40992438308	-42.9239554165759	178.859817005668	-48.6678764108987	-110.175366089319	-11.5350643270437	138.745061820256	
81840000	-23.4932823352803	-161.431424307857	-41.8487599008119	-110.396390857397	-56.4996655265094	43.9287259388939	-11.7591405893808	133.87526853888	
86830000	-27.6020207452417	-158.988684532271	-35.9122436884145	-81.1211894507887	-38.2026325542787	-57.568906364949	-12.5920548222574	138.951691516684	
91820000	-27.6842161133998	177.249359394883	-52.3000756550564	-89.486542491716	-40.2605840093184	32.8173119796749	-12.8053792981689	137.971214132295	
96810000	-26.3907381653325	175.532425018183	-48.6811697825631	86.95217454101	-50.637950945147	173.834227186143	-13.6218978116002	131.815147086208	
101800000	-30.2113127630403	172.76908624449	-43.7432872215466	18.8665363405242	-42.4505707445832	-5.82856192378829	-14.7544898622551	137.631765159035	
106790000	-26.3088212947479	155.853523493282	-41.3868498177283	-173.177147650853	-43.0547755821381	-64.208808966093	-15.0451142179439	129.298673125151	
111780000	-23.0620989657015	173.32259985068	-45.9744760281354	-33.8029938627107	-52.2364722672828	-40.5447463919173	-14.9007526157144	129.172951942546	
116770000	-23.6702667948722	-174.113762929405	-50.306307642703	-170.78641138443	-53.3900609194624	-156.102944473911	-14.7981057983812	120.17155689324	
121760000	-24.8171960815701	-178.053284398404	-45.0373486090454	96.5734843673582	-49.50494546558	-52.8976837391697	-16.0027423597445	121.352812234165	
126750000	-23.0009667528011	-161.36726720528	-43.0341541027606	8.38255920629325	-46.9085557483107	21.5299477925175	-15.5807404587054	120.01998113429	
131740000	-24.6451836662742	-162.295998457636	-43.6458265614704	-1.38162461892624	-54.2389711890337	137.013814405678	-17.4117236329833	116.325434184787	
136730000	-25.276222076063	-164.309319405847	-46.6627721832173	38.467310234177	-42.8254701275563	1.92027343397587	-16.6809560237419	110.10898637917	
141720000	-24.7516860857672	-157.432898166231	-39.9308190439456	-170.700962213758	-38.571063162369	-109.329397156974	-17.3034730478772	109.879819971988	
146710000	-26.624625738485	-179.2905477086	-53.5462830598815	-35.7828549886419	-42.9151969611798	123.852485536261	-17.9554554111823	113.667143116467	
151700000	-28.0140818114563	140.933683035209	-52.7217532364557	-14.2290000572991	-38.9260249290297	-153.414932621161	-17.7832066077884	106.84316190728	
156690000	-23.3490555196037	176.442243028283	-43.7497135372197	76.6139871276753	-48.2355060486633	177.43819710893	-18.5757478481615	111.869222131061	
161680000	-24.6756099060866	161.371529275301	-37.5015857322154	105.96457031156	-45.3706307007188	154.251769045096	-16.3364336925622	112.884094352462	
166670000	-24.4160564410787	173.652674069382	-44.8970735695424	-135.576956918915	-43.3174768832486	-174.227376137923	-17.5543143667395	116.723795378433	
171660000	-22.4035040269848	174.327029914436	-46.4668959677017	124.317282156475	-49.1756132170332	-42.3542256070854	-18.422018422672	118.840016369926	
176650000	-24.1870855149466	-155.055882578659	-46.6562472699134	56.5660213204885	-41.4137885541719	-86.9231161991216	-18.2018044499853	115.639046338542	
181640000	-24.4317879372739	-147.851653238707	-46.1455037310308	79.5545469437942	-49.1296636030261	-175.071729980383	-18.176828637415	107.276571624942	
186630000	-31.0952197415756	-158.809646003557	-34.6002419464334	-88.9845354940337	-38.3419155625042	165.02476794908	-18.2084577611332	117.755223115183	
191620000	-26.6978691359859	-166.913187967343	-37.4729768294004	-99.2200763420568	-41.810733344684	19.7118972715256	-18.3030448000667	116.937754980325	
196610000	-26.3107318734501	-179.022106975482	-53.9070716743731	-142.616181448716	-37.1105819308761	69.9919886290154	-17.4584657871304	121.817935605846	
201600000	-30.9485243453227	-177.946101309865	-36.2724314335669	107.586296687283	-53.0376734635554	24.5216317822897	-18.0723707454436	129.139099535783	
206590000	-23.5817274260435	-169.838044026682	-40.4057456699918	-59.3982153757859	-46.9937120100809	-162.383256799836	-20.6577399557953	132.192576476021	
211580000	-25.3802341269991	161.388075620798	-40.8397920780877	-97.7844024570671	-49.1322617248432	91.5076413959802	-18.1752438755867	125.943790790293	
216570000	-22.4787155919434	-159.926775658683	-41.0215270956525	-150.55113845047	-44.4962345786384	-16.345433876985	-18.2427346687045	134.299163109837	
221560000	-22.8736474654637	-162.678731489474	-44.3850514201761	158.832235631658	-66.8301216736594	9.11001246198126	-19.2469619537462	134.504042090426	
226550000	-20.9022835688191	-154.329701466142	-38.328843549682	77.2360678994741	-50.5838495124006	-1.60035911870687	-19.1379331965701	132.21704002293	
231540000	-23.9155449134359	-152.161795495674	-51.4304903055057	-156.400072641551	-42.7109686983416	60.8067408585691	-20.1154919210099	131.20989909246	
236530000	-23.8830406846491	-167.952079461064	-48.0742046216729	27.1599559611524	-44.6870337389883	41.72681549801	-21.1463669025111	138.13216748115	
241520000	-26.2814771609952	-161.003493929793	-41.1143059202396	-155.790455903284	-43.4107885254474	127.554488527541	-21.9175822895068	133.289829593645	
246510000	-27.1624861577817	148.352725401124	-35.8875047994409	170.057218613718	-44.2857317358528	160.80596121147	-22.0672967271744	122.400459714122	
251500000	-26.0097886406801	155.734612091225	-37.9750624623768	63.0803664028911	-53.1120249394187	-38.9010646273317	-21.5731914885011	123.914110187066	
256490000	-24.7828003182077	-177.922552828014	-36.9369848065787	0.147411031178051	-70.1101399967519	-26.6767189488516	-24.0640100668132	116.434811773166	
261480000	-24.49622974979	163.351873130752	-35.663517152276	-47.892910707837	-42.0282623123144	-29.2410399099691	-22.2751629335819	137.955424012977	
266470000	-22.2643763064631	-173.453678467429	-34.1357218476911	-101.061829960311	-47.3335775175413	-57.769259271675	-22.9306712629554	127.490529500395	
271460000	-22.687791542031	-175.862676398346	-31.6152437604951	-179.208674303075	-44.6545859639049	-54.2081024048483	-22.4002614095069	121.338541502941	
276450000	-22.4596680405425	-151.819639401949	-31.4660592538752	120.416260371009	-43.5227690878352	-156.489994317433	-21.1939447059001	110.95080495523	
281440000	-24.5519083732161	-153.707178180847	-35.6380431668374	40.9778608866343	-45.7230372399065	-115.150274186981	-21.1375005025747	108.908174404006	
286430000	-23.8645952123631	-162.230338140276	-32.2592538564329	-26.6072688119357	-43.007355070133	-46.0460172826103	-22.2189682059849	105.384885678142	
291420000	-27.6695163668445	-173.702529040107	-29.9270632104052	-101.82717888175	-41.1720141338257	117.724270131073	-22.0342717279475	98.3824217475378	
296410000	-25.0996231825318	162.001254926636	-29.5359441741645	-177.055380091729	-49.5229001151072	19.1534482385502	-23.0611525593342	98.0430202328071	
301400000	-26.8162664835693	177.099742293743	-27.8037259357846	123.286993999589	-39.0824891974156	-44.1666083985621	-21.7490112147	90.8188256121675	
306390000	-24.2642595966395	160.483520624919	-28.6940479264672	43.7966953641096	-49.1506800361929	37.3884802894053	-21.0059035915917	100.290139319513	
311380000	-23.1579513284752	171.668318698517	-29.0744178039416	-17.0019592786304	-42.7329324242424	100.546351587526	-24.4684307640395	107.569817308735	
316370000	-20.4450655900234	-168.675434873401	-25.4930989284031	-97.4281350719506	-41.5994528884089	28.2984844674638	-23.2150455354075	105.543895574624	
321360000	-24.3776079438125	-177.573899910061	-24.9093372296101	-176.318867108423	-40.3888499924261	57.5338478579311	-22.2527019946043	95.639587942036	
326350000	-23.4564823396114	-171.125940977306	-22.9011912124075	120.515410536493	-45.2979371750308	80.6563821560629	-22.7386882460178	108.324489598999	
331340000	-26.1717777408054	-149.140936436603	-21.2879926584484	44.707730936362	-39.8814809368159	173.75710908149	-24.444827824414	103.267690949177	
336330000	-26.8287790421558	163.225398166957	-19.7038541912468	-21.9796241093087	-38.2610864336415	54.3731143398923	-24.3138393462672	96.7142914737811	
341320000	-27.1807630977621	-162.804495307878	-18.6595125929528	-99.0771936028661	-54.919331471053	-20.7588504172239	-24.1325772327162	130.613364692071	
346310000	-26.1947079533084	171.393597688392	-16.2975083666063	-178.863442417659	-49.4855916587013	-39.9653136804989	-26.6627376347424	123.787922482762	
351300000	-26.5344447030656	-157.384208734702	-14.7422754584642	102.773754811064	-58.204274027878	-124.862101788516	-23.6393754988714	127.812507147697	
356290000	-22.6127413792289	177.759684147208	-12.7845803364522	22.6620751950495	-49.2196961647738	89.7291642484338	-28.2551009078708	142.002373093745	
361280000	-20.516575059005	175.777117451756	-11.2298058749817	-68.3774212174372	-50.9583506662564	165.834897782517	-26.2571549941606	133.725065635082	
366270000	-21.4740335427386	-161.005365229181	-11.199457600586	-161.801471153953	-45.8995023379222	-96.696436438361	-27.6156056380777	147.648807222598	
371260000	-24.3852713683036	-164.208996146718	-12.6306679519856	107.44621271953	-40.47070603652	95.5409951265099	-28.0548114313943	159.023585259095	
376250000	-26.8631815344642	-176.538931689716	-14.8012755667797	23.8854114562741	-49.8568342560497	58.3822371678567	-26.9397588513231	159.485102713713	
381240000	-26.5032357085854	-144.139456786303	-17.4755440220714	-52.6783165016778	-43.228439768162	-44.455184786468	-26.4784116493038	172.932374865627	
386230000	-32.6605063660234	176.94622987704	-19.1723222816811	-123.819437806964	-45.3540672827945	65.2484814303377	-27.6056659983217	161.689256448099	
391220000	-32.9385661837943	145.918194855829	-21.1627428458982	166.074916118312	-43.0681422678477	113.05726126304	-25.8695573164281	166.044291468003	
396210000	-28.4552802804218	138.406135968099	-21.8486293737017	90.9493304495822	-45.65360431782	-165.166091242501	-26.0789590241905	153.915795080429	
401200000	-21.7254886901916	165.465338196374	-24.1164011437817	34.7215236527449	-44.361559840321	-59.266913750156	-28.411994366081	156.749547518092	
406190000	-21.6558087476	167.154289970346	-27.5184009396794	-8.01466802759666	-46.5300863327686	-19.4207306197121	-25.1806322568567	140.981963959259	
411180000	-23.3066065905183	-157.772569328538	-27.2477603925689	-82.9749935291788	-34.6496495537197	-150.341120383875	-25.2447955241642	130.328128289233	
416170000	-23.06743256204	176.259441290804	-23.1912742768342	-135.482477405436	-47.3180877572428	-87.1500488026431	-26.1473962873265	113.293856441359	
421160000	-23.0526455700088	-144.679370964993	-22.4487124151798	164.368481103825	-44.3797534744334	77.0255255277157	-23.2273780617587	119.524472153657	
426150000	-21.8726783833331	-146.628620740452	-21.3895022793907	94.8459757513904	-39.950025519322	150.120349243452	-22.9990023740228	125.994026235247	
431140000	-32.909866299059	179.409388642522	-18.4338222320575	20.6810023779082	-48.331094554989	46.9206397664013	-22.0211681128103	130.336620774555	
436130000	-25.9613529508323	151.532013902927	-16.5322119096118	-51.7822374596459	-53.2574636735278	49.2843261691222	-22.4624672909115	126.984016904022	
441120000	-25.5814047025007	144.567029292116	-14.1239451421033	-127.52256140656	-41.7040481557086	78.3502776579399	-20.9924069749735	138.065552831674	
446110000	-25.63017309939	149.924381964723	-13.1220761241758	147.475130858491	-48.1741522070017	27.2561566097001	-22.431723216148	118.693045846689	
451100000	-25.0459681529503	154.321183051681	-11.5175099477863	59.1125773190414	-39.3761981833044	-122.144101386282	-20.6424657235493	112.90810301496	
456090000	-23.1749113581753	-173.799700651676	-10.891113351912	-35.8207445400877	-43.5313667549006	36.5421286982307	-18.9877943556201	111.450116422602	
461080000	-22.0575066094168	179.566736977818	-11.3761361539099	-133.406440133936	-43.5114986568268	-78.9651963571683	-19.2634277838407	117.993455343422	
466070000	-22.32150426435	-149.544677857467	-13.0704258368914	135.341108854917	-42.8530838127012	9.79295648977872	-17.6312751822456	117.038132312313	
471060000	-21.8212875253439	-155.772342742171	-15.265166660858	44.1353928976516	-43.067950667777	-130.853687643563	-19.2837151759408	117.800246386066	
476050000	-25.2632844659356	-151.018552936708	-17.992186530325	-39.0170607439014	-45.1690203734295	-135.18767210037	-17.8485779804028	116.413255635816	
481040000	-25.2370534345949	-161.916401356506	-21.4646462941505	-129.420206428899	-38.2087300055913	103.539254911089	-18.7608556872205	118.390792203521	
486030000	-27.0934238406618	-163.705364189311	-24.714129226632	153.484993122159	-46.1408142288409	-36.0804337596621	-18.8227382390503	113.912403975191	
491020000	-29.7230343135535	127.310718125501	-28.4792988563766	74.1217045084137	-38.8367479019242	151.838259449378	-18.4886469959404	113.353848426811	
496010000	-23.6754218251964	152.38904281247	-29.928785011074	-7.86047210103769	-41.6153045689413	-46.1169216253234	-17.4114975522524	117.518779346256	
501000000	-21.580104698168	155.460184966776	-31.7778811347214	-95.3350401611168	-46.0538320542793	-35.5535220461227	-18.1108865918544	118.0976790021	
505990000	-22.2405590271303	-178.54195103906	-38.9037670254534	-137.019126871627	-37.8661948548195	-44.3050754000813	-17.4561611073674	115.722792756191	
510980000	-21.4900771065645	179.183425434821	-37.0580523490622	117.904904401022	-38.1244110169291	163.024170729654	-17.6555981835855	111.149726709191	
515970000	-22.771916082453	-167.331208941627	-36.9075572540892	66.6831811813362	-38.7709689827156	20.0436823973522	-18.1626319737766	117.079760054631	
520960000	-21.3210230566205	-168.112879015503	-37.9818164874026	-113.481205719609	-49.6943579861701	167.347232881834	-17.2089608911564	99.2299960552445	
525950000	-25.3014404086942	-176.402761592325	-53.1104679112305	-133.747535429122	-40.5837850853877	163.137341403483	-15.7559778268944	108.466468111911	
530940000	-27.3388878594606	-131.974235569481	-44.6224978888473	-171.826352929818	-52.5988202354891	50.7990749606186	-16.6257915760872	105.184055209302	
535930000	-31.7048827362539	-174.181100226963	-48.4886894783124	-155.123088763698	-42.8242589251759	-107.399547698253	-16.2797633010105	85.240098548537	
540920000	-25.3516247979193	121.595211630591	-50.4890046932925	21.0857793126369	-32.0585004897494	131.372894891112	-16.5204203335566	83.9973070178653	
545910000	-26.0672999982725	158.7302021865	-45.2812300369461	-7.86122716593843	-55.3167125191927	46.9944757936528	-18.0312859583693	82.312352509269	
550900000	-24.7777568651166	156.922212635062	-41.2582332959195	-165.156529096812	-39.379698893659	-102.119144976235	-16.3070790651692	83.1820336272079	
555890000	-25.3393913879729	-178.778751729209	-35.0735522242289	93.4482199276351	-48.3196190852057	-145.194262287952	-16.322456794892	73.0316821868964	
560880000	-21.9830738236106	-165.21858118496	-46.2285324943644	-106.060891325488	-39.5999707593791	101.528241519477	-15.1225341101192	70.8210389227536	
565870000	-23.4065541729347	-158.412039195898	-41.8676347557157	179.601794079645	-40.5680153560321	179.146217179714	-16.3762558328774	69.1850973454199	
570860000	-20.5096615834456	-162.468954371918	-38.7411117311123	149.083853964815	-52.8516357152435	16.1813363599241	-15.3405600862611	57.502067592711	
575850000	-27.9096716745712	-150.354692208974	-34.4230401712151	-73.9129248983584	-38.7602745506453	-22.0640354770689	-15.7225995044968	56.8039141025058	
580840000	-41.7146266154708	136.793169465613	-34.7383134956766	79.6430115013675	-37.9518839089463	35.4702429217557	-15.9366274304257	60.7826421593269	
585830000	-24.7534458490649	-175.767449853106	-31.5563196101421	126.915723074755	-40.1369740713344	-152.724039729534	-14.6091545990027	71.8244517726691	
590820000	-24.2053296126871	168.905211263241	-40.1989255099126	46.073718414102	-33.9402988833074	-103.731599014793	-14.5883105382509	58.8984559739723	
595810000	-20.7546107313161	161.02276809592	-49.2888930201771	36.9299579051901	-38.8372458834044	-43.9068109907958	-16.1703865368826	63.1246203481979	
600800000	-20.7056615222912	-173.873564246183	-47.0250191178221	-81.5817628725104	-37.0288979784796	-12.0756195966411	-14.4205847998014	55.0514583725622	
605790000	-23.2008575660024	179.699353029693	-45.0332566170631	93.4560441687695	-36.9765693741442	103.039217470793	-14.5074929916589	55.4876998612597	
610780000	-21.642078138135	-150.212480452323	-47.1298137077849	-127.688827260754	-42.4868378422708	-112.853312308765	-15.3906789668058	54.7883704034311	
615770000	-24.1157222061477	-172.651016503389	-36.0087945113148	118.253876099209	-33.8241233787845	130.778839951676	-14.1066836399188	54.2210558382178	
620760000	-25.6250720096037	-161.279800629958	-67.7132706952466	-26.0093454702255	-44.0047073988735	-160.79442701022	-14.039033701247	54.681350759481	
625750000	-23.9446853887876	-168.737637988506	-45.327634926731	-36.1559043487183	-46.557811280151	-126.798225727344	-15.185316925816	58.664645943518	
630740000	-30.7345877230104	-167.098253110136	-36.8773061468615	12.8144883340901	-35.5214642343186	3.05821264252	-15.2853460051198	55.2964203377678	
635730000	-22.6796543257711	131.874989465156	-34.919858213328	-33.1294305672143	-36.6847820706315	63.3051527670103	-15.3930852513271	48.0948462651286	
