!Keysight Technologies N9923A: A.12.45
!Date: Friday, 10 October 2025 01:59:55
!Timezone: (UTC+08:00) Kuala Lumpur, Singapore
!Model: N9923A
!Serial: MY61181427
!GPS Latitude: 
!GPS Longitude: 
!GPS TimeStamp: 0001-01-01 00:00:00Z
!GPS Seconds Since Last Read: 0
!CHECKSUM:1313141591
!Correction: S11(ON U?)S21(ON U?)S12(ON U?)S22(ON U?)
!S2P File: Measurements:S11,S21,S12,S22:
# Hz S DB R 50
2000000	-28.0671724061304	178.521706833756	-43.6443886724127	-144.249545205109	-34.4371199971512	132.418633980671	0.0498190456043929	-23.7234934279879	
6990000	-25.2330953189434	138.16415817163	-42.0364898341904	-117.429013116514	-44.545731119923	-139.049653120138	-1.07690062242679	-74.0578304370248	
11980000	-25.7035551709686	117.63293682119	-66.3467541397513	-78.3023944749101	-42.1130027014171	149.871903410341	-2.15059870811099	-111.716240916856	
16970000	-26.0109476942074	171.025381875884	-48.6355217522995	-175.86465058763	-44.4869284447198	-82.8751807441143	-2.89666735644074	-140.500967877878	
21960000	-22.3402318651017	173.331626486	-39.3480670996513	-103.498717264597	-44.1701520874324	-5.34275729988741	-3.86544115232118	-159.251918469041	
26950000	-23.9732701764407	-179.795039164515	-46.4949155918879	-80.7694674739583	-31.9089022810731	55.6986359153456	-4.40080413832426	-178.878456679604	
31940000	-23.2503388339505	178.650033253034	-60.1521656270371	80.969273974054	-42.0490100497806	104.65280645559	-5.1610508354642	170.851047244356	
36930000	-29.7636031855856	-155.018520103066	-44.5746864891216	-20.2331833813294	-41.6627198877572	-14.8695371434464	-6.15720850637479	158.699175128543	
41920000	-28.1053132621377	-153.574207133887	-49.9003193262297	35.9901997478639	-42.5964771374256	48.2928102849662	-7.27308832490516	156.15900738121	
46910000	-27.808155631358	165.585050487024	-37.3970151617992	-7.33811940117446	-48.7721760141577	-33.8487173151135	-8.69412390324105	149.284009321144	
51900000	-28.2141928731819	-176.128641178677	-42.7005592472916	61.2457670778071	-55.0171271100777	11.893136860179	-9.76909739851292	148.34357881198	
56890000	-25.6258426324106	-178.748480659002	-43.1993440674988	-60.8105450731406	-44.9807278437482	-65.5971516617884	-9.34394886848014	147.867554994115	
61880000	-25.3317862617859	177.148250633935	-47.9676655019529	-173.089761655683	-51.3537756796888	168.098322573052	-9.95594993436274	148.215915297827	
66870000	-23.0798957075692	-179.645905396708	-50.2186514808106	165.082804125195	-44.260751624494	-154.850321638608	-9.53908321563771	143.088933397394	
71860000	-24.3611929348972	177.407821031676	-40.2044755703914	56.5581298750293	-40.7210059825028	11.2168162031318	-10.4348813643636	139.901013769571	
76850000	-20.7143530038771	-162.69966595635	-37.2069104510333	162.75543314875	-43.9433469720491	88.4514426662819	-11.8048074492886	134.339180515395	
81840000	-24.0454348678752	-170.010890370521	-40.6680039032322	57.3581417633505	-43.736120565278	95.4894745609754	-11.7156598998291	134.283948483672	
86830000	-25.4447969729795	-145.933694533887	-48.5577197814041	12.3267285548917	-53.0561152696507	-32.5141921470281	-12.7916630954001	139.914245525923	
91820000	-28.1768877370857	-179.213787264026	-38.5070620012012	92.3937683449038	-36.2994611719354	161.750348700305	-13.2928818792733	136.531668747284	
96810000	-26.7769902152071	169.033039627115	-42.0271790893339	-179.703467474542	-44.3880865855704	-136.532139907102	-13.5218043724585	133.36836746496	
101800000	-31.5341236196317	148.091719845819	-42.9670563533338	23.2089980009997	-50.2682525473309	-29.9282647666655	-14.9627820738133	139.48466783668	
106790000	-26.5968447364357	146.032196544254	-45.4183755450477	112.234166515489	-58.8157895020827	3.90731431993781	-14.3467631182504	127.360303687581	
111780000	-22.3734395659584	173.502032834203	-48.6633615694439	4.50923478401596	-42.3637472373934	-143.388335228974	-14.650865406561	130.123386998863	
116770000	-25.7294954522038	175.615647818855	-41.3874217283103	-5.84997996959509	-42.0323750980763	-159.248336764752	-14.5753378614308	124.603002504523	
121760000	-24.550375003407	173.804462694709	-43.397744790126	-104.024905106376	-47.2775643529928	-7.21890677420766	-15.4046444633163	121.528353827279	
126750000	-22.5226899047578	-166.559088986645	-34.1552006670193	124.71627538992	-46.539088320754	-5.92699547156596	-16.3880860552121	119.61682217947	
131740000	-23.0829679213606	-168.325729473235	-42.4992234225405	136.214358582006	-45.2793483435982	111.93900757966	-17.2169765878119	119.424549258949	
136730000	-27.4479188872547	-175.406942152013	-39.8316838605703	-17.0884796934221	-43.9222333817689	-22.3002372039909	-17.0919796500718	111.358133404082	
141720000	-26.4868745112658	-159.027595623177	-35.1547433671886	-87.8637242534354	-34.7588280784094	67.6532388374415	-17.4405422924749	106.432610099415	
146710000	-28.039402158192	-169.059926598463	-35.6926828009489	178.067730503676	-47.5994590519671	127.887492217398	-18.0442238120834	114.523763256045	
151700000	-26.1142911407836	150.918766446879	-41.4637938531101	90.8113073091362	-47.1415100506637	15.0982629034836	-16.9186813620564	109.53477105956	
156690000	-22.2066150198225	179.986945783672	-37.3304732332725	32.158439683926	-57.0743562273196	135.159423979188	-18.5281889891446	112.629165582802	
161680000	-24.4438923541165	165.751285915146	-43.0272062703666	-66.2753568504027	-44.5405620119424	-60.413905145546	-16.9420840120276	114.347218752007	
166670000	-23.5461286695755	164.187269011584	-32.8279848493441	-165.970004397188	-40.8678140766694	18.4627456903597	-17.2036811028778	115.524579537506	
171660000	-21.7115427889035	178.217020864008	-33.4769550828844	168.267518583841	-47.6650829756178	-121.673781846374	-17.9805429926775	113.690050486696	
176650000	-25.8356559022179	-146.440683039668	-35.2637560998446	57.7393444226475	-45.872983052723	63.4352049079279	-17.774548416128	118.224738871742	
181640000	-27.4194282537554	-156.291135219428	-33.4431487216158	-67.260513935947	-42.2909169684399	-128.743629719885	-19.1514282595348	111.901318754022	
186630000	-28.9217930354289	-144.163873279633	-34.6122375363358	-136.28338092619	-48.5585303645261	178.48380682076	-18.461478156894	116.057424672308	
191620000	-25.4895833062255	-164.23010520046	-41.0017063668155	142.137356329296	-46.303793088851	41.490206237028	-19.1129430438385	117.330912706149	
196610000	-26.3891662620875	171.953166142662	-33.443167050297	79.4507574279505	-47.055024017187	134.314207056045	-18.0494254364742	122.322866882369	
201600000	-28.0828744836196	-175.832983955279	-44.1081846241864	26.2342694155551	-43.5451415099878	137.751370000706	-19.2068116585928	122.756867335686	
206590000	-21.5497573783808	-171.664384057798	-47.3591831694873	-71.719978643408	-44.7102944874058	57.110782671802	-20.025282703657	133.143570333171	
211580000	-24.2458909774723	160.292532474685	-38.3810263839752	-143.165168021642	-43.6569615427345	20.1779121232593	-18.9050645463882	128.169368205255	
216570000	-23.4388576526947	-165.150570262853	-41.4222762108842	141.817161874039	-41.1537532917588	77.1179531922174	-18.3920071926884	126.542901490956	
221560000	-22.6583830782778	-171.925840093236	-40.6766448730968	54.8865842917112	-40.916555034352	-176.925926585227	-19.1660045652446	132.69118640686	
226550000	-21.7193803725262	-151.174752228535	-39.470885625613	-36.3225283944533	-51.0000206473301	-62.5413640852777	-18.8626505588338	136.725209554229	
231540000	-25.4973978545648	-159.145122285952	-44.4589455065393	-116.084855770326	-42.8258270723393	60.6439922148666	-20.7437132175938	134.304243868044	
236530000	-23.2212811961821	-161.912351913395	-39.324193850623	-149.571059357241	-67.7449219546319	6.07727680264795	-20.1896528358242	142.565749215043	
241520000	-25.9170221003153	-162.973390969775	-38.9637196720453	151.9505871935	-38.6916639812955	145.105115066684	-22.9055240114094	140.938491461328	
246510000	-28.9745324633978	147.774178137776	-48.0490677064256	118.231445066796	-40.5024816005547	81.429669088009	-22.3264042718251	125.008880183484	
251500000	-25.1575975973735	152.578644283089	-42.4025755268518	11.8241527829632	-37.6586066184746	113.964290724271	-22.3024645225114	130.867119319202	
256490000	-25.1893372178647	172.985366859948	-49.6159351882195	-18.2504998414596	-46.1791936793783	-56.9529824944583	-24.9891071034733	122.577918644997	
261480000	-22.4735194204198	174.754522079392	-46.3844450520195	-87.4281984630029	-46.703662768651	-114.36386443324	-22.3930808900299	141.302195228077	
266470000	-22.1349384534577	-175.214557317081	-47.1472622607197	-176.576250131312	-49.1857734910871	-172.998065364766	-22.3910982086051	131.662557147922	
271460000	-22.0191199532675	-169.300953606866	-36.2393216326935	120.998240182048	-52.8272212854267	162.116999561079	-22.8904668778036	122.627245712012	
276450000	-23.8022497223558	-151.220211280406	-40.7116107542122	62.2525171487109	-53.6284031454253	-76.850235584207	-20.6642523961467	116.344009016278	
281440000	-25.3161625937873	-155.760830326795	-35.9146621759386	15.1263578958947	-40.1317838229223	70.119876386026	-21.5621056477424	109.52995096524	
286430000	-24.5502575653332	-167.429726753301	-36.6562021085154	-75.1244278000323	-58.2217392102939	-89.2721978054748	-22.2054131154374	105.881539414124	
291420000	-28.3797312812733	-171.815527418196	-31.7375510228262	-117.835420304038	-47.6416528906583	-97.3785845053525	-21.9628013927685	93.1493037913574	
296410000	-27.1833255301573	145.206082420799	-33.640056158446	-179.433863864295	-58.262623047868	-46.0945682297219	-22.6819355250537	95.5878651378386	
301400000	-25.815338438569	160.023349764898	-33.6264694395523	87.7004473797366	-46.7357129808228	-94.8208915944366	-22.5154370518918	90.4351583281193	
306390000	-23.6424924108962	163.643089862411	-30.1787593665239	20.249500038525	-42.7777357629765	31.7340328905822	-21.2061701206892	103.861484174602	
311380000	-24.0488229769173	175.193774166951	-31.2247311115252	-32.1381257644992	-45.15812374662	26.8758941267109	-23.3836580128913	104.354738387797	
316370000	-21.0568477430724	-163.843215366096	-26.991336928145	-112.385626042276	-47.4539391801205	-103.040628463442	-23.2671858228311	98.1400380750011	
321360000	-25.0798983392974	-170.215735603619	-26.4649408585276	175.891791402641	-41.7414191919756	19.9169679903305	-22.4322899550851	95.7772382553731	
326350000	-22.6510637028503	178.806631994663	-25.4494438910288	106.783051253083	-56.1541597423452	-8.77239279872653	-22.1908196469879	109.292699661951	
331340000	-27.2697503506533	-139.000963673016	-22.9104814130546	32.2320667683633	-57.1293975054209	0.874866051642366	-24.5092203611722	110.346018413838	
336330000	-27.1717916032338	168.062399509562	-20.195596724223	-35.8420258217401	-48.4360475335321	19.1204647233395	-23.4488416095747	111.40100213975	
341320000	-27.5596552111496	-169.73172579358	-17.3491463315455	-110.552702668779	-57.8051851179206	7.47820111355178	-23.5101140509689	127.409693935634	
346310000	-28.3076053687813	160.342468912904	-16.0404208365723	174.070324309362	-46.1085120041605	-65.5082604105116	-26.0447911690405	137.445824602472	
351300000	-25.927076965897	-150.676677911106	-13.3324646966416	89.8935523001258	-47.2331456377077	-172.302127033787	-23.3460665689801	125.483822428342	
356290000	-22.9127645155139	176.277512678684	-11.3549048603943	2.3938550826345	-47.8460964009245	79.4295698955051	-27.0105517051368	144.37125414447	
361280000	-22.3888736930233	173.483661222122	-10.7232434247759	-89.7098390116039	-44.2597314826477	129.730395084997	-27.4320704228836	159.633964554622	
366270000	-22.078679022722	-157.539024264841	-11.2474106990072	177.967111432196	-38.1216539207236	-100.739597694508	-27.3854272576004	140.252370348333	
371260000	-23.2851699805914	-167.942950732614	-12.7360682933787	92.8330055771981	-40.1945112081683	-116.872389927644	-27.2292437539033	167.550692035312	
376250000	-25.6034478931233	-169.765547605516	-14.8605124685293	12.7400488702861	-38.1354492770732	127.77742756531	-25.473753061683	162.170854053628	
381240000	-27.6154332158228	-151.67993804175	-16.7993803194202	-62.4226998084723	-44.8460900529752	-177.718982706234	-25.6730098026587	176.65631752919	
386230000	-31.4759162769212	154.7922237969	-17.7574005484249	-136.626730490903	-50.2746283576962	-47.6791460771909	-25.2562934016686	151.124155030403	
391220000	-30.8628993712722	160.478556770901	-19.8875652200346	149.668516232506	-39.3421721594376	-33.438922809491	-24.3578348393673	-179.130132206568	
396210000	-25.375197142622	138.686010806404	-20.6627719661686	84.9882496757225	-42.586051729883	-100.995542100859	-24.8499707293099	159.985421718412	
401200000	-21.672743329703	160.630126525545	-24.1071078397529	27.8591598364393	-45.3948582565143	-18.294039737553	-26.7276494938821	160.14128863106	
406190000	-22.918168476817	169.135662694075	-24.2057443898909	-36.0348233750381	-41.3964677848215	-11.6094043499834	-24.4162864041802	149.540693112222	
411180000	-23.5655417979978	-159.36890259386	-22.9034722302322	-96.5041338443984	-39.9182808516266	150.387979916723	-25.0516633752308	138.377384032841	
416170000	-24.259889346089	-178.641424173854	-21.1417160536312	-161.901742935098	-54.9171482536284	-129.724316709285	-27.1083830651299	126.818905476131	
421160000	-23.9562455280941	-142.100722198374	-20.0519613299923	127.00275241197	-45.8057638329887	-62.8350725953911	-23.4999366037681	122.985910043617	
426150000	-21.7829714445111	-151.972603315588	-19.0277403050387	53.7423284145053	-44.8975253406292	42.482447239175	-23.1356650614139	131.345170727158	
431140000	-31.9844963933719	-179.279191194917	-17.2445974480247	-19.6820496358309	-41.5858419371966	82.3158229204932	-22.1832489809065	127.494405197852	
436130000	-25.0690854723761	157.042215740771	-16.1416137126581	-98.6378981796057	-40.7148561491359	-133.010224060914	-22.0123252285728	124.485709089074	
441120000	-26.7830011557548	145.042004375955	-14.8434363475885	-175.793133100007	-44.4389186120744	-138.581606039177	-21.2807945938156	123.788868718906	
446110000	-28.612103502559	142.055447433547	-13.786396524767	101.377175531414	-53.7624728824514	-134.632225098425	-21.0738891608749	121.292273028324	
451100000	-24.6915824560122	172.074870202255	-13.2280235713316	13.8449085790891	-49.3756255397888	-107.932187866654	-20.2843538362205	113.149338042345	
456090000	-21.7681529143766	-168.249092290683	-12.866377863601	-80.7506807637942	-40.0213827028958	-143.769049775203	-18.9711795190023	104.11985481059	
461080000	-21.8061051514617	174.939638943221	-13.8759572353508	-169.008756518349	-38.7925866489149	159.580639239536	-19.3180116370755	113.643458697725	
466070000	-22.9078439943299	-152.875225775661	-14.9294555563611	97.2966915408265	-38.8780586316582	108.190914963659	-17.510654455611	119.35801591404	
471060000	-21.8863610115095	-148.582734817985	-15.7135993981646	19.7792460706807	-45.6711533057104	-136.427259390679	-18.4326697337174	118.093709793004	
476050000	-23.2030073721113	-157.660961436606	-17.5895462390063	-67.7843059959194	-48.4395709345788	113.665593724569	-17.5595202193608	119.317708802011	
481040000	-31.1405607715339	-149.034927317699	-18.8691225201508	-160.96449624945	-36.4532823129989	-93.1372151977497	-18.9942332381619	120.035036101797	
486030000	-26.7459761640266	-168.067957577426	-19.9144975347184	115.297016220371	-38.802273625612	-61.2599331181349	-19.6637979669848	121.134523744527	
491020000	-28.0969631695141	143.341661605582	-22.5265416821734	16.1396075853043	-42.0989900882312	29.4129441163638	-18.2390296326088	116.806925914703	
496010000	-23.5445533026215	169.845569367006	-25.845758040726	-47.867066323367	-45.08867332102	-94.0469366842995	-17.4229994511054	122.591177991326	
501000000	-21.5902203309693	155.594184808695	-29.4672690439244	-148.699646082459	-56.404909735828	-95.1884082258742	-17.2484323672561	119.709974918214	
505990000	-21.359174857576	-178.835497015085	-34.1557893328024	102.275059601091	-46.3500990577556	-34.1247100221513	-17.1106892147972	118.375834384171	
510980000	-22.7468100637337	-168.832820434542	-34.0772313385977	45.07909606377	-46.7222554590662	-72.0510059264381	-16.8194546093971	118.695310839628	
515970000	-21.3358971529219	-168.121619104201	-34.2601657375212	-36.2275708373003	-39.32053253399	-38.4110940750944	-18.3188260759149	115.591654803814	
520960000	-21.4411586338742	-158.354197986241	-45.2730629360808	-95.2662798165302	-38.8925255183731	-160.872259748653	-17.3192998418042	99.5216331859637	
525950000	-28.139653923063	171.824671774354	-44.3002252796944	163.038636418321	-55.3773286879171	-58.7803595299311	-17.0459949278186	106.940338569649	
530940000	-28.5186709081992	-138.479834732519	-42.2360145438508	-9.68132922229598	-36.8271952172176	84.111601814562	-16.5185680442845	106.65199257926	
535930000	-31.5559691671536	-177.069045128636	-34.4224628698393	-36.446929745844	-44.6093167540829	-64.8393939055231	-17.352606856983	87.7932888174387	
540920000	-26.1014831823288	124.313022807686	-37.642166323936	-40.2655115616784	-37.9062059167807	107.888543664551	-17.01170505909	83.5622634248005	
545910000	-26.3571820864442	175.891289256999	-53.1051669734543	-114.621942065666	-40.3351467869533	80.4175841642884	-17.2892119240191	78.5643228016275	
550900000	-25.8182431739772	153.830029471574	-51.9243128320235	-110.107996005291	-49.2682184858125	111.76251045683	-16.9989511305993	77.1794517117488	
555890000	-25.0279844338097	-167.174777972635	-36.6770200638997	125.29689239063	-44.0047359998779	117.805020276512	-15.9867882036181	77.2807292284612	
560880000	-22.962705325743	-166.615536673978	-37.61597491219	-94.7731544411381	-41.7903994983415	133.005817539741	-15.4188461853737	70.2492851974408	
565870000	-23.066613103517	-160.271430567796	-40.0381662332104	34.1970367232212	-37.980517748842	-22.0965089207472	-16.5179857260992	66.6452804682734	
570860000	-23.7252423205789	-171.844022138108	-49.2349753214111	-76.0448629652808	-36.7493018160115	84.9704015695269	-16.1499776942535	56.396527905413	
575850000	-25.3945118349166	-148.539690282147	-44.9447682123918	-34.8943176903955	-37.8824390555133	-15.3484274581581	-16.321076466954	53.4730662175801	
580840000	-30.6168266792735	159.54420245805	-46.1546010395271	-105.591444192533	-42.2832117841342	-157.391058252947	-16.0259676738968	63.5474434421782	
585830000	-27.4895886407627	-178.38406344432	-49.0804934032762	166.374306634432	-42.6478885401468	-18.4681991977706	-14.3782408631927	67.0872828871148	
590820000	-22.709566649046	178.895548250151	-38.2751037352136	-75.0832582620414	-40.120609987158	-154.745179834783	-14.3982402412514	55.9833432135624	
595810000	-20.801128352816	169.135110119683	-34.4450075227156	106.97671776235	-50.8867273812558	176.282571668256	-14.7143799165922	67.6827594766062	
600800000	-22.5488011210448	-170.697395380896	-43.786489742938	24.4367724792387	-46.6330967700574	-78.6894905377121	-13.8876437116724	54.3844523418862	
605790000	-22.9103536101057	-170.903002035301	-49.943229438614	61.018251082016	-47.9268243484831	68.0263396093269	-13.9228712193924	57.1855691764206	
610780000	-23.6316292305613	-144.997134155489	-41.1524365845626	-129.291984343663	-35.9408037598271	72.0320393349605	-15.2537003592534	51.5524686311961	
615770000	-28.426594383489	-175.624696308313	-36.6591950028646	9.96162557161183	-36.1991812940143	-52.7369939638678	-13.816903899723	56.225545505179	
620760000	-24.9982810892817	-147.992479368554	-39.8126974475736	-56.1258269685109	-33.2463654898767	28.8684130332713	-14.0835985597636	57.9058224995403	
625750000	-27.4756088106105	-160.914639271804	-32.8037744036954	-30.4304486572922	-40.1103740005183	83.5224539389714	-14.7291392424382	57.4635009630801	
630740000	-31.9297240923305	171.602423374022	-40.0540402095049	-161.390908217758	-44.0559915355539	-51.0800930919228	-15.5251631955754	51.1388433054196	
635730000	-21.6459106545877	128.59886931107	-44.8140893010971	61.9901100848718	-41.8423007774324	34.6005761625371	-14.2939649367812	49.748012672749	
