!Keysight Technologies N9923A: A.12.45
!Date: Friday, 10 October 2025 02:00:11
!Timezone: (UTC+08:00) Kuala Lumpur, Singapore
!Model: N9923A
!Serial: MY61181427
!GPS Latitude: 
!GPS Longitude: 
!GPS TimeStamp: 0001-01-01 00:00:00Z
!GPS Seconds Since Last Read: 0
!CHECKSUM:0438503723
!Correction: S11(ON U?)S21(ON U?)S12(ON U?)S22(ON U?)
!S2P File: Measurements:S11,S21,S12,S22:
# Hz S DB R 50
2000000	-28.0607750906466	174.51071764623	-48.5661002427856	42.0203014779864	-56.9912744697108	-51.0644628706189	-0.0115894653558176	-24.1232653341267	
6990000	-24.8408473221865	136.53089347852	-39.4607090180291	-107.072348404694	-42.4758155337616	27.6388307437526	-1.1310981915682	-74.7518786725818	
11980000	-27.2995095221077	133.69136139178	-41.1686327024282	121.747436614938	-40.7936155695094	64.3393089435423	-2.21424820438987	-111.775949839108	
16970000	-24.7801162761495	165.00446477141	-46.4379377857682	137.744470465415	-51.7256866753061	15.8189364313275	-2.78515409957903	-140.245216989859	
21960000	-21.9233215975992	165.997109549038	-43.9676917536278	35.6638683259858	-70.8657117688748	-162.620401576028	-3.74206817820116	-159.400699827625	
26950000	-22.1603129673074	-168.437330189053	-40.491565070694	5.55189501118708	-41.8838626870063	-173.252255914197	-4.52762519106718	179.961987785864	
31940000	-22.625941500858	-177.64839197453	-50.4273208217434	-89.9959592064045	-38.6975597775276	117.326252235758	-5.2589117325026	170.951313090686	
36930000	-25.5315395819588	-145.486352140788	-41.7892944671558	6.20274252266012	-38.9451011458315	-63.0347607724802	-6.3136939801565	160.159981985954	
41920000	-26.6595309489489	-170.723979609385	-57.9553470056452	113.360827219371	-42.5967761626923	-147.70641181348	-7.19716441962895	156.598863107745	
46910000	-28.1220746736854	173.903108219061	-43.7066823807262	-147.736474980944	-51.8528465592569	122.476403430604	-8.22557707445773	150.860124084124	
51900000	-27.7723336828134	174.796097483403	-43.0957578052721	9.88303253225562	-43.5689899994006	157.916502264671	-9.35565412219776	147.849137261073	
56890000	-26.2315176210124	171.116298772662	-39.5407740190007	-165.992253483816	-41.1653686840555	-107.55180894401	-9.0778428509326	148.333804293709	
61880000	-24.1286038791704	171.779456817898	-45.3482730649788	88.6413804146951	-45.0960778102238	-178.640357640257	-9.93577104208388	149.315181909392	
66870000	-23.1420945864557	174.640961906718	-45.3527149131777	4.05653261092607	-62.5832884149607	-160.850784095296	-9.24323015941439	143.716316530705	
71860000	-24.4178165811134	177.703733590103	-47.3407961020331	-9.41378418024745	-40.3701965863475	-60.2064186254903	-10.3855597473562	137.90946322777	
76850000	-21.146622850671	-165.776709038457	-42.0110552418475	14.4205649681961	-46.0960078684591	124.545461046583	-11.6468996573524	135.782221339145	
81840000	-23.9589740861783	-161.364924789043	-39.4628471525627	168.459286627849	-42.922997597146	59.8601558908525	-11.7032404278563	136.167876781576	
86830000	-28.0219978441808	-141.607129125662	-38.2889251909357	14.320042844781	-46.555304853856	-82.0747631190136	-13.0744676117373	138.442742318255	
91820000	-30.669784911878	179.189202119691	-39.5296776647994	-79.2411633278947	-46.4473485411398	99.1904101004455	-13.0105957278163	135.623152346293	
96810000	-27.9930395666056	164.073918794996	-39.7354758291177	-166.834613493424	-41.7202556992275	38.4797566876783	-13.2734786150409	135.653606003098	
101800000	-30.3662921478785	164.085602971016	-48.94501181164	-168.161645983566	-42.6017318370491	130.587084486431	-14.6332102898405	135.744089557244	
106790000	-26.9465102699927	145.32921507146	-37.930986470268	89.4965026800291	-38.2562100578752	-112.058730402479	-14.8233284838226	127.623270352414	
111780000	-21.3635116404869	172.940658508422	-44.7394806086439	54.6894774404604	-43.7943963164512	62.9748062406574	-14.8170210966321	127.944171167286	
116770000	-23.9189439066199	172.176844785222	-43.9786478079236	-133.706287760234	-52.1365421682857	88.8967952857686	-14.6501264636365	120.90439913158	
121760000	-25.6260230933768	178.496811265974	-41.7230822094676	129.83363253545	-45.0427810768805	-81.9602334173586	-15.4061997367177	120.728150327721	
126750000	-24.1154445656178	-162.286235149126	-49.6229804292837	114.081000772944	-41.7647577596053	135.043643289412	-16.5860684511847	119.364213508559	
131740000	-23.0275346920631	-163.483931034187	-51.9369703825087	36.9579798038208	-46.750137439032	116.013248947976	-17.2057696197037	114.983157169812	
136730000	-26.8135900448381	173.890848741013	-44.2890963782667	-25.4753496093728	-40.5746109102867	-25.0802237432086	-17.0937300541872	113.184443441662	
141720000	-28.4006156805332	-146.724621594038	-37.8645560585111	163.439372564843	-51.0315222931688	-97.4543318615688	-17.3038218804945	109.70251045242	
146710000	-26.1863702007917	-166.784759944457	-43.3722358694667	89.1918699683255	-45.6480118553376	169.263251937174	-17.8266694084401	110.321875103076	
151700000	-27.461444794071	152.353096353112	-38.6481565600065	-145.829588702475	-51.8354344203799	142.750996608962	-16.9862378759915	111.373605348094	
156690000	-23.1664797633107	175.334477390821	-53.4105574914014	8.8706991913907	-56.1789059841747	-22.2041006405861	-18.2985043320064	107.044446189562	
161680000	-23.6687101440521	169.336007979474	-43.9403914853778	-13.4521975386507	-36.7162093657489	-62.4928058442701	-17.2110950849307	113.609305696546	
166670000	-23.2803867358923	173.836448822231	-41.2658260120529	-150.859837771388	-42.4468224147585	-55.1591092150783	-17.2969543476432	114.556514059579	
171660000	-22.8866198941112	-176.811761649005	-43.3888325717371	-171.12318532271	-46.4197897132606	-26.4637755753601	-18.2718238928827	115.659273035937	
176650000	-23.6381212519445	-147.49428908964	-45.553380212911	73.155881538504	-45.5306873956357	-48.7804740841246	-18.5539160056408	118.538009667833	
181640000	-26.2638993110711	-156.306433804474	-58.3615192347171	-129.412704763943	-47.8675089107682	7.47790389921899	-17.8640867741071	107.771928363112	
186630000	-29.4926482690687	-140.751932687698	-38.8758481669882	72.4840118698546	-45.1154931800167	-163.737477400787	-18.4472867890873	117.671164250906	
191620000	-26.503156144451	-162.906997216967	-42.8186557428559	-117.596559662586	-42.8400459863251	4.24772099099886	-18.3234814387477	121.717507546416	
196610000	-26.3583446217093	171.729470299078	-46.6155556017463	107.525191810461	-40.6352857524945	-144.416797834423	-17.4198792443542	122.056304970941	
201600000	-28.564286258795	-174.849703353471	-51.2814611426326	-166.151186013784	-46.784729101521	123.908663813617	-18.673975509275	128.500817084845	
206590000	-22.3478384560415	-175.476331572281	-47.3166652382555	178.246401696826	-51.0769736056134	101.815351249612	-20.2085777123407	132.240655214182	
211580000	-24.2195715827076	167.914784825977	-50.3048553784311	-109.880701786981	-42.3702298545076	73.22034504499	-18.5380516883882	130.619359058731	
216570000	-22.7092946751713	-162.788019039683	-46.50003555243	19.1060619817253	-40.7175071589745	-58.7448766966408	-18.6574094342098	126.402552348894	
221560000	-22.9775268638067	-166.874683376927	-39.8769372784003	-77.9615587087453	-43.8032540148214	85.8319605044112	-19.569348472626	132.210457758423	
226550000	-21.1976104171654	-152.10457407307	-42.9906621942372	20.3145423512983	-57.8127515152803	29.0313800547964	-18.5695880180708	133.103948744875	
231540000	-24.8958559893786	-164.778034655052	-40.670960891294	7.1095250357046	-45.8962762755107	131.657360908211	-20.012882814497	128.555992948946	
236530000	-23.1900563987479	-166.223177422403	-40.90560122127	66.4647811821745	-46.2069194307008	83.6603051839242	-20.7945689159973	143.93347615989	
241520000	-28.4106625186073	-163.943696258532	-43.7655874327028	-113.403618689716	-47.0845604578684	-132.185214836798	-22.1673216106139	136.990207516866	
246510000	-28.2455868859474	142.927185992498	-37.5563379179025	157.127282522792	-54.5354470347417	-154.754699681276	-22.2674290553276	128.075249307164	
251500000	-24.7556953664442	153.619803225837	-35.6366473412812	108.409192716337	-55.8515014442186	143.723638752526	-22.3980735530111	132.366280259065	
256490000	-24.1868063668498	175.806707566992	-40.3947801760442	16.6707053421752	-51.0805718817686	79.4019303498847	-23.3825073752919	122.119365729191	
261480000	-22.8473398946493	169.096410216798	-37.1223488514788	-82.307313807454	-45.1236486518083	52.88947102495	-23.2768719656913	132.80955333691	
266470000	-22.1328126558531	-173.614526293625	-34.2178575050707	-139.637013103072	-48.1679072747139	164.031728162082	-21.9976184150576	121.793869728942	
271460000	-23.163375912941	-173.643292570363	-34.0976455635853	149.924481643689	-49.9895448161686	-101.598836368331	-22.2403509886333	114.429337456536	
276450000	-23.9078379766545	-151.666489364547	-35.048371352312	83.172587015481	-39.3200810673183	-49.9794460352221	-20.640121945511	114.102712453575	
281440000	-26.9297770494939	-161.925575517244	-32.6715609494771	9.97583420521318	-40.8744162390202	-108.357366025486	-21.5557093983968	104.271867114929	
286430000	-23.1307683098505	-159.206197402997	-29.9500904995579	-52.7129411413353	-48.2929309552194	-163.191724736099	-22.2181371519682	100.687569675883	
291420000	-27.6789022845333	-169.914052957101	-30.7054154940909	-128.911169289855	-44.5643710049681	-128.406554624929	-21.5500575477267	90.1215318438972	
296410000	-26.8002128901415	152.49393809386	-28.3870859185015	168.004124524953	-43.9977600934926	104.11127459626	-22.6947151188226	93.018622524428	
301400000	-25.5784143770869	163.757502903496	-28.1730939712443	88.6812753514763	-44.2016806743245	-178.172221101169	-21.2728039504367	93.264755342159	
306390000	-23.0296310236703	156.854892527716	-27.4050720840536	26.2476426351559	-49.581602763392	-108.636751142373	-20.6676489108951	100.658314564693	
311380000	-22.8147431698735	172.843690408337	-24.6110938710432	-41.6413842599086	-53.3403651461371	54.0294874240247	-24.6845205759831	104.578012605867	
316370000	-21.3982574423781	-167.248858292819	-24.4580953407831	-124.758739253588	-47.7664707142735	-7.48706603458311	-23.1345519941405	104.871385530873	
321360000	-26.2698866197958	-171.732575420411	-22.8706812739359	178.605257099723	-46.4534131726716	-98.0690832553895	-21.7624773148272	92.5114632970829	
326350000	-23.5111288600794	-174.731054221817	-22.2280771952199	101.056337372011	-49.2520929573655	-65.5865524226803	-22.4680469032298	111.39830199707	
331340000	-27.5909005503092	-148.849498609785	-21.0273919587888	39.0982301227757	-47.3169419422468	59.1365643536852	-23.1120866426262	107.384587881365	
336330000	-27.1629377946247	172.320263377877	-19.4830885805198	-31.3161335729788	-40.0976864799672	112.248649615404	-23.4177872653084	98.1929870992416	
341320000	-24.3640121417519	178.156766090579	-16.8987183422485	-108.854627540851	-36.9997282894074	61.0835444626777	-23.252773642382	118.25263257814	
346310000	-28.1039373417362	179.550275599913	-14.9560452521067	177.655448843092	-41.4118697491154	-78.4502803195123	-26.7131894174408	122.080560199961	
351300000	-30.9853169323056	-172.134517516965	-13.1009839008866	96.6621689022114	-36.1473520397731	-146.921406758755	-24.595165598711	127.780439462872	
356290000	-21.3980985794612	171.385379842496	-11.1869603027931	11.7478767164288	-42.8098865989459	-2.85626339820289	-27.2968916575687	140.387428570333	
361280000	-22.0959814325785	174.11546655127	-10.473399010223	-80.9223216291578	-53.204977868722	131.462450016251	-28.913100489302	157.202602587502	
366270000	-21.8445700248646	-164.124164822856	-11.3824705484285	-172.145402141094	-43.85819810697	95.358179880671	-27.8015713681679	148.725124512458	
371260000	-23.8330746726292	-156.550498616456	-13.7438203055627	103.196343979128	-49.4908105925883	99.2852150804976	-29.1555737692468	-175.93544497961	
376250000	-26.2107392269652	-170.334753272019	-15.2787337386507	24.848152537353	-44.4086287501272	-12.8526219374791	-25.2653924006247	162.974840358915	
381240000	-27.5337587521422	-152.54828865318	-17.632334133042	-44.5114625536439	-47.0362963734127	-99.3377655474693	-26.4296436707621	169.376793203288	
386230000	-31.408526573341	174.202528095208	-19.0434245248007	-115.050488406384	-47.1566732855693	42.9756665607577	-27.3538315772854	146.476306119702	
391220000	-33.4455321625804	138.996256445198	-20.2738678348128	178.789049885641	-49.6788801943888	77.2131682328712	-23.9297369601603	167.771764275065	
396210000	-26.3948666635207	140.846677916939	-23.214626375055	112.162302707519	-45.5907318144346	-148.295679391853	-27.7858808370059	161.495659513835	
401200000	-23.2324025755176	162.570820402672	-23.7231387059209	43.7547645392265	-44.0644325038177	-161.292316851652	-27.432801596882	148.767576106075	
406190000	-21.2792715704146	168.505724538411	-24.1691166941592	-8.62384135618744	-44.3390149036432	-93.4244695942486	-24.378054561225	147.220035186637	
411180000	-22.0995669233585	-159.18466990809	-23.6910550630621	-76.6921972608727	-45.3729834842411	-28.9566637344341	-25.5636359813756	139.405077770591	
416170000	-23.4608861391673	-167.953295700825	-22.0525513628895	-130.546324638777	-51.221323122991	-172.386588197515	-26.0287390165813	121.791357649677	
421160000	-24.8593273021388	-141.989710324711	-20.7903306388211	160.287278753644	-40.8158550010316	-106.591869959892	-21.4780422569931	122.029572082393	
426150000	-22.5911791444242	-152.8436560961	-20.2779808428722	94.3012712120234	-39.0279287376746	29.2169350907891	-22.4267098458178	125.198907927551	
431140000	-29.1422377720013	160.410340279936	-17.6353889158556	21.7855000826078	-35.3408605808494	88.7267590165886	-22.2194759830054	122.808011671052	
436130000	-25.1281343865525	152.052974232942	-15.628402339123	-57.1823224501651	-39.5562571011195	80.5683165809211	-23.2036854598467	121.582927761528	
441120000	-24.2736999326507	139.501197730455	-13.8197443976309	-141.049144076589	-43.4651925213354	-96.3360170149244	-21.484460310078	132.643415381283	
446110000	-26.9539085696964	147.347371252188	-12.2436820222423	133.121085646165	-45.6368505592933	173.699628797584	-21.8499699177891	118.912796376317	
451100000	-25.6872526859604	169.946245891343	-11.2927414993378	37.5151626417728	-45.6417921499872	108.204414738276	-20.1076481052664	119.534680994532	
456090000	-22.8906328185537	-178.077036829371	-11.2929585393839	-55.8291795124067	-45.2312221335835	-65.1184360540313	-18.8955477688165	102.900957487762	
461080000	-20.7736157554691	177.000177527333	-11.7416959966399	-150.386631540298	-39.0723753979855	-42.9366164439426	-18.9909047137636	112.241609548884	
466070000	-22.4206819619155	-149.574306907199	-13.3979048665399	113.412873935916	-45.6842071229169	179.559097933549	-17.8454447006781	115.545603250782	
471060000	-21.765307280757	-153.027175967425	-13.8787368049405	20.9218047785244	-39.2470455113433	111.127585173945	-18.0224310005454	113.949345340679	
476050000	-23.7897440254379	-163.428977659563	-16.271796545109	-67.9965414626503	-42.7565083889983	-86.8480532447294	-17.3982703370872	120.565409554847	
481040000	-28.4796609744021	-160.759884623587	-16.9804267599983	-156.393034758275	-47.7121616210796	-177.979393038174	-19.0127338876811	124.477336562044	
486030000	-28.3534085660571	167.497445622138	-18.9520194169102	115.783742495991	-46.2497730359858	45.6547159925235	-19.5890246999905	119.884836873632	
491020000	-28.9945283603125	167.805373863737	-20.1917808386279	25.6040735863351	-46.7295923319635	-175.267744974863	-19.3177765074302	113.626839571403	
496010000	-23.1899508039184	158.150218863126	-22.7690486999241	-59.7834507523869	-43.4773296289857	-134.68274623394	-17.951413460033	114.433443918269	
501000000	-21.6896884914847	170.197642056235	-24.5920863817609	-148.690638990522	-44.8677088804532	-123.778620239381	-18.4128826975551	120.368158315962	
505990000	-21.3920506386027	-172.40808113945	-28.7717196587543	136.284368337062	-39.3815623812535	129.918729638919	-16.8991346462239	116.826400853681	
510980000	-22.9698039367873	-165.418065800225	-33.7668888774561	51.141895727581	-46.0258636896048	5.22884257408489	-17.1052123960934	118.609198133776	
515970000	-20.7528278744872	-167.056609632947	-37.8963985786607	-14.7195224724946	-43.5152957245256	-177.213422992587	-18.4074748497967	116.280297376636	
520960000	-23.1054242777458	-159.681178725383	-32.1069734631899	-76.5282004378915	-44.2196142026415	-72.599147222087	-17.7924825807298	101.751883666702	
525950000	-26.6420123330526	179.615857943338	-35.0123912895676	-131.956518192836	-50.2966358391277	39.0745379511047	-17.0179410214473	106.570415468811	
530940000	-25.8565614514172	-151.176429891255	-36.6935490260295	93.7668246981216	-42.014707343784	49.5833965537439	-16.5995641438402	97.4133228123798	
535930000	-28.1807935722035	-169.583713127186	-40.7938324556047	35.4371466164343	-40.1030005710793	-109.623748105844	-16.9967753487235	84.0341450707597	
540920000	-23.8573188027586	132.01657013018	-51.6227313919955	-175.706893954639	-42.4005228804459	-14.8591226635103	-17.2239806937989	85.5760212756492	
545910000	-24.1725231838429	166.341718259392	-43.5997409025588	-167.924108452793	-33.6833328322523	43.4804855081485	-16.7271265740688	79.2481716704086	
550900000	-26.6471056911277	172.742491908628	-55.5271174656868	154.717934525944	-41.9932557950825	36.7493285624904	-16.8985989395391	79.0863764853653	
555890000	-24.4463603369066	-165.055013273337	-42.6298560442932	-110.313064270321	-42.4972776029908	-27.7324522828151	-16.7974610029417	74.7172942317402	
560880000	-23.3810324067795	-150.730481433569	-40.623805212864	-91.0077540914865	-44.2387189849788	-84.144444112645	-14.9443227694506	69.7865947851862	
565870000	-22.6598571423355	-163.697620400668	-40.588333610718	33.3542496494067	-36.5954113168039	-39.8328529494068	-17.0347233847344	63.2403175822364	
570860000	-21.4943232758846	-168.693580435082	-43.2902837599408	-110.802582896837	-57.3883314571518	-30.5687453008532	-15.1671701871165	55.4543587457354	
575850000	-25.651654986372	-150.968339098312	-36.8612675414805	125.935909857964	-42.6991961078354	31.542769549758	-15.0986835309532	54.6211967887306	
580840000	-29.8490773600982	170.665413074203	-47.6287240930885	41.830370178868	-48.6614768497453	58.2080027876247	-15.911184177491	61.8615309969042	
585830000	-26.8167185668108	-162.458626084922	-38.8552308305407	-177.921338399449	-35.0936015758158	-120.155323762514	-14.6845991967394	66.1788944867812	
590820000	-24.3483799053548	170.665037895492	-39.3736713930976	134.674020521346	-45.6844514205948	-118.850238102207	-14.6173290794655	56.0070630747147	
595810000	-20.4630852062692	161.113071612906	-51.5069504604585	2.39221548170048	-43.2969719118423	-40.7501972197753	-15.7600627288929	64.4422727589139	
600800000	-20.2261377158581	-164.77391374042	-39.2145526070312	-8.60464298114077	-36.7133492582192	151.522792220081	-14.2015004649891	51.927292057055	
605790000	-23.0349684697493	-166.595391564258	-42.4749205500528	-128.626487707333	-34.2356615988094	-8.43214032774981	-13.7051155312262	52.680891260036	
610780000	-21.6450707029	-156.641448767302	-40.9331663830686	-148.892789860705	-44.3440126653141	-48.0713528632831	-15.1012919353417	55.6381419667028	
615770000	-24.6098296641543	-178.199711600341	-40.4772623927022	49.9833369682088	-38.4315756592737	-90.3446094964738	-14.4131780850955	55.5888848187438	
620760000	-25.0455696620263	-137.679648315472	-46.2064307278725	51.2995102814568	-44.4866075444753	-100.801593954154	-13.6517382406698	58.8022433750403	
625750000	-27.8498147836642	-157.211598277513	-35.5648907894443	-70.9333920649318	-33.7325833072032	-177.330849456205	-14.4893211296521	53.0813801233755	
630740000	-31.435532218701	-176.506973427744	-56.5905015315609	136.176344694225	-45.4638344714743	-160.46703565733	-15.3894875909716	52.2097263798886	
635730000	-23.1691207806796	129.738725474127	-39.4297090600238	-35.943814505773	-41.2436515323789	-176.45457166452	-15.3405040924512	43.3742358395942	
