!Keysight Technologies N9923A: A.12.45
!Date: Friday, 10 October 2025 01:59:12
!Timezone: (UTC+08:00) Kuala Lumpur, Singapore
!Model: N9923A
!Serial: MY61181427
!GPS Latitude: 
!GPS Longitude: 
!GPS TimeStamp: 0001-01-01 00:00:00Z
!GPS Seconds Since Last Read: 0
!CHECKSUM:1088434000
!Correction: S11(ON U?)S21(ON U?)S12(ON U?)S22(ON U?)
!S2P File: Measurements:S11,S21,S12,S22:
# Hz S DB R 50
2000000	-27.225094693731	152.589560669788	-48.7011094089985	113.792706060504	-46.5230830022266	5.37091768488114	0.171661534318389	-23.995260208393	
6990000	-24.6726839997181	135.880918734808	-48.0781631621273	86.9516763963508	-40.1223653038434	-3.30204213370081	-0.944302165499233	-73.8233128365986	
11980000	-26.1920220978103	124.58150961932	-46.8833977879825	-26.9722600139687	-40.6011347943024	128.336575570222	-2.31382557351139	-111.371170050071	
16970000	-23.9562805716001	167.563232402285	-40.7850867276658	117.901208963311	-40.1906332360997	102.799323574549	-2.86729164371225	-141.36016008384	
21960000	-21.9387040313324	168.198522486403	-43.6355904691279	-85.6094265317486	-47.8303863710058	-91.2038976268142	-3.58702195408135	-159.22160870862	
26950000	-21.3061010346413	175.8388006877	-36.5408158239181	76.2713886717849	-41.8979671340716	-40.7541932077027	-4.37083433020531	-178.202145058648	
31940000	-23.6124745807421	-176.305991000733	-39.2045200275022	6.48608682668611	-38.050933909331	135.246530975473	-5.13648487300155	170.085646352193	
36930000	-26.0979416126625	-134.200434278594	-42.9113693450799	-119.102358971529	-39.4890445346128	-85.5113665817417	-6.28019562580337	159.114510461459	
41920000	-27.064670595544	-153.720105287604	-38.9285856369082	-137.929905900313	-45.473883904471	114.122813709601	-7.45854957366117	153.845980166792	
46910000	-27.0389071602126	162.363244522569	-36.3458318178161	-154.058881396449	-40.0398515281325	72.5239777506279	-8.27470342180035	151.455658963883	
51900000	-26.0091108632888	178.844845419005	-39.1639304403855	144.958456448218	-55.6408943836033	-170.946566532223	-9.45670083514034	148.681498901783	
56890000	-25.2094174752502	172.689368744826	-52.6486295014555	61.7297300834099	-36.4008019541855	60.1526050761558	-9.22833481065259	147.912708794559	
61880000	-24.0193708466869	173.859131771728	-54.8448766913792	49.8043224358493	-45.0061780057866	32.0851266180114	-10.1951770266302	149.344605119721	
66870000	-22.6080659679547	178.973264621256	-35.0806276406595	-24.5409594737048	-42.4641215493428	-140.568648270305	-9.39680922533064	144.583106003007	
71860000	-25.0655012273887	-176.897126186364	-51.1061016908114	95.9666066202355	-39.0430528184507	-125.116646793613	-10.3981415330854	137.313295595904	
76850000	-21.4747697548804	-160.899206711237	-49.2201957623323	97.4053526822272	-49.7406346421538	148.852590139589	-11.6592409453194	137.792193309874	
81840000	-23.4766272961007	-163.43074354914	-39.4201455630559	-78.9838132152931	-49.3743363869183	85.377312297052	-11.9430294092787	134.635484256095	
86830000	-26.7069187520548	-133.015498271182	-38.4576420859301	90.6233977193989	-48.7997870854483	-109.611440533159	-13.0417252562767	140.112614133657	
91820000	-29.2873362157526	174.493534798944	-44.3731566892314	49.1773006587799	-40.415280868707	59.1758029845201	-13.0239318963117	136.737156976746	
96810000	-27.5259681160152	165.950881277126	-37.4184813318803	-15.9998041630063	-46.1828691758275	173.013996206386	-13.513667890643	134.348548102305	
101800000	-29.9266211616402	160.212347856662	-43.5945554764517	-76.3041234081396	-48.3403433791155	15.4565964695963	-15.0754779074936	135.846522217471	
106790000	-27.633295238141	136.05112824271	-54.5594992917478	-138.828379337169	-43.4360399650082	-167.937507897166	-15.0869069547702	128.54654408379	
111780000	-22.9315198073415	167.709241313902	-38.0990710055309	138.247471893356	-44.858786148093	16.409572317195	-14.7370649844331	128.379944808204	
116770000	-24.9696372388566	175.835959014637	-38.0949301119821	-54.3568296995108	-40.5338697694261	49.3129198392971	-14.65698165756	124.813485150387	
121760000	-24.5745487053999	-173.398363647458	-38.3885853804619	150.21040371765	-49.4200367606274	-166.377211716975	-15.8935870027647	122.306339794308	
126750000	-22.1661147338996	-165.151365355938	-42.0291637384274	-22.6049371211221	-45.6772823058526	41.3614419934078	-16.2735546455896	120.26024788328	
131740000	-24.2508910670439	-172.449509668952	-39.9422188664943	-101.553100698399	-40.0879800331814	160.163075187792	-17.6152510164099	115.804660426013	
136730000	-25.3398879060018	-173.860340935611	-46.5424305612889	-52.0726467773491	-45.4398484648599	83.2181188236595	-17.0414734268653	109.348482768501	
141720000	-28.4967798756539	-160.151901462178	-45.7190658068721	67.3405911572092	-38.719005736871	-14.6156318620694	-17.003491081937	109.011114520381	
146710000	-27.3771915103266	-174.979902635103	-37.2244336019174	133.939241478875	-47.8431556599446	-20.3079785487864	-18.0381442885833	111.654011789125	
151700000	-27.0182730626762	160.966353460558	-38.9267806249578	153.971118755223	-45.5511061093479	-39.1001499174928	-17.2471963448712	110.605202598837	
156690000	-21.8108256692731	172.72046092194	-39.2314384193737	0.890527504557665	-45.0032695730174	-107.967520800308	-18.2976479430141	110.094286283668	
161680000	-23.9272457198876	167.601687392952	-49.4491185811847	-115.917133070102	-44.0803070570173	86.5593148839974	-17.4857418569051	112.42312580021	
166670000	-23.248977421437	175.97872325448	-53.7389450909627	-52.5864517387356	-40.9725547841235	70.7748227817687	-17.988638484237	119.511595359766	
171660000	-21.664792416722	174.997355531842	-45.0900666893748	-150.778494873681	-47.5868435323699	55.3335217056787	-18.9252527753114	114.968490737399	
176650000	-26.2760525552853	-156.139295019328	-40.6169871865295	99.204594431584	-46.5543461111801	-143.996570773838	-18.3838609199117	117.330165834223	
181640000	-26.7787965614652	-154.710051385193	-47.5882866739156	23.1660718294477	-54.1101061210338	-166.23188420995	-18.8884657030183	112.90689762873	
186630000	-28.173373159054	-138.938734351111	-45.7244346387066	-163.753324166754	-42.2826389341167	148.485725127141	-18.4542778043695	119.729668621735	
191620000	-26.5581278871007	-164.537242192164	-46.0305693624404	145.729027632822	-50.1828860516848	-126.625141832282	-18.4109591916916	120.296040269893	
196610000	-27.8812208254263	175.421052007989	-42.8154309207308	64.6126286585802	-39.4792149753732	166.031532947284	-17.960114923044	122.399450711801	
201600000	-26.3633652037371	-175.879569043066	-36.8683758606493	-44.9654904383316	-38.7948904200266	-115.533079364334	-18.6491359303894	132.571182577251	
206590000	-22.9421321524643	-170.313752152746	-43.6615693829372	52.6498220836752	-43.820450158139	-156.630773780802	-20.0123220173607	136.353271091462	
211580000	-23.5835717377534	164.821876116303	-53.8719302856015	-81.0886684931457	-51.0188436026971	32.1998614029753	-18.801431046807	126.380162677502	
216570000	-22.4508960587633	-164.473215152279	-38.7446761876487	97.1263858597092	-40.2710886373389	62.6898859898425	-18.0652032205734	131.39263484663	
221560000	-21.9599883632558	-171.72368346161	-41.7063318523112	17.0911007525648	-41.4957375742622	-141.114247107472	-19.3244801040651	138.397403546831	
226550000	-21.1094348984295	-157.46312067954	-38.988311039741	11.7460503449899	-40.3273778146204	54.287550588139	-18.2656214012412	134.51053112779	
231540000	-24.5261437930607	-156.099798412295	-38.114251935333	-74.174229233497	-46.127653582661	96.052943555892	-20.4296411908387	129.595946136861	
236530000	-23.8664719550193	-171.393242962625	-38.3033091449957	-137.285001646588	-41.886312936719	-4.40972495886394	-20.9545323571709	144.971082267764	
241520000	-27.3760300019687	-140.452347469315	-36.6549757360261	66.917714648235	-51.0527127313922	-50.5266699827722	-22.9125713470471	131.638070457376	
246510000	-28.4750088461298	148.790452618602	-36.5345433560318	-27.8680100765859	-44.9140774100539	155.300952227029	-21.3361091862924	129.343819358637	
251500000	-25.4684670622215	158.79539085931	-50.3672143907339	30.9399084729232	-39.895398029529	73.187775175146	-21.3528821230259	130.28682972298	
256490000	-26.0437103873331	-176.548307399067	-53.1183742017222	-11.6350244154124	-45.0478367302244	136.167612737755	-23.8034298389805	128.865906262394	
261480000	-22.9500191301794	165.605672190263	-42.9033510567917	-10.3651388484624	-39.6007696174193	171.379857086301	-22.9190072436325	136.712609611092	
266470000	-22.328304205159	-179.949249808166	-37.525957616772	-143.954335656516	-43.7683821588526	156.497277819622	-23.7358509901837	134.675673477231	
271460000	-22.4295894506695	-174.191778127375	-30.8783889797506	113.868536313747	-50.588913014629	-167.445607458962	-21.9774579060582	123.020143043421	
276450000	-23.4839030045644	-156.935875672524	-33.5939063453248	67.289205281318	-48.5098592317547	-11.3251436635571	-20.7097679574473	112.711964851972	
281440000	-26.1305133859805	-150.133628113119	-32.1871322097466	-22.7522856206891	-47.4483325860395	-116.439188977864	-21.658017956337	107.910640168417	
286430000	-25.2362910872791	-174.694644038025	-31.2067769562501	-78.557903354426	-47.3256668910009	109.436118936544	-21.4332501862548	99.1116506117087	
291420000	-27.5095622073447	177.535153343595	-30.2269436121989	-146.264550978735	-46.2559871427335	-39.5471618779366	-22.4194438238321	87.9717922270123	
296410000	-25.4207087103179	162.623765823082	-27.2216614287319	134.989504364343	-49.4577177861532	104.881688369072	-24.5278966032859	97.6407769183366	
301400000	-25.3784214537436	163.092966826838	-26.3824351586169	61.0390575610746	-43.8266696339978	-5.13786571332948	-21.7634938233758	96.9826813609525	
306390000	-22.981307114166	160.589936215261	-29.0847315886641	-13.4957135207168	-51.4245016275781	40.0123578941691	-21.247260962122	105.226046807145	
311380000	-22.9038730073318	173.360162807719	-26.3609050743172	-77.826669288664	-51.8508963544512	-48.4105316414706	-24.6063749179469	104.634065328674	
316370000	-21.4751521276329	-166.332858938776	-26.0052956519885	-134.91826802133	-47.9763980976133	43.9326969200323	-22.8877597735312	99.4162505203581	
321360000	-25.1697142864042	-169.172823517703	-24.7941580935661	151.42693325315	-41.8628466437392	75.8533081363221	-22.261856247763	102.644555205098	
326350000	-23.1847726482823	-171.002852249467	-23.7070063522994	86.7957928819604	-41.186912312953	-82.7153869097677	-23.1927189100823	107.425628615592	
331340000	-26.7011810540316	-139.546390135115	-21.3758912047898	18.7122969956501	-39.9239191248813	152.727117381147	-24.8460742529294	106.877346293033	
336330000	-27.6961597119598	163.027556532084	-21.6891382122921	-48.3373971625114	-41.5978337900146	75.9166664218156	-24.0938764554817	102.173747865295	
341320000	-25.8982645373357	-172.592085009512	-19.1419388878166	-115.405065870079	-51.6074283401369	-103.831301864011	-24.9083848443257	133.161550280966	
346310000	-27.5044470216801	166.931827266287	-17.4366767926029	167.093614472938	-42.877047440741	-56.7899896868388	-26.6407190722964	135.765658447827	
351300000	-28.4018701036774	-158.214259487633	-15.2836896972817	91.237767431886	-45.0661543963272	-15.2245645296235	-23.2998958832395	134.765048010862	
356290000	-22.0707911210789	171.397035227689	-12.7120584617773	8.21456430822774	-50.9912956172951	-143.089513181846	-27.2073546421825	131.740198457606	
361280000	-22.0972157500929	177.163789355237	-11.1473373177952	-83.0098067764984	-42.2940581932689	-79.3333065208055	-27.0634968792809	150.831386525854	
366270000	-21.5566176153817	-161.432020049588	-11.7489343374502	-175.652224548413	-46.1829782450399	178.898891311759	-26.2564143760013	149.092279278354	
371260000	-24.6254838474379	-172.552512938953	-13.6189784685423	96.8509713437491	-44.6889071326611	-14.168050114551	-27.1825226952037	-176.645693053708	
376250000	-25.5105011879667	-165.395221756122	-15.263422009032	16.0169983340818	-36.7341813607831	-119.328572754665	-26.3423743338655	162.264095302319	
381240000	-25.5736443597934	-155.730380856904	-18.1595245155739	-60.0306784598941	-46.0549157599628	37.5580931993126	-26.9840947452686	172.580503133991	
386230000	-30.1696978917673	151.33638665836	-18.5091250298787	-134.226986313868	-42.7029580235008	-158.012898948944	-27.2185756039737	147.501770624432	
391220000	-31.4882894184471	155.793595389736	-21.3112476769216	162.402691316742	-39.3303882288463	73.8310399140372	-24.4761406641929	177.302742354886	
396210000	-27.1845340039853	141.656875967707	-22.490521798499	89.775433252401	-48.4086496548039	-1.48426327921903	-27.1270478988332	153.381644603971	
401200000	-21.7474377384192	172.59926420083	-24.5770117180578	28.9816085837235	-46.1890234358741	-105.102137950015	-28.5033018871706	166.899654034336	
406190000	-21.3803833211383	174.307331145762	-24.6226117276892	-46.0820093959318	-36.6852502318182	-127.413568916942	-23.5890375983507	142.139012238057	
411180000	-22.2642297079434	-163.553081417026	-26.0251791860947	-98.0269600499051	-39.1589023284389	144.739728561732	-24.9722432819015	140.03170137962	
416170000	-23.4121466039126	-175.487433858819	-28.1628551088633	-158.563397745339	-36.5687019573086	-20.4789392565417	-26.0624302854526	137.904436537157	
421160000	-23.343895456402	-146.225698544343	-26.5063992588627	141.840604479039	-40.3452096477452	26.3959192466	-23.2063353346997	127.499966630354	
426150000	-22.0418106910362	-152.418361898925	-26.3540507542938	74.9157407322856	-48.9996962827882	-144.074325155899	-23.0105904162605	124.460591097417	
431140000	-30.4018557450089	177.733852433764	-24.7452780144285	2.27291115384364	-44.9861920774833	26.3614100206776	-22.0807691075162	128.138405312377	
436130000	-26.1978546654323	156.988174064681	-22.5119869109049	-74.3639795370681	-41.8158126103057	-55.5223077806034	-21.507650874878	130.704792392278	
441120000	-24.8832608287418	145.120895386127	-21.173390986933	-153.915475884727	-47.2678730732437	-15.7526066701566	-21.0727771975127	127.820543664149	
446110000	-29.2566670225463	145.605726974855	-19.535190553036	115.813901177485	-46.4550211644845	-111.077347731661	-21.303979116584	123.380306158515	
451100000	-24.1868266050055	161.885556984049	-18.0901107138523	32.7250497432155	-42.4540723127517	-91.3343266635093	-18.8164668783469	119.458009123755	
456090000	-24.1431356115643	-177.737401280106	-17.8907299373944	-63.7008257812259	-42.1457588701964	43.1150754593765	-19.2240498783505	109.29029814418	
461080000	-21.1625024624325	178.979612791718	-18.2445408070611	-154.370026231122	-39.4698914441458	-96.8148326243172	-19.2963469600954	117.251545517552	
466070000	-21.3634888321637	-148.732268829513	-19.346007156428	106.704473371752	-45.5002539014151	177.453131375588	-17.7926742519747	121.592830364703	
471060000	-21.7198414123823	-159.215138965762	-20.2018487237684	21.1974729807183	-44.889239789267	-33.4708268279097	-18.4227335319027	119.759378261396	
476050000	-26.5709255241482	-163.446250834324	-21.685915024661	-60.4967451349861	-45.4829537002986	-116.812227760286	-18.3325446244113	120.880771868121	
481040000	-30.0641431914783	176.348968398989	-22.0716073016096	-164.153940196475	-39.3733934836824	179.357227053195	-19.0561804874087	119.645373599863	
486030000	-27.1954933550321	-164.623991650637	-24.3047412975375	114.064734469182	-41.3290451464315	-48.8601705083413	-19.5068681466699	118.497772018539	
491020000	-30.9363942616901	156.479552531424	-23.5066560629973	21.2752903510717	-48.8303471425282	-104.273085330497	-18.8655498918515	121.626566584188	
496010000	-22.2530006547751	156.509630204069	-26.8539226711217	-51.2754381711515	-38.2465010330599	-86.7389085986379	-17.8398321940036	117.350638694716	
501000000	-22.2208485024315	163.987435360295	-30.244913828411	-137.650557629445	-41.7563016437119	-176.100117276953	-17.7135213556406	119.776375196392	
505990000	-20.4869204360483	-175.479094435951	-30.7719473276653	134.395001732386	-40.1842668470504	-78.7850286008335	-17.1033877473917	118.953803611852	
510980000	-21.9609962775308	-174.604965980854	-35.3880388772691	71.1026732601399	-43.1787010779841	74.245910565092	-16.2520262436617	117.143195856327	
515970000	-20.0446673200397	-170.101650257291	-31.9077942823511	-24.5703393611517	-40.9442530853975	-96.2574974291806	-17.3964913579359	114.722706625858	
520960000	-22.2973690406223	-159.100397287963	-39.5344156954208	-40.6443148585852	-40.544427480838	169.551613846829	-17.3550156292041	101.959802543153	
525950000	-25.9622792969296	161.769088788897	-45.8617847019826	-119.486951143482	-33.3938874603419	-8.52917468630579	-16.4811344861649	109.241876524611	
530940000	-30.0973056909732	-120.434417164427	-39.3973457181843	150.789945955052	-42.6268471905223	-59.407309449334	-16.1369660632865	100.801386398023	
535930000	-27.9354252970475	-162.160170962017	-37.4255495710367	117.103228385378	-43.9518101262002	-165.771861197821	-17.6109319289552	86.9768627457709	
540920000	-25.4987890719859	129.518551855915	-39.2660761066532	14.5737705793266	-41.5767522072307	141.718428174668	-16.2119065877135	83.4554715099064	
545910000	-28.5874800140838	176.678915840094	-38.4796247940384	-3.56745001257995	-37.0282000731526	169.342729499293	-17.22833854163	78.6840243335092	
550900000	-23.6099309679399	152.307997345286	-42.4797726543912	99.3091400668502	-35.6853668896713	32.7600424654729	-16.7770713598371	81.0712160016603	
555890000	-25.2936692122499	-152.337283155797	-46.5252289898815	-158.34719554491	-37.9819805931256	-125.459030659359	-15.7136579832848	77.1985282536451	
560880000	-22.2922071074531	-161.12496028464	-40.1909367378358	-92.5645899022961	-46.2770698217529	27.9827503955769	-15.5920203471178	68.0408184665585	
565870000	-23.8111961123063	-148.941709185059	-34.3567722169967	27.5183091762518	-41.1405028111262	-24.9343981346124	-15.8053920266114	65.2389415597649	
570860000	-20.6256154469179	-171.836588666891	-35.3660769108091	-5.02343515637972	-38.2217244890122	-5.26592427791673	-15.3504630192589	54.1631476463111	
575850000	-28.8141055105982	-161.315562493195	-35.9839022445353	-91.195114393129	-37.0959543497635	-28.1773378434159	-15.6461559330872	57.9304139072986	
580840000	-31.2231608037859	142.763597239395	-52.6315270866652	-38.8983759936989	-42.5810314204508	-99.9262667786323	-15.3153263205345	62.7690553336788	
585830000	-27.8499322041204	-142.995271524313	-39.004923372218	35.9017504057521	-38.1460589829852	-123.92586135523	-14.8349324031592	64.0368645263978	
590820000	-21.6910140753658	176.050482699644	-36.1710141177127	-119.211826981874	-39.7695320659663	136.941395686898	-14.9244168539281	56.936790448571	
595810000	-20.4260742588211	155.069733549901	-48.0031613085893	152.519781349604	-41.7861749713246	-102.530581051324	-15.3411213406048	67.9387531970256	
600800000	-24.0465915993984	179.934075563647	-37.3352204499144	-91.622302730724	-37.1241782493494	-168.217573273887	-14.6022001603049	51.3502373417638	
605790000	-23.0835145918802	-173.610304504509	-52.5560323295663	-49.0233753995262	-40.3770645569027	107.934067241499	-13.9517741770408	56.536966892064	
610780000	-22.768413492399	-162.148843716083	-41.6211635446257	78.8521283116409	-39.4986282727717	-53.7215897802425	-15.2259331758773	62.795723824414	
615770000	-24.1453011854778	173.490432239692	-37.1568984867686	128.968119743658	-46.885470347922	41.2377337607167	-14.2818095479986	58.4382255355308	
620760000	-28.2721145751757	-144.947783915932	-38.9328601180217	113.231224955803	-47.2599917897565	-65.6710320137595	-13.687881549915	53.2108421446134	
625750000	-25.4216011941526	-171.260466061089	-35.9478814506505	74.0024315406123	-45.3966591521572	67.8521968401437	-14.7612568408808	54.1225536862104	
630740000	-29.947994386374	153.750651299311	-43.3954409941096	-163.668882395451	-43.7140823808736	121.821089951794	-15.2428560936938	52.6936656705283	
635730000	-23.3421378569803	125.325855578891	-32.1777664507852	-78.2513365048015	-35.6866549343267	-64.4345643610551	-14.4374683023456	45.3631576827426	
