!Keysight Technologies N9923A: A.12.45
!Date: Friday, 10 October 2025 01:58:47
!Timezone: (UTC+08:00) Kuala Lumpur, Singapore
!Model: N9923A
!Serial: MY61181427
!GPS Latitude: 
!GPS Longitude: 
!GPS TimeStamp: 0001-01-01 00:00:00Z
!GPS Seconds Since Last Read: 0
!CHECKSUM:1269344249
!Correction: S11(ON U?)S21(ON U?)S12(ON U?)S22(ON U?)
!S2P File: Measurements:S11,S21,S12,S22:
# Hz S DB R 50
2000000	-27.9599531023684	160.562423754315	-38.3350889621724	83.8908505513881	-37.6516994095551	-4.63497893275029	0.0407066413708907	-23.3050478975669	
6990000	-25.0041805571507	148.292347402569	-45.3664477758205	137.207053848936	-42.7031531697686	126.800009213505	-0.928826455093718	-73.4987100901113	
11980000	-26.0665979506457	128.30325994265	-51.7945018524237	-12.2571405011769	-37.6981182649405	-28.7468433872837	-2.31713475145908	-110.683147642464	
16970000	-25.0094769239391	170.734992245566	-44.8605913244604	162.843687769171	-44.8667317866823	48.6738951220448	-2.79561867328406	-139.67874385405	
21960000	-22.7750436934023	172.901442566894	-50.7196707442437	59.3914476527444	-44.3944785971066	115.049388598713	-3.79019084930027	-158.267846074835	
26950000	-23.3759619238229	-178.585684900187	-41.3106140357983	40.5922562144167	-43.0066921240901	24.3286991393218	-4.07439947927482	-178.350046586983	
31940000	-24.6070139812281	-175.978509591238	-38.0061697272854	-124.681381118722	-54.4241750781298	-139.746021369352	-5.35239855576521	172.276283416586	
36930000	-25.4537742728759	-149.311085654558	-44.6183153825546	24.4260213124999	-41.7038391248183	136.940682801916	-6.28896667599243	160.224800322954	
41920000	-27.3610146449669	-143.474448978097	-42.7328882886752	-54.164690038849	-38.1346428352476	-171.145705025032	-7.05551182962226	156.115301606576	
46910000	-27.4970728388734	173.755575350758	-34.8538238873835	-2.17187463495768	-45.4138882771946	-59.4770762037614	-8.39007293633639	150.137547680963	
51900000	-29.6682725595404	159.319801084107	-52.8067599092601	-134.869958202785	-63.12178908931	-138.476621642038	-9.36191922459841	146.567480253595	
56890000	-25.5843315430157	169.600238902188	-42.4742253359039	33.0106275053743	-43.459841842744	125.226635373126	-9.05256717743367	149.05675527846	
61880000	-23.8395724186921	178.414466569822	-43.9470680886924	109.738050271088	-45.0377026771409	166.209048007047	-9.80752992181047	150.140145848244	
66870000	-23.4892865576738	-174.333540442278	-40.1313402036915	72.62338157761	-49.8435187368751	85.0199251968042	-9.31834610027211	142.247448795334	
71860000	-23.1071599610773	179.991942166523	-50.5193111128888	-33.9087271207642	-48.0840554918955	-62.2544468900352	-10.2607044705996	138.42089195628	
76850000	-20.7137894446418	-169.527411040848	-50.5886108695056	-149.738465046504	-41.9084581444784	97.9227543954734	-11.9189046976773	134.595912839004	
81840000	-24.5323652845467	-171.085272706444	-39.5050536969277	79.9811625574203	-44.0949965594479	-164.924753018726	-11.7347528521818	132.720107676175	
86830000	-26.3975000458877	-140.038449015621	-43.4724696140309	63.0972640435118	-51.1696598769503	-130.810157384064	-12.5076139606678	136.581420280538	
91820000	-29.2952564381731	168.774437207308	-43.4711315543766	-35.5748446493146	-48.8820494833354	-113.960382891095	-12.6537166073364	135.480406601225	
96810000	-31.8234453694407	147.979429503534	-48.8485472027893	-148.786053526655	-46.8893428650765	27.8152480362607	-13.4340856741326	133.524274414778	
101800000	-28.5852521179557	163.932006885607	-41.0775241659134	86.2972707443881	-44.438533986503	-131.061317837586	-14.0974338973398	136.099339987555	
106790000	-28.1287886130278	150.833921850277	-41.9258352630444	92.6431971006251	-49.7286740296023	98.3341472818959	-14.6451646364999	126.5074021301	
111780000	-22.195198948399	170.564172274442	-47.6135420626084	6.25345236716302	-44.6605264819182	113.121470984312	-14.7410463196819	126.637036361755	
116770000	-24.735242646625	-171.814096237492	-42.6639307234346	-51.3124376607162	-42.3155665943099	-115.935146618364	-14.8868315091258	123.505282680925	
121760000	-24.7329739798339	179.402855118321	-44.2675519944091	147.721393819094	-39.4484128689622	108.411361783403	-16.1250365562583	119.305474284589	
126750000	-21.6256022009644	-163.721620762331	-37.8767661742687	1.37204277229631	-40.9885789698932	-46.988160443457	-16.5826734664302	120.05211703638	
131740000	-23.153438135719	-175.723269808289	-45.6162106492957	-159.635303560864	-43.4648097420367	161.64253810573	-17.4895596959992	114.029824494187	
136730000	-28.1587219927296	-170.676089058897	-53.31243379092	-75.4270578637513	-44.8578443216875	46.9419461442922	-16.444696810086	109.106003354898	
141720000	-27.660858462741	-159.43058189147	-42.2880722577355	-114.028222086306	-42.6696830733881	99.6601858179491	-17.0630980868276	108.710753616535	
146710000	-27.9572782068193	172.443837618282	-43.8790757696258	67.7434300471933	-47.6579680156024	-22.4140888918291	-18.3383712187737	112.661540782944	
151700000	-26.9053388236631	167.232860285514	-49.511196237895	25.0067097145781	-38.1126227499861	-9.10799214542372	-17.1533174813125	106.16646003337	
156690000	-23.8721418610939	166.289137749329	-45.057530007178	-55.9135763908995	-42.2046531924344	-141.200409581874	-18.6066278002309	113.529531957552	
161680000	-24.4878052468918	162.84258115954	-40.7339178622535	-83.050048643455	-44.365371537077	131.5522819746	-17.2779235372304	110.766202544684	
166670000	-23.571099223385	175.780714872743	-42.2690361756365	160.011606584536	-45.5962016687212	-151.267337269024	-16.7404763928388	114.36910470515	
171660000	-22.9272751916472	179.179443417137	-41.5091085126737	93.4957961622377	-46.8520522681217	-114.835922218354	-18.6082763425713	111.95693561172	
176650000	-23.728295996522	-152.254665443957	-47.7754229105457	-10.8042686801616	-49.9272889750506	-21.5893231173011	-18.2089778028297	112.602288256068	
181640000	-26.3147242088664	-147.919158925139	-51.3833646744305	40.1614823931012	-40.5550700398353	167.320362593266	-18.0836927823104	110.342951379669	
186630000	-30.6963789087293	-136.284191218711	-35.5160257520956	-75.4448093345312	-48.3429139247237	-129.833153834362	-18.3017972645583	112.330670327771	
191620000	-27.4843561377904	-167.344294231611	-35.6061994845266	-136.301732879892	-50.5604539414049	-87.3281857697063	-18.1631989710034	114.465398095399	
196610000	-26.1229466601357	-179.804836119608	-33.3811806029629	123.735480952627	-47.0234483429373	168.528962721824	-17.7232630612179	114.681014179824	
201600000	-28.8590619744518	-179.911313511092	-36.1290528274589	44.9929243975609	-53.4225088451395	52.9497522757249	-18.6676666298509	126.669654356945	
206590000	-21.6842538683768	-176.878785692256	-36.7956310007426	-14.2099392486912	-42.3042640068723	-22.7568103536678	-20.2295976557917	128.238801213029	
211580000	-23.7520946598094	162.666012286334	-37.5650014672849	-83.4283123845493	-40.6570475561431	135.365674264751	-18.9930161790211	126.469859447799	
216570000	-23.3170934520158	-153.520627474645	-38.0944811949611	169.965615775526	-53.0720904944475	50.3158760811097	-18.3632185701507	129.294737747395	
221560000	-21.9083225390286	-172.885155910912	-35.5023101576492	104.375860107876	-46.3175618676077	72.0042654318484	-20.4970799225816	129.82550585776	
226550000	-20.5147663993995	-150.835717923593	-36.5308012667458	91.1416773441685	-49.3012792516771	-97.1644146333569	-19.0970410926415	132.692918170929	
231540000	-24.4609325173938	-150.818520299891	-36.197243195138	-49.716575671268	-50.3368028343279	49.5146152257438	-20.2690645405443	129.596280840409	
236530000	-23.6401940319359	-164.228117646957	-36.4297791855685	-99.6747148709874	-40.761936686061	44.1658212770239	-21.1324293113201	132.739030224844	
241520000	-25.8659323139902	-165.365987733088	-34.6674453726077	-157.490171405644	-39.9912611645579	102.50139468512	-23.9194028703399	133.458431680016	
246510000	-27.9889907668085	159.073050492776	-34.3607550770034	120.932756813423	-45.4326184591142	-120.142343067354	-21.6509044569377	115.716724455907	
251500000	-24.8106501699701	156.592518725606	-30.2233784218844	25.1971093795873	-41.2232045925221	-71.9068957743587	-22.5265399465922	121.296107849072	
256490000	-25.1593339057999	-177.778162781567	-33.1443685023404	-49.7383123837272	-55.8549264559721	-26.359449767717	-24.5602970220635	110.200323561388	
261480000	-23.9114934601725	169.216345031172	-33.4792778624149	-105.325777931089	-41.4273495415053	-31.7848783866206	-23.409099892064	133.034463430115	
266470000	-21.4636178715914	-174.737288970109	-35.6733652931701	-129.230971138314	-44.240647199787	-47.3755146837107	-23.0186231761366	125.781309322859	
271460000	-23.7568884784058	-177.62785185663	-35.5574211382309	135.434749353742	-52.426376516406	69.6371853889924	-23.3699932181699	115.068263112232	
276450000	-23.8676133890428	-153.899948430116	-31.0307528162702	64.2734204701759	-40.7897167077496	69.9441188602505	-21.3811606208328	111.137725418634	
281440000	-26.1145112366705	-152.991728287453	-29.7355903900375	-12.2491510590552	-38.5696103477035	-9.12666015357058	-21.9993272658924	104.850045675886	
286430000	-24.1151884429996	-166.534899704277	-29.350171332593	-60.521928162566	-53.829486882435	-137.403699490697	-22.3299725368123	98.0228525496223	
291420000	-30.8764908759347	-175.410439509983	-30.3947447703906	-124.674093841385	-37.7692832612429	122.909602378755	-21.9895201871708	95.4449948555785	
296410000	-27.0084743026281	158.386576187789	-30.1452903230303	162.171423782569	-45.3988195920927	-140.830522088323	-22.156823532203	93.2396239859477	
301400000	-25.5799575687641	171.439176970501	-28.2884019326569	78.9209481614306	-50.2543043606983	-26.5999551006127	-21.0288558244687	88.8788715859798	
306390000	-23.4916487279145	158.324012711246	-27.354215397775	12.2216495235329	-48.794215920643	162.974705722444	-20.7258928814127	99.0607808817874	
311380000	-22.3872813989287	-178.796313643202	-26.6238605631231	-39.4545055625898	-40.3541847762549	142.965811169077	-23.7520841381376	100.555562497377	
316370000	-20.9720650269391	-161.125578337888	-25.4276344803064	-119.178787421949	-50.8634230302819	-61.5668355532634	-23.0344029899525	97.5668064921924	
321360000	-24.0304162973321	-165.173523186677	-23.5768651421013	178.160748606133	-43.2284422903977	91.5172873060151	-22.8037963510164	89.3126852313899	
326350000	-23.1915058545516	-175.754382418319	-23.1366103815204	109.13214071266	-39.1559179492073	-114.632122856396	-21.3614616413026	102.647544571075	
331340000	-27.3484915740311	-141.100873830026	-21.4246373795291	31.1743164990708	-49.5735492501879	-43.4122405206961	-24.4592210381503	94.5148549219909	
336330000	-24.2700352795185	162.095129834327	-20.2702765005882	-34.8704970110072	-53.8273933416577	-81.5402680950552	-23.8555414550284	98.0994379322636	
341320000	-26.482762372224	-165.604104868522	-18.3315346231529	-111.810400651377	-41.7699600575771	-27.0301684285916	-24.7955506547311	126.21446729796	
346310000	-27.6779733520414	171.168329219889	-16.2166737250171	172.544537290398	-48.5390731377113	-142.078804449385	-26.671049520476	126.27180657793	
351300000	-27.2159482434341	-161.846143963658	-13.8414292074927	95.3778351027288	-53.2127567678007	158.250019214973	-25.0514232750049	125.906543997637	
356290000	-22.4949784840893	-178.775119304797	-11.7610747490018	6.42236317486133	-42.9776100336151	-61.4555574199754	-29.224184440741	128.431344427846	
361280000	-21.7042283996643	171.333823223423	-10.9325061076343	-86.0862258481899	-48.6021775255594	17.6177151803076	-28.5860439461653	141.916858735086	
366270000	-21.7278419077559	-157.873097372584	-11.8609295348405	-177.373498517851	-47.0736299598794	8.44458411926162	-27.2166196517883	144.726034594132	
371260000	-23.9570162589974	-163.461511534149	-13.9930415735293	100.33624052654	-38.0803952117249	-94.1231382584029	-29.0718700483578	179.976561366995	
376250000	-25.8009673783591	-171.99392193663	-15.1541216589752	19.0949976033359	-52.0185531799438	85.9528544804818	-28.6595744131788	140.230140996382	
381240000	-26.7506646558172	-167.8242479247	-17.1823023465245	-57.8590830606398	-38.9438325077055	-178.702439358071	-26.9988205896833	159.541204488427	
386230000	-32.0451439201184	-166.225301447228	-19.3105665517221	-125.572545561992	-43.8109527133047	-155.670839309674	-30.9062710227454	129.613534915971	
391220000	-30.9251270694505	140.028916403576	-21.5025783173367	170.014342596896	-43.2257178245569	-117.229736547625	-27.6004838545645	174.928346072663	
396210000	-29.0116659303928	119.765056394897	-22.815612938397	98.0535816418929	-44.2468710589526	-89.771704056855	-25.7785495918951	153.03867215362	
401200000	-23.4003361145838	167.955884136329	-22.9908431445238	32.219124977322	-42.827745007035	157.485262609093	-29.9296450694762	149.302960373612	
406190000	-22.5274925976614	172.409425250178	-23.6197790495038	-26.3647430872076	-42.5137943221322	-29.224226057611	-24.1945246832559	142.711933255712	
411180000	-23.3948233572419	-161.597388973944	-24.4231681281473	-86.6035531989098	-46.2914656367966	-129.170857770273	-24.7286053805052	141.04990290507	
416170000	-24.0792696232	178.419458408132	-23.8757904661386	-148.703262280419	-44.5127033808297	51.2566989525914	-26.9659105255594	122.032182515747	
421160000	-23.3716379766335	-144.234862642548	-22.4449101024061	155.157311478833	-43.348665474729	175.218344089036	-24.3103411554106	107.266070694661	
426150000	-22.3900004691687	-152.787792798534	-20.1932942837231	79.0343198794513	-41.0416860807203	3.81252926230615	-23.0969451065749	120.807596802629	
431140000	-31.0611606704209	168.581021046559	-18.627816216714	4.87466740926843	-44.8953217506781	48.5140171845278	-21.7263055528835	116.672349035489	
436130000	-25.5134620211829	156.015215388723	-15.8994883293632	-67.3047444277804	-37.4013655362885	39.9863978944671	-23.1890559038749	121.297545859206	
441120000	-26.5394352088572	118.745518332932	-14.0910250525561	-145.443890089146	-56.8165523269942	-92.7133689986613	-22.3193451545767	136.228867986734	
446110000	-27.4200491126263	148.14207388186	-12.4606889594477	125.203506101545	-42.85710607513	-45.6419087798175	-21.6979164643979	131.965442991718	
451100000	-26.2305125644523	152.182735032052	-11.3341361003958	35.3180566919097	-43.6655164844462	-151.21625704803	-20.2302359413789	116.511155161641	
456090000	-23.7441384755958	-177.891417574052	-10.7950501366012	-61.7019158533186	-39.7041348688351	61.869164167601	-19.0107217903263	109.49436143151	
461080000	-21.0520992191831	177.404834977177	-11.4154438378192	-153.89610287185	-45.1510331135813	-13.1788879818932	-18.9777753516777	117.006291511717	
466070000	-21.2042229472347	-150.589867817913	-12.5939039017429	114.675403668832	-55.5738845206492	-114.826711017792	-17.3222932187104	114.858074899037	
471060000	-22.2559138730258	-147.544641127243	-14.3883268790896	21.5797310810945	-43.7287479358312	-5.7843784737563	-18.5986415648843	112.403214425418	
476050000	-24.3551106364288	-155.077097932965	-15.9079366043974	-63.1991568203909	-39.5514819634121	-116.612991797828	-17.6439059628543	114.329541376621	
481040000	-28.3929955463013	-166.234097766926	-17.4076861623611	-158.367185552444	-49.9579029580055	-12.448048719699	-19.2828532565477	113.06045063737	
486030000	-29.0065605501272	-161.819399389914	-18.6444422344299	118.461337986819	-44.2017516383464	-20.4785627094177	-19.058933391105	115.968240969755	
491020000	-27.4223130960604	157.076977804751	-21.776972165848	25.2058929745069	-40.4656602863365	-23.9428007657093	-18.6691917170348	110.356198435846	
496010000	-23.8821850687375	170.09635508334	-26.8188583058378	-50.3896751214291	-43.1217169830445	-27.3836231956103	-16.8790846373548	116.930451996111	
501000000	-21.8061714927496	170.211505169871	-26.8792370798599	-139.655320372397	-39.3484672063001	-64.848889401341	-18.0631936370728	117.178688154796	
505990000	-21.8592384787423	-171.02906459129	-28.3168718620274	145.093590535482	-43.5660404343775	36.409187566098	-17.6784343156123	110.881174516989	
510980000	-20.17273597504	-174.636838123808	-32.9479230890088	21.1920103470141	-41.3986219617755	172.212195604912	-16.3929118214459	111.464444433159	
515970000	-21.1675976201954	-159.039392310407	-37.6967893208984	-1.55282155222837	-38.5023923982725	-49.8604658545834	-18.2033935653104	115.84337569244	
520960000	-22.4575209645677	-162.715072052082	-45.2384541749399	-46.8331782809772	-50.8307063914897	25.8721050127688	-17.743688094098	92.513275622929	
525950000	-25.0136433189189	162.280354378226	-35.8409208386108	-169.987147081	-47.4902200758628	179.327972653378	-17.1234689141803	105.088809636828	
530940000	-28.890729954066	-152.909084613631	-46.850153418934	-95.0669678412128	-46.9672848415396	-144.29641500358	-16.727268227687	95.1437869085548	
535930000	-28.1241795444685	177.270631191323	-44.9254807065145	7.95088440928856	-39.6454652808005	64.8851918660158	-17.7091956523516	85.5239682272181	
540920000	-27.2257788489469	127.701089006916	-35.5884063510253	52.4796595153764	-45.3260296160178	-59.1918309470001	-17.3151485202121	78.1350471188679	
545910000	-26.8435491973267	162.191046069531	-50.7027188773812	-127.43837376253	-53.6883183946433	-25.4074274017701	-17.8072652659989	76.0569605116401	
550900000	-25.5871507312524	159.880298808247	-41.4264208341042	-128.477590121724	-45.0065034078085	174.418438703863	-16.7688642897459	73.2548338114504	
555890000	-23.4981993509757	-152.918389743169	-36.2632933047384	-118.198010436321	-45.1978417069577	-135.210723403141	-16.5470255933098	72.3742186565775	
560880000	-22.6281432998975	-144.420507157891	-52.8558803480175	105.584024513897	-49.0035912903123	64.9442270239302	-15.5618479336706	65.00895465606	
565870000	-23.0138296370086	-157.340398297917	-48.947076659013	-63.2170209119953	-36.6295076449558	131.538027648119	-15.9807149218043	61.2044277990081	
570860000	-20.9636953194555	-170.94590768413	-41.4896889761176	-85.2255229866451	-52.042959902898	-5.8362107077097	-14.73433787949	54.3777136685001	
575850000	-23.7878774898602	-164.205779931015	-39.5912748963324	-47.865301244885	-46.2408072275234	-144.283531136958	-15.51774750793	55.4236476767925	
580840000	-36.528696575934	166.391049026667	-40.902223981678	-70.1408505746577	-34.7065696501504	-165.401834662709	-15.5043402660697	57.0068270118658	
585830000	-26.0133573351679	-167.252233825695	-44.7993139205676	45.8141145483673	-51.8648960181289	-164.76898064724	-14.4551042105277	61.122825033541	
590820000	-23.8842444625158	-168.420496795213	-39.9070189670431	79.1463897994244	-47.3257226036346	39.292482848315	-14.2116822039487	47.8014877054506	
595810000	-20.0863880210979	164.818963554639	-38.8208318973137	18.0754669933829	-39.5912466143221	-164.832912531707	-14.9015281301732	61.7459761290618	
600800000	-21.3267863350685	-178.892589337171	-42.4520463174316	-51.0235327586182	-36.8209586317613	-39.717984743781	-14.3556315155575	53.6660373014647	
605790000	-22.0982745016339	-177.918163347567	-40.5734025091531	-118.252178794544	-49.6170388144818	-21.2223019121024	-14.4643069134524	50.5898558089072	
610780000	-24.4892279004191	-157.408586645671	-41.3482685703442	10.9176778356069	-43.5802158145496	127.062266072809	-15.1711611515313	48.2494044125631	
615770000	-24.5319226862487	179.13508606713	-38.9738001455436	-156.151063075866	-36.9865863507374	-156.081870277873	-14.0795278061023	57.906789633305	
620760000	-25.2911277884628	-136.172183583808	-34.088560101482	-18.807603153603	-45.6677089700505	-179.371044733561	-14.530331963321	50.0919838711135	
625750000	-25.186021989079	-165.472831172438	-42.4067487847591	155.9680618828	-38.9408147560819	-36.2592096450187	-14.6820884948724	51.2413521896288	
630740000	-29.8708432445519	-156.911416335418	-48.4954360248197	16.7641777510446	-42.0147235448564	89.7457026354788	-15.0731544564337	45.9855164056546	
635730000	-22.877797488994	133.585108541509	-41.1093303469858	-53.0648857154899	-34.9417447058792	-176.682176935318	-15.0164296024364	43.1422270526785	
