!Keysight Technologies N9923A: A.12.45
!Date: Friday, 10 October 2025 03:07:50
!Timezone: (UTC+08:00) Kuala Lumpur, Singapore
!Model: N9923A
!Serial: MY61181427
!GPS Latitude: 
!GPS Longitude: 
!GPS TimeStamp: 0001-01-01 00:00:00Z
!GPS Seconds Since Last Read: 0
!CHECKSUM:2079033066
!Correction: S11(ON U?)S21(ON U?)S12(ON U?)S22(ON U?)
!S2P File: Measurements:S11,S21,S12,S22:
# Hz S DB R 50
2000000	-28.4361963693871	170.837661532399	-57.8090707601651	25.9909614712679	-38.3661094506362	-22.103122615379	0.0552845131700362	-23.1951016137148	
6990000	-24.7012928205133	143.458343522921	-47.7373676130348	20.7520406463203	-43.1387323435657	54.940193886862	-0.892116157741989	-73.1892325769172	
11980000	-26.7526525892704	122.392757625479	-39.5811663000977	-156.517456105583	-45.7921833937877	-94.6180480868017	-2.20149228591391	-110.365804990495	
16970000	-24.6968346674408	156.973788485735	-54.1475424932381	-127.309183002921	-48.2218531774028	-54.1545589085601	-2.76423975778717	-139.180662431323	
21960000	-22.5716814752628	173.672026649873	-39.4398909062054	-174.205561812436	-42.003801255963	89.246430120525	-3.65212188374076	-158.292177256271	
26950000	-21.556932310258	-170.448484468131	-47.6038888882883	-39.9561484470125	-54.0835598594935	69.3873348833803	-4.25181669774666	-178.397385454002	
31940000	-24.1428679213208	176.428273124841	-40.9997152277881	40.5168718144906	-38.986476621173	-3.43518153735323	-5.06390384141017	170.55775488368	
36930000	-25.4513693077445	-134.426303633465	-47.3473410294157	76.031017588	-38.377745501506	-113.136500219122	-6.13693738957519	160.578368338504	
41920000	-26.154368734827	-161.944923770188	-58.0165441893387	-128.261128112715	-40.410848118897	121.937116179581	-7.33370550847504	155.163091247986	
46910000	-25.9610575530881	169.387093993865	-46.6568933431813	-19.9548412242462	-57.6799849566055	-125.569731781101	-8.49597748806571	151.486222257164	
51900000	-27.332804855223	167.510967277405	-40.6266902356367	-106.233839103396	-41.5304921937608	32.3432392306459	-9.10344768245808	147.522270411365	
56890000	-26.7513928579158	166.033414775962	-45.8451724502516	-112.023915047071	-40.7056105187833	-29.8953571687168	-9.15655268964953	146.59444852106	
61880000	-24.7111701741141	-176.01243695155	-44.2653147730153	69.2611899369178	-48.2580824421481	92.1561589837587	-9.80117829708641	148.616646681912	
66870000	-23.5137849870415	177.387233618918	-45.2868210798511	-2.3360949873741	-47.1894404840102	167.737257971571	-9.02020175353911	144.833502877786	
71860000	-24.2394558608434	174.0925217464	-44.5906657347589	109.851912058639	-47.9665141501411	164.126137088647	-10.2385455246303	136.486601168921	
76850000	-20.9728920624698	-166.404311282115	-45.7931598308656	-78.4921691630561	-51.0564913222708	141.595822373408	-11.8627567599592	135.592188029792	
81840000	-23.9488028928469	-173.470217265313	-58.9033388651316	-100.399991483745	-54.3790088178759	125.185935522198	-11.3464673830368	133.591201418302	
86830000	-25.53645538303	-141.829232426406	-47.8895668661498	96.9516700533704	-57.5596808958575	-136.713523994112	-12.8012366176464	138.108485401784	
91820000	-28.2369236403249	171.365999399449	-53.4231575733696	-169.95647077146	-41.9058952014664	-161.468914457313	-13.2228810104826	135.050737875343	
96810000	-27.8700727546572	164.971866270955	-41.198188952004	109.11656818337	-44.4764701208197	133.739691267433	-13.613042017722	130.316799815605	
101800000	-29.6676500788234	172.331616888841	-46.4562410796498	130.33955526899	-43.5552440640679	-167.072604096103	-14.3733471831843	134.664597219208	
106790000	-26.9940377300844	164.301361338328	-36.2929064602515	67.3049216067508	-41.7275871054533	-46.3297212031082	-14.909327568605	128.860475272669	
111780000	-22.8179817506579	177.779780556453	-45.8639253669978	47.4169401339166	-47.5054302067189	164.647206724388	-14.3717734311171	128.897214209424	
116770000	-24.2111126693478	178.750578749122	-45.2072452724705	-124.866233278573	-47.6701194867968	67.3347514332778	-14.4523988227941	120.960872506926	
121760000	-24.5024093337429	176.787503267051	-46.8563502879102	-175.899409686572	-42.8956520030846	-149.330822578569	-15.6803622497231	116.990160650237	
126750000	-23.9098965775214	-167.006249197927	-43.1057191389039	-114.028766608662	-46.830488915094	108.78507408871	-15.9719084887733	119.450584839329	
131740000	-24.1506240481167	-177.73537738398	-42.5831685751418	-17.101305500129	-45.9766695023437	-47.3635282511529	-16.9563645966185	112.76138563946	
136730000	-25.7470639879215	-174.281958429383	-43.4018908185314	-164.649768871993	-39.6618878818502	-95.8033596389739	-16.7144517685317	110.37806143964	
141720000	-27.567875593993	-162.230558271086	-42.1964924695002	-116.912662191704	-37.7372516908714	84.7685426574944	-17.1881289367408	109.482000697904	
146710000	-25.4745321985138	-174.715550492708	-49.5830553547625	-16.0065943303607	-43.6703362059025	-57.0632779095224	-18.2029405261269	106.582305874397	
151700000	-27.1173625049972	154.103482376795	-40.4370396597463	112.194501719083	-41.6640576283435	-64.8978702352988	-17.1428153001923	109.145004494471	
156690000	-23.7643812526534	174.334096023046	-44.6535959845319	146.599962169468	-52.3722168424574	173.349184035076	-17.906868711556	109.81959398962	
161680000	-24.5310242492366	174.629945514411	-39.6300119459507	-127.733025558886	-42.3706317056861	91.1888921388187	-17.380939131592	114.818637634622	
166670000	-23.9267799274073	168.941951921353	-38.7838545558133	160.895917247682	-40.6152117244664	153.617648591641	-17.606868914508	114.153631449745	
171660000	-23.2833969490355	-173.265551435596	-40.0438248963748	-168.874920182629	-50.0117424259987	139.803839068741	-18.6376677008419	115.964532871734	
176650000	-24.9872499603094	-151.071265625189	-46.004652355019	147.109608563685	-44.8629613298179	60.4552742883132	-17.8087735752392	114.153296739236	
181640000	-27.2315141215398	-159.115539266145	-49.7388408062251	-71.1027470515227	-41.3254863225071	-130.752021495965	-18.0742338047294	104.802033279671	
186630000	-28.5063179810978	-153.215702587548	-39.2445091566647	-107.844392524672	-38.1512499188504	-34.7187926812781	-18.8396080360805	113.129492611934	
191620000	-28.3154012856444	-151.734234720946	-40.1056170152697	-116.983283976688	-43.5256105788198	-67.3434605838907	-18.3947545260037	117.087795594636	
196610000	-26.4037203539586	177.590037141159	-41.3250257229418	158.516647389309	-44.4653723679252	-95.8459910834111	-17.2351955075851	115.88492009087	
201600000	-28.0949944702257	-176.209656106397	-44.0147219704912	61.885411664003	-39.6128288238214	-134.459437228397	-17.8898767069587	124.838923299384	
206590000	-22.6841243739214	-172.63843294388	-37.761794691324	41.7620027650502	-44.9976348666029	29.9818470433764	-19.8785977866851	132.798232819394	
211580000	-24.2501358489081	163.124045078909	-36.2512784712937	-36.3658634317707	-47.9622042062352	-25.9330497750449	-18.7078099395445	121.600076002032	
216570000	-22.9224016399687	-158.611356194121	-37.8405876971961	-142.458663073021	-42.1729765026574	-81.2851107655137	-19.2036455833805	126.244706880847	
221560000	-21.325885075407	-161.367132007884	-35.9971006198582	176.456175788012	-44.0673440618732	130.569791778122	-20.0261386058389	129.063983261164	
226550000	-22.3149826394353	-152.799492996863	-38.5533799048508	77.7723576964	-46.7807730246974	-79.8210230236838	-18.8797137625127	132.981814416289	
231540000	-25.0597011772615	-158.208469312359	-38.9265596372981	-12.2628395966932	-43.5891372948921	42.5499219383079	-20.4780631370166	127.71915102968	
236530000	-23.0760826804993	-168.121028339172	-39.266812017154	-51.2413480703201	-43.1945098050626	-5.73315342729477	-21.6208709931493	136.901531777609	
241520000	-27.1097115392926	-163.515364096096	-35.0940524574413	-124.585334038827	-53.5633427724883	-126.698510372383	-22.6664216916868	128.072232754276	
246510000	-28.2884470126372	146.640171849987	-39.1466940601999	173.600783330328	-42.9697790778195	68.0612617489091	-23.0109584202859	120.052417547576	
251500000	-25.2602235702394	149.143851280177	-47.1111835576605	-157.795876583017	-45.8264371635054	-90.7867847382898	-22.5323083233367	131.535902945701	
256490000	-27.0602866037714	-175.75249097085	-38.023732874235	15.2831379682958	-47.4421213866976	27.2902872494713	-25.4236814465238	119.325396008768	
261480000	-23.0176158433984	173.118756547561	-36.0248466875562	-37.6340874110685	-54.9385232658174	-94.0372879483467	-23.2368141222419	132.931273273532	
266470000	-21.8033352817366	-177.604139813986	-34.5285921973316	-141.663300850739	-54.195131876152	-138.830977927099	-22.756364987708	120.755070099343	
271460000	-22.8324188738142	-176.229106597859	-37.4001977858626	-178.783986725404	-46.5381615585791	-3.67461835847301	-22.7924921203648	112.453288746724	
276450000	-23.6145729863124	-154.466135404333	-32.7571143067178	116.733507416829	-47.6069199513828	-153.724765638907	-20.8235625367653	114.887093340014	
281440000	-26.0548070983001	-150.693925912737	-34.9933588863265	51.3660473376535	-51.4724872759042	-30.2489335357215	-21.998107869276	101.274877060166	
286430000	-24.0415333750063	-166.027934260957	-31.7774214000317	-20.5692393772216	-44.516770005453	139.273707996227	-22.5215408917799	100.205888981663	
291420000	-28.8946040452056	-165.210245826754	-32.5952589727233	-98.4208911811157	-46.4489034724292	-56.8317373627852	-22.2306692790403	89.0598557793466	
296410000	-26.5274281804341	152.725089987454	-29.4226800851455	-163.842321722783	-56.9550596760163	2.73837844703669	-22.6372643985034	95.3912979582665	
301400000	-26.0304320213875	169.206097797413	-26.8864563580392	123.133984177615	-40.6469088654188	-153.001483638942	-21.3706709292292	92.1463582369111	
306390000	-24.1258548108165	172.091061148964	-26.2723959430361	51.9142310258632	-42.8111914674767	16.8190068623928	-19.8291356391588	96.0467599232394	
311380000	-23.0154656459516	174.034473137421	-26.0465198162963	-26.4416080532069	-53.5086638793246	22.6957378792903	-24.2122214799696	94.8049113576395	
316370000	-21.7796983413517	-167.417393884778	-24.5698886348014	-92.545426362724	-50.9897547277493	-22.3522015216951	-24.2852960506138	101.400774713932	
321360000	-24.4892308089454	-169.195841701597	-23.9511934948771	-163.732996059344	-44.3240928999026	-166.426643296299	-22.3931391005146	88.1272610321339	
326350000	-23.7440005377893	177.882933859633	-22.5349133003455	123.416021257023	-52.2490881221722	101.947115062583	-22.3712359908759	103.794169422098	
331340000	-26.4333795863677	-136.309420416595	-21.4963583285903	52.8347086445711	-47.9532565808207	82.1162316681112	-23.6732809126858	100.497136297831	
336330000	-26.9325795029929	171.248949711052	-20.3710243419868	-18.4889417761042	-42.9513103501774	142.109639017016	-23.4463745620241	92.8666001143842	
341320000	-25.4483056748559	-171.810198355752	-18.5948520574811	-98.4759857991817	-43.8762066237942	36.4883154926837	-24.7243086207882	123.647104522244	
346310000	-24.971789694411	169.078188601696	-17.4151476423694	-174.378024930809	-55.5172364368403	163.417241954293	-27.6137768811522	115.632620830238	
351300000	-29.1737721697788	-174.57649710882	-15.1605440460603	102.312094809228	-43.634943575111	-35.0220355126889	-24.4320581507168	120.30147105646	
356290000	-22.2048238748368	-179.716855577158	-12.9765100682364	20.8723974728375	-37.8809687657245	176.694221960604	-31.3375749470515	123.029075127306	
361280000	-21.8353091408548	173.322590596991	-11.8304584105881	-69.7777016788284	-42.8307831027002	111.146036457218	-32.9687730964842	146.968406241443	
366270000	-22.0568101239394	-157.840073885543	-12.2214355086551	-165.048766618899	-46.5877785386101	49.0114202414631	-28.2432818007398	143.516422376027	
371260000	-25.069709071206	-161.717120528738	-13.9162004402605	106.404595661296	-45.2499776382658	177.273343215487	-28.9307778112535	165.421316525074	
376250000	-26.5314195166761	-157.182365912968	-15.8634787196722	23.317693388201	-52.9454524669014	-26.536516607866	-28.0993254346675	150.090608421352	
381240000	-26.8453182681785	-145.532291496238	-18.1152302924014	-53.0572337370614	-41.0528434750641	63.2383028381567	-27.7371592167637	178.737938100003	
386230000	-32.2566503735285	-174.738262318291	-19.4451842649284	-130.304557060097	-56.4483962163911	-167.114323724778	-28.0633057053455	137.892287294018	
391220000	-33.7395038655661	150.265994305141	-20.9531584983604	159.849470955938	-41.8507548195755	-121.071536096588	-26.2623635155456	166.750826696183	
396210000	-27.4099697776659	138.013462865728	-23.076571888648	94.9449994424546	-40.7732838010048	59.1861638144914	-27.7248547434593	152.901394766516	
401200000	-22.0686465398017	158.327083390396	-24.863639926729	27.845042241516	-47.1723598081091	-8.40731278195844	-27.2867564255455	152.658802343596	
406190000	-21.6046477813433	171.926017038076	-24.6248786934986	-37.093478790027	-51.1231630798176	-8.4336539398601	-25.2907748242429	143.185999858315	
411180000	-22.3957825469443	-157.404220485129	-25.8231395973573	-104.674906544619	-45.1507552815815	-96.527618793615	-25.7418785202943	124.448134506033	
416170000	-23.4685539642963	175.669854419058	-25.2199097803508	-152.861647439479	-38.9352649253197	-80.5129063212311	-25.8785452113807	115.088980237794	
421160000	-24.2630398590585	-139.512464160389	-24.24080584633	151.395109687195	-35.4533329720373	-80.6411994448164	-23.9071931497257	114.070266678373	
426150000	-21.8820206930982	-151.888140385839	-21.5433938915191	78.718734008952	-41.8101895610691	-49.8829871588474	-23.9939099851991	124.798965461777	
431140000	-27.9625298071809	-177.531905043657	-19.0997890291912	5.05270833722314	-45.5709388335978	132.213519355582	-22.5453885429111	123.255002276106	
436130000	-25.9455664788562	164.041922283859	-17.4356827670713	-62.6687758324716	-40.4679282789855	22.6210443486518	-21.8166224104822	127.628221786131	
441120000	-25.3102449804474	144.707294657439	-15.4589165380234	-142.270985665557	-42.3691024400159	107.668875272563	-22.2505136913836	126.800677396054	
446110000	-24.9402879567379	134.130833176477	-13.0898482161261	131.718569224625	-41.8460712071557	-20.7486095921826	-21.3953612221834	122.691265451283	
451100000	-24.9759201167994	155.717390105857	-11.8589780529164	43.1716918029568	-44.2029584268862	46.004376817325	-20.603228150087	119.862452267384	
456090000	-22.6675053843424	-179.871548770116	-11.3442546391168	-48.6909373973414	-46.9849196424278	-19.7194683521414	-19.7122965025704	112.468521696861	
461080000	-22.1951240599222	-177.597832487143	-11.5938715800132	-144.120412916165	-46.5772480323743	1.38723822617862	-19.6740625042406	113.555983062132	
466070000	-21.8978573139999	-155.078575793727	-12.500854924335	126.94023181572	-52.4537493362942	33.972059808925	-17.9741058144998	119.939416487411	
471060000	-21.6270332517677	-156.173929335674	-14.6359957611175	39.1983629668638	-42.2967146945516	78.829543204304	-17.9979724421467	119.219435410888	
476050000	-24.3204793302199	-158.137202515993	-15.9475206496274	-44.3162247498104	-40.2702673242007	134.724586347227	-17.6405218485332	120.116794488489	
481040000	-29.4607746526215	-166.451790908827	-17.1080362990363	-133.282429806972	-37.4123308628715	-71.4234545803099	-18.2955786332196	117.118192574537	
486030000	-28.666086113901	-174.350714234305	-19.1590321575901	146.140016158309	-38.3605268339791	-105.114688893214	-19.2076134486389	120.405674770851	
491020000	-27.0252105849997	159.731615555414	-20.4849555396361	60.6144314596639	-37.7885341181469	-54.9444384028191	-18.7545033231593	108.404670414944	
496010000	-23.9851251193431	160.741372255265	-23.3531026594993	-23.9740686170719	-44.1178883659379	179.617786641892	-17.8202207823823	113.271759686009	
501000000	-22.8585499131277	169.973711988367	-25.3332724864824	-118.449786537704	-53.2317234455158	90.1094183140902	-18.0726228670051	115.668683612176	
505990000	-20.8100293459368	-179.027610390492	-29.2610879706688	172.248063098122	-45.8858018560183	103.050527315947	-17.4526772316619	114.07735451126	
510980000	-22.8881618997847	-170.432717589095	-32.4179304499374	86.6926859940745	-38.0737707160341	121.280644797462	-17.5943151364125	109.970933261161	
515970000	-21.596887059137	-163.995331528611	-42.4310146554823	41.0203723675733	-42.0990050439546	96.527909645107	-18.2952976684568	114.657898875711	
520960000	-21.8175248228711	-165.230425598975	-36.9425552108985	-72.7278951641921	-38.8428231453756	178.827250451075	-17.8471477530277	96.0708325481839	
525950000	-26.2376318152586	178.343639187406	-44.9898244757157	-134.602462172083	-40.9159022977916	-72.2587471722971	-17.5546499505201	103.326803072376	
530940000	-26.8322429262657	-140.920149750866	-34.9332142556659	75.4410703911432	-51.6194513221339	35.0604895322911	-16.9217826314393	103.89820166494	
535930000	-27.3540344120025	179.218987460074	-37.2313048912758	38.4621859008428	-60.2698793852746	60.8298355812005	-17.5025243686441	82.8751074965138	
540920000	-24.6212711528627	121.514907646202	-38.1471288327056	121.611800772909	-47.3767205381012	-28.637063330552	-16.8676498496189	81.6229962894016	
545910000	-27.4263166001666	173.909508948433	-39.537753789362	-89.4901012974991	-40.4921457764989	148.640455368474	-17.5210576829541	74.9001015390394	
550900000	-26.0219999343246	148.080055605348	-39.480165460955	-49.7676699463438	-50.7310098662751	174.531350255771	-16.1070097843088	78.7649176002564	
555890000	-24.6806583161479	-158.372184140224	-41.5902610008981	-108.767292697742	-40.9887044562454	-154.242254480809	-15.8581872693915	70.7687300094437	
560880000	-22.8000458655255	-159.253506464366	-46.3143448620127	-18.6705027942237	-49.568614428116	179.059220952528	-15.113447353176	67.2742412753461	
565870000	-22.7428226021709	-148.590910524528	-40.2711642226741	-141.671926632771	-49.0955168672103	144.146388549032	-16.5354829515698	66.2308566090967	
570860000	-21.7875152227018	-170.268332242718	-38.1610040938417	127.052029605487	-37.577953693402	53.3323236611849	-15.7248998180213	59.3984934159995	
575850000	-24.3148257984637	-168.100354748559	-47.3677975412715	3.75259288108841	-50.250189743952	-16.8966023906827	-15.0757203147775	51.4673926339247	
580840000	-38.2401049027866	131.114251457305	-49.7952018274216	158.780405954609	-44.3357226811376	-42.0800755672582	-15.9221814825237	60.0656802724851	
585830000	-23.5688635299362	-170.482619347627	-41.7339413327396	82.3048940354335	-47.3580115502139	-10.706262086716	-14.7849069364774	64.7384112978825	
590820000	-22.8189066920923	179.378241133986	-35.6608269506681	133.27089592641	-39.9548280250348	-30.3408207231344	-14.2835064579805	50.9799224899638	
595810000	-22.7197977149252	162.94995935598	-40.967010453054	-25.267117473711	-39.3190087247118	-166.033471176204	-15.0919767977953	63.5773053328075	
600800000	-22.6793846007916	-161.729794598522	-43.058023802058	-149.712766951786	-34.4377108426928	92.4747119427263	-13.8645489400945	51.883450783373	
605790000	-22.3881855470124	176.543865252788	-42.3694092076882	80.2304614108254	-38.5864396978172	61.8033776987518	-14.26398770757	54.2639458720302	
610780000	-23.2740756144327	-146.829366992407	-36.2861685437964	-111.716089317897	-40.190521555435	118.69685005982	-14.4719095517907	57.5696282189268	
615770000	-25.2989512872045	-173.497396161125	-35.7979442437958	60.0177519812791	-35.573073010223	166.035408809773	-13.9729957250067	48.5625873926657	
620760000	-24.5037997388645	-134.187803309633	-41.4031937122989	-119.636565241641	-38.2376860205928	-91.8247215650862	-14.3799570238831	53.1845964601	
625750000	-26.2456160766871	-171.464802888144	-38.8779239790139	-116.421098953757	-44.1250251170203	-100.261084123649	-14.4617571205361	53.0956940478553	
630740000	-27.6144194028031	-174.662456575584	-44.1456293300362	62.2179005687485	-33.2461839525638	-162.858968187588	-15.853520067605	49.9906960665938	
635730000	-24.15714583144	126.790244377278	-38.8117101174359	59.6937693847515	-42.1750070238323	-99.4734006028613	-14.8697001512982	42.249369282522	
