!Keysight Technologies N9923A: A.12.45
!Date: Friday, 10 October 2025 02:29:10
!Timezone: (UTC+08:00) Kuala Lumpur, Singapore
!Model: N9923A
!Serial: MY61181427
!GPS Latitude: 
!GPS Longitude: 
!GPS TimeStamp: 0001-01-01 00:00:00Z
!GPS Seconds Since Last Read: 0
!CHECKSUM:1925130683
!Correction: S11(ON U?)S21(ON U?)S12(ON U?)S22(ON U?)
!S2P File: Measurements:S11,S21,S12,S22:
# Hz S DB R 50
2000000	-26.8621948968884	173.529174118423	-50.8578267965719	-26.7380610411032	-51.798083852366	50.4100292283812	0.0247989404700929	-23.6562820482462	
6990000	-24.4895195280669	141.748427708929	-40.8905370830061	48.5911706050091	-45.0915910546683	-90.8980155303686	-1.06705631110399	-74.4583564373238	
11980000	-29.0009792596071	124.787142863387	-43.7928793899104	110.702256603806	-62.0190866438813	-91.3322924954685	-2.22230314741229	-111.167522029921	
16970000	-25.1478760036301	152.162035942069	-45.9985669544977	-104.19828892927	-47.5054094252348	-32.7033232664915	-3.05807509470312	-140.617498896933	
21960000	-22.9060443889638	177.620486839346	-36.7723454719509	-153.530900272409	-45.6410910128587	-147.673087297054	-3.66789657768936	-160.363089898862	
26950000	-22.8044015868665	-178.536307884654	-43.9853895289137	84.4011325328686	-43.9081481371834	-175.417265869145	-4.31468296236091	-177.684324419234	
31940000	-23.0621035170317	167.194410585244	-39.6611945955018	97.5000985904902	-44.8576366543421	58.3855918904198	-5.34212361513424	170.905713451556	
36930000	-25.7902959311762	-156.582193991362	-49.5436976732584	-39.4346944163505	-48.2308648368139	-29.5333131356101	-6.36627417826239	160.60018423298	
41920000	-27.7418498951118	-159.05623476176	-42.4187458117041	22.3060928383072	-34.8036826975366	-62.0817449701957	-7.45721411450001	155.634482195573	
46910000	-28.2651346383614	160.838915077427	-38.4566998183234	-136.781121246856	-54.5381978485789	47.9032684115768	-8.8246049985533	150.181102074598	
51900000	-28.7402661053279	-174.962546200953	-46.0012476289511	14.2178057349012	-40.4748901611576	34.166479506217	-9.72420082326858	147.369564754759	
56890000	-25.7480393050874	-178.461153347767	-48.2728347993136	-64.1291067172382	-41.3659152379646	119.882818773165	-9.29795244511755	148.741673707799	
61880000	-22.9614940033125	176.614480356058	-50.0512142739316	27.5570429560094	-45.9086214252862	-51.1489677651199	-9.95389431523662	149.455069870416	
66870000	-22.8387229843801	-178.027938276309	-41.4274650069964	-2.4217461846246	-50.8312460860781	-30.5517436507612	-9.28813642503044	144.606854043393	
71860000	-24.7519813777359	169.259314311698	-50.3985657031421	-29.834715883644	-49.9933653252715	169.495803709055	-10.3024047879404	138.732130703395	
76850000	-21.5057014878861	-168.860974032664	-40.6943088322802	-72.0471345482173	-43.5269624300851	-34.1687689701118	-12.1007014697507	136.553207796074	
81840000	-23.7642856710266	-163.25028896636	-42.1216005463319	22.2897686396346	-45.8214009959203	-168.75459139691	-11.8568415976085	134.848191726792	
86830000	-26.6011852056811	-143.489798902595	-44.3490170043129	71.0212348491637	-52.5023906966615	-45.2435591527059	-12.9798320814748	140.670146979567	
91820000	-28.0940410978821	-167.935624895984	-44.5741160637416	96.9320730149446	-44.7604508939908	103.464466916375	-13.0702357499947	137.067516111992	
96810000	-28.1114951003628	158.130554525755	-36.458516258589	174.22394461427	-46.2488065610002	-132.436249177086	-13.8033473247121	133.954466059206	
101800000	-29.9196249024808	170.100976354276	-51.5752290843748	148.474798508084	-46.1305277430349	44.5874822116524	-14.4237546892074	135.555108473909	
106790000	-27.5465055692446	150.445413443397	-43.6319943913321	-43.2082806913886	-43.6227403904316	-148.543044705155	-14.4436303638025	130.715762000729	
111780000	-22.6524155763697	176.251931515756	-44.8101283475184	163.341238476107	-43.5517419732483	64.4406650934084	-14.6108159835638	131.371812201061	
116770000	-25.3525337203298	-179.783667283696	-47.8328207249195	-159.428990850873	-47.0292401621006	-86.9042264140311	-14.9584878639059	123.129626911729	
121760000	-25.8255515414351	172.856352504832	-48.3969939772897	178.256000092922	-42.3689736053809	42.5480711401721	-15.5935087429315	123.254942656344	
126750000	-22.5361820573219	-164.666777651598	-43.4629845606942	89.0698308011969	-39.4770240798661	-171.951288366045	-16.1077338861493	122.756290435898	
131740000	-23.2041689735328	-168.790255952042	-45.9145416737536	-17.4239828126974	-41.8705533871995	-152.495421290977	-17.1030540022372	117.832110304442	
136730000	-26.1059083398948	-165.210611892418	-43.0391388355262	-110.995547098964	-50.7199964386617	90.7874997608616	-16.5347435792061	111.848830253956	
141720000	-27.2319550800249	-153.414460617837	-44.3350879930007	-98.2779931774435	-39.5554304636411	21.0748264830681	-17.4751157378257	110.928790559807	
146710000	-25.354009894149	179.07290182945	-46.5937482685724	-49.2605966242877	-54.5924592106679	125.941403228625	-18.2374911235598	113.004363233754	
151700000	-28.530742962518	156.509073907574	-41.4745839558097	-16.43766094272	-53.5194364178726	32.6906392195057	-17.2700695228331	112.450473950057	
156690000	-21.7397590699615	169.641492136264	-42.3530481093182	73.2863287404343	-48.5322881250357	83.2910210010993	-18.5476372969127	111.044379758909	
161680000	-24.2440532600224	163.871879117572	-41.2589033549807	-165.458079162816	-58.041491450152	74.2609763663547	-16.9458104980204	114.055014489613	
166670000	-24.5936919779335	167.589465683531	-49.0369629665872	-130.416785663444	-42.0036959348332	-33.2428190506448	-17.1660247900015	117.38831662271	
171660000	-22.3374422243893	-179.556808646366	-42.9004219636688	-65.8169382456593	-43.1908675538001	156.86074586563	-17.8222214701077	115.915524005474	
176650000	-26.8887701276331	-145.709643956513	-42.7638543135307	-31.6192886351874	-38.1483100627361	-19.3894805737526	-18.4175859400761	117.518562745163	
181640000	-24.6114116565345	-155.189136528767	-43.0092656892176	39.7757077287004	-40.9251396701002	-81.5867794072156	-18.4028547638011	113.357535373895	
186630000	-29.7995834614016	-132.059783312905	-39.3923410038033	-176.796132827794	-45.3628382504372	-62.989502238264	-17.8840252944917	118.410903948833	
191620000	-27.0433854642588	-167.342475670421	-47.8921291578436	-114.183112879806	-51.0166110048252	-164.883069918762	-18.6472977394387	122.697473914613	
196610000	-26.337983270787	176.00116802451	-37.9414325576657	-172.662840356457	-39.3269003992667	-52.2371451940854	-17.3216142412854	121.427711433016	
201600000	-30.6976234130091	-162.157930562629	-47.9555508875494	-36.051095071436	-43.0582282308477	-101.051707221758	-18.5644257784005	130.002609508375	
206590000	-21.8968637958815	-170.807054787064	-39.1945401476141	35.7200861946862	-45.1656725243523	117.531885579678	-20.3004051185271	136.887423583446	
211580000	-24.2922737688263	162.660752182146	-47.4042239104098	-102.204789955983	-43.2019021903122	113.879553305001	-18.9360516166118	127.483026285751	
216570000	-23.1333474482542	-160.381191955767	-48.1426874044136	-71.8792165198527	-46.1266816701056	56.8071727948802	-18.6521762622538	132.04215873809	
221560000	-23.4609710900317	-166.969938822544	-42.0225016772851	-176.158014787389	-61.8598227133742	-89.0397926570374	-19.8467607288604	136.547120426123	
226550000	-22.4684783601185	-156.687566279909	-39.7095204569418	153.073934602955	-40.5458280713539	-141.119992812997	-18.9164280374221	139.071858655006	
231540000	-23.6809487386174	-157.118567873374	-68.2368347499313	-30.6040913322528	-43.5876725318594	122.782177382239	-21.2345217586041	134.079574020526	
236530000	-23.6975902478439	-166.149434194349	-38.7573632014021	-47.8538687608196	-53.5487287119422	-54.3142293362644	-20.3377296618606	141.225401845728	
241520000	-26.4943950234206	-168.122074855251	-39.6874598345418	-109.564252707146	-37.9399989331019	53.2268165899811	-21.7086094216982	136.870100756136	
246510000	-27.6028585543993	156.459357547163	-41.3912722694368	130.64321154951	-41.4109080964332	135.172907240578	-22.3526679102499	129.942737147918	
251500000	-26.2006792662124	150.903583546196	-34.901356161722	86.073052263394	-51.8727314850907	140.433266131123	-23.3492081375251	126.991048230798	
256490000	-26.4329279743633	-174.505249606349	-39.2013272032383	31.0321059651487	-38.0176912437384	-123.695135703413	-24.7477566637371	122.717915609265	
261480000	-22.0027122133023	168.331433272192	-37.8783388507898	-27.6871409088066	-46.1470770459638	134.654073183209	-22.069839450635	140.502464526262	
266470000	-21.6518733759176	-174.135684911706	-33.6415861864592	-97.3075160708018	-42.6674757376309	-85.1694865186542	-23.150178108788	129.709193314072	
271460000	-21.7909028080101	-171.360088529227	-38.4147777036483	137.621278062463	-57.8319173792146	-93.8884950877382	-22.5615109036199	119.190821670788	
276450000	-24.1361107896784	-161.040669757786	-31.2754763302438	81.7043154158252	-47.7432448324096	-83.6699110810754	-21.3482289457889	111.989501131708	
281440000	-26.4857581633805	-148.862862875104	-38.0019034418313	13.6451813129183	-48.7092465140422	-154.931392387068	-22.0167403565043	111.375693347848	
286430000	-24.3126418717633	-172.528965472812	-30.9942799742289	-33.072678291346	-48.0861251500558	-73.6402257792899	-21.7072520778807	102.907471746414	
291420000	-28.9508676951348	175.669467834593	-33.7261469752781	-134.168926367884	-42.6311002824992	113.868129321556	-21.6464267014241	95.2490765270796	
296410000	-25.1942361600553	173.146950372085	-30.9697852093359	178.152565740149	-43.6398615365388	-73.2055193931053	-22.7628300649494	104.733613500196	
301400000	-24.7905941276969	167.800164566787	-30.3905175825766	78.1511340610486	-42.8641709899141	-28.3544153585385	-21.5076861836363	93.3352452635207	
306390000	-23.7509254860324	166.252039107104	-28.6966191783815	35.7057740112767	-60.0108468784722	178.798074200832	-21.4345176323082	100.926842069458	
311380000	-22.8156081546071	-178.732548270633	-27.8122138706977	-47.5424108016673	-43.4485098095742	75.8479214651038	-25.3706276652841	102.419879362173	
316370000	-21.8016091280016	-159.335956012963	-28.741013165645	-111.096365768651	-44.0440271038569	-35.4643342587727	-23.6163550965321	102.836795155895	
321360000	-24.581445417314	-168.049777080567	-24.9522553311368	-178.120767176598	-40.4359491000545	99.8551270192772	-22.0622054626362	98.0593291303019	
326350000	-21.7781370926174	178.50643300233	-25.4107253573778	112.697386542426	-50.3845534789209	2.51417245749981	-22.3591378219693	116.231746724647	
331340000	-26.8043773518003	-154.072040359527	-22.1170062484345	32.5341631596669	-49.4317573534406	-8.20766076808241	-24.5261483643629	99.3993019769009	
336330000	-26.5392156163734	179.499514584299	-21.4272909965823	-32.8736708662918	-49.7922439896788	-133.998036880824	-23.850173690143	119.359253249625	
341320000	-25.2904646432891	-175.935630096931	-19.4123920127087	-105.205273201661	-51.4868230875319	161.419279419281	-23.4774793985424	148.798809268586	
346310000	-24.4267561981277	162.467158730188	-17.639298702601	-178.503198884677	-43.1857087879442	127.538637126074	-24.2969663314871	142.787769507613	
351300000	-29.0572926670484	-169.015253020586	-15.3331040903248	101.973229907739	-39.8142723411176	164.538314356358	-21.8679964626688	139.56618719814	
356290000	-21.7281002888616	175.321888888665	-13.1974420960493	17.915018615524	-45.2923594449753	61.634409026178	-27.2947646662728	138.271887869161	
361280000	-21.1710605877163	173.223957990661	-11.7689234766254	-71.4830102293506	-65.5300405020863	-79.6658335797565	-25.0632220465783	155.740629268087	
366270000	-22.1497925079971	-159.69135206231	-11.5737311979506	-164.308486108387	-40.674051139142	-112.995354257874	-25.0673816953188	134.298805508737	
371260000	-24.5688961591624	-167.188513662281	-13.0251821550119	105.338347114975	-41.08009511578	-7.5719477464816	-25.3433701332473	162.452692292997	
376250000	-27.7614207409748	-167.635366870081	-14.421487082724	25.964050734835	-49.3634341781068	-6.97280675403237	-25.4569739937149	155.357128383406	
381240000	-27.6874543833168	-154.839673598443	-16.6172608316421	-53.0705613927313	-47.6804427986841	-143.762808359425	-25.3161328807086	169.178059475716	
386230000	-31.1113975949332	158.004713271022	-18.2124720447697	-122.916170386942	-41.6036919774147	-62.719888185937	-25.2215104356535	135.468675470152	
391220000	-31.5050415648291	129.772790841745	-20.0972075296396	162.634968808846	-52.438690496978	-120.249956182644	-23.6719617626673	157.646195641239	
396210000	-25.8070290492462	129.222711584611	-20.4983839869422	97.063143929029	-47.5560293961128	97.1480725817971	-25.498988438254	144.397274170552	
401200000	-22.8651659263715	169.032147513109	-21.0548434430583	33.3985927824882	-53.3205874331897	-176.654588385765	-25.2823485837832	133.091660463804	
406190000	-21.778709781956	174.050493537919	-22.3119165204246	-47.7213429509698	-46.8564786474393	-94.6747174530259	-22.2385863888454	131.262699112219	
411180000	-22.1324109539669	-164.348374535279	-24.6623945313583	-113.131986622127	-43.8298139713951	151.952997002051	-24.0790630913443	124.507652504606	
416170000	-26.5250486457148	-172.988054580156	-23.3748772973778	-178.710748661131	-44.5107916711174	74.1642833253324	-25.0368553252148	106.676134384249	
421160000	-23.8704921250873	-137.176329872998	-22.73669150982	120.890020512959	-48.3538900686211	-25.3400293703756	-22.0511358329167	104.010963766299	
426150000	-21.8941666511569	-147.546533836882	-23.1042456286545	44.2844143161524	-41.4185883937809	-170.462463401836	-22.964314539409	111.759124876104	
431140000	-31.5012253094795	162.58861935776	-21.3621143410237	-23.736664854707	-43.1452755862807	-68.4525737488563	-23.5739867847549	111.61544270925	
436130000	-27.1862002988455	134.351643326566	-20.335298948014	-94.5155847150366	-38.2703877804805	175.220710912671	-25.3032312613729	121.663573174795	
441120000	-26.4537727875349	141.97750472827	-19.8471378826255	-168.977530735965	-37.7634904717764	-42.7728623972543	-23.9212499828211	125.929134046607	
446110000	-26.9510235551316	142.572575186655	-18.1842476108036	114.338501397869	-50.3935468215206	95.2473654133832	-24.3007176160662	124.421692433567	
451100000	-24.6603541249487	149.305047819567	-16.2868124161633	34.149879626796	-43.0203085271195	-3.37273985576852	-21.5476320995112	123.273004003018	
456090000	-21.9220067528753	-171.842720110699	-15.6951419320969	-54.9159022448768	-47.3903039693231	122.453354753482	-20.3187703099516	115.324223123528	
461080000	-20.371980680541	175.265834395862	-15.5649785938709	-150.112573662452	-39.3260400825414	61.2054935764167	-20.1793846290739	128.127962559821	
466070000	-21.6072192843298	-148.548297657775	-16.0629846194438	119.651094453976	-43.848813499412	64.6844104888534	-18.4689710374602	126.78072433349	
471060000	-21.5120881465443	-160.50295818708	-17.5999424671446	31.4375190378172	-49.202102791573	32.7512409940511	-18.3621791093414	124.99056314409	
476050000	-24.5119632946829	-157.306955857683	-18.8366616495551	-60.053651396562	-40.233695211723	-42.5234337774692	-16.7556116266883	125.040718069744	
481040000	-27.5594967363748	174.869511077682	-20.3479958901923	-151.897381463094	-43.547818294292	-90.3474202517291	-18.2415255332727	128.412615653071	
486030000	-28.0950905155708	-176.611181471971	-22.658627038563	113.968189293742	-46.7028594276641	154.179437287743	-18.8871022266214	121.059438101316	
491020000	-28.7851820563329	156.020427754271	-24.2246527969198	17.2754613378809	-42.0580816152446	27.7695568824466	-19.1512945183153	116.673582219729	
496010000	-23.8389180316671	168.13908552238	-26.9523367019355	-61.2940469099233	-38.5849277602841	-3.97662442748143	-17.9118026466071	118.419221069251	
501000000	-21.4183090666958	159.840772842419	-32.3451375134057	-175.157607144793	-40.3262503788372	-106.909325533279	-17.3458085524019	119.156796455655	
505990000	-22.2291135432659	-176.381451809309	-32.3304994269357	129.479679399859	-45.8721307241956	-8.80505840238255	-17.694815509444	119.144811023763	
510980000	-21.4950990894646	-166.548381272945	-42.1420829777631	-32.9449544029985	-44.3119493891538	-90.4615253253425	-17.1706743588788	112.44892143414	
515970000	-20.8089087737948	-170.506079448971	-36.924895341719	-11.9897448408907	-46.6076148411551	-83.2515959290199	-18.4089011341647	114.200786338989	
520960000	-21.9006842147815	-165.318618780422	-45.080707253806	-78.1458817942274	-57.6716499420551	25.0933134577858	-17.6037248446283	99.6068769989759	
525950000	-30.2266549745115	-175.702824718607	-38.5429687756992	-123.075505434112	-44.876038039351	166.182607928163	-16.6883594999256	110.984310029214	
530940000	-28.7458795587282	-150.983588005466	-39.9150278912188	75.7897193398	-45.3107907372126	-38.7054149345158	-17.473930749498	104.497640511364	
535930000	-28.7647027360041	-167.316436757916	-40.1545824746556	71.1457803319106	-38.7244689148425	-133.781731418154	-17.3093609590338	91.9713004382587	
540920000	-23.3480540965572	128.880630499944	-47.452077237904	-31.6181526801256	-35.0252501714107	134.738574845806	-16.8736024584711	85.1427736645026	
545910000	-26.5685246772397	179.194570235206	-39.1130056629262	-169.214629185923	-44.2309081098936	67.413765961365	-17.3950895755369	75.8561843416605	
550900000	-26.3326822054204	145.928424356019	-39.3635294813623	81.7655849402059	-42.2535635685225	122.235227583474	-16.6134376264451	79.3693765079792	
555890000	-24.9093932814688	-158.461501776872	-47.2421679995792	-163.31321446301	-44.6029023466017	-154.344291481577	-16.6863491185053	74.5523499215708	
560880000	-21.3391788591712	-155.372947789493	-38.4623221910808	18.7273672148595	-46.0737490758703	90.55467562322	-15.3253441144243	69.7241722596426	
565870000	-24.0921412233657	-145.652135327674	-57.7459211277066	-162.042417501331	-44.0286102330845	47.9569412031498	-16.6701905322717	65.8478389881677	
570860000	-22.2366844922214	-159.910178974751	-38.6749921227508	-131.21648351936	-46.2558147752525	82.0753278044297	-15.7512653801637	59.5337011075683	
575850000	-23.7175260400688	-169.762584929925	-40.3269212636281	-48.4851722853779	-35.0804207875547	170.894825529511	-15.5523491487941	57.7484205593582	
580840000	-34.9640549195159	143.787326218334	-49.0802434625323	157.61217457577	-41.4932546854592	172.639653137504	-14.8613175665501	59.6039427902743	
585830000	-30.5853089230695	156.994246092057	-39.2971919249279	-137.461614162873	-39.2298887256239	49.0066738920096	-14.8415243533268	68.9371366103452	
590820000	-22.6726156533268	171.430985703219	-33.6256085593688	-91.5555763579656	-46.1117651198282	120.84864904663	-14.1305863221155	60.1781342997338	
595810000	-21.072677142389	171.4093085355	-33.7695132105935	103.550005815303	-38.6699197977174	-160.368149653519	-15.1838448256118	66.3649775254316	
600800000	-20.7167098307835	-171.806340850669	-38.3057715574049	-27.3110832745308	-38.1816513803802	91.9521761007255	-13.9012757004139	55.3277004161906	
605790000	-22.0444718296358	170.826108544782	-41.6900579262087	-175.253568888661	-38.7202565704268	45.8192503622826	-14.2504339627014	55.3075754055889	
610780000	-24.4731340147641	-154.013636355432	-43.5709702906916	63.0978205844095	-35.2125633406628	-114.468396020212	-15.2456580185002	55.7175263948939	
615770000	-24.4110994017408	176.453868799533	-42.7492805488445	-163.551886068882	-37.3928164431308	88.3679836874677	-14.4961415952376	59.3480813446131	
620760000	-25.3794685419466	-146.309566580796	-44.2391862284656	9.82373542957813	-42.000023773353	-177.351209640329	-14.3769305134474	59.1146841847866	
625750000	-28.1454243375617	-144.145887954214	-40.028089258581	-62.5796531151854	-34.8399149569222	77.8589432449583	-14.7719841737369	52.5378057245522	
630740000	-28.3251546935753	-156.905053982618	-40.8120328085125	89.8241915076597	-37.3712866398221	81.1399221556715	-15.8800394763091	51.6362680102311	
635730000	-24.1732279959821	120.753604491708	-49.0684082736638	-10.8289773915468	-42.6097623927081	137.517349335043	-15.5663213818215	47.8011704717524	
