!Keysight Technologies N9923A: A.12.45
!Date: Friday, 10 October 2025 03:09:00
!Timezone: (UTC+08:00) Kuala Lumpur, Singapore
!Model: N9923A
!Serial: MY61181427
!GPS Latitude: 
!GPS Longitude: 
!GPS TimeStamp: 0001-01-01 00:00:00Z
!GPS Seconds Since Last Read: 0
!CHECKSUM:1442340385
!Correction: S11(ON U?)S21(ON U?)S12(ON U?)S22(ON U?)
!S2P File: Measurements:S11,S21,S12,S22:
# Hz S DB R 50
2000000	-28.7655049704979	173.101737594999	-38.8581102208903	-68.7794666251811	-49.2566242683331	-165.324409587848	0.061150780265455	-23.8013595629717	
6990000	-24.9152588592346	139.635001300051	-37.4283689859759	-39.3883704027279	-46.4120175334143	-139.86743113586	-1.05816235937515	-74.4434368012799	
11980000	-26.5452657698377	126.954562155162	-43.6740325895053	-4.23003938984842	-53.6590117730072	-131.625970231677	-2.24052088225795	-111.480336515975	
16970000	-24.9168962029198	168.864065350832	-47.5409076307065	98.1562308137218	-49.4369340380129	29.5825703244148	-2.89806617626642	-140.283226817779	
21960000	-21.7873836480846	178.247567340644	-42.5207978471455	21.6347718726716	-42.6849944764812	-150.99623667561	-3.84518392008225	-159.483213605191	
26950000	-23.3144353534977	177.461452629729	-36.6561093082035	-12.9773868188767	-36.9521741361125	-176.732854763723	-4.23592625396263	-178.92851893696	
31940000	-22.5679992663227	-176.624150445051	-40.5846224107334	-92.7156471046514	-42.5329625794483	76.325136254974	-5.20766172057561	170.143170610315	
36930000	-26.1626593870773	-147.090563720456	-54.2617262831062	111.378454839587	-42.8753510251015	6.89167868217266	-5.98733332643081	160.142720148186	
41920000	-27.5292111513987	-152.188794344923	-41.1050038913954	94.9120797171593	-55.9400973719059	75.9368569918384	-7.30140726039294	156.51211219471	
46910000	-29.5148493608565	167.773043256194	-47.0885037427433	-35.2624296831175	-44.4999441112695	-139.629643621603	-8.38837801480364	151.933880060027	
51900000	-28.2609945009662	172.29318017136	-41.2325064312282	-63.4973620286189	-39.463137151603	-158.439339696297	-9.44069565446179	147.614810497832	
56890000	-26.6663315482782	172.603888737681	-58.4653508939743	144.206896866804	-50.7208286632901	68.8281143541238	-9.09344037519887	148.701647314839	
61880000	-24.8695856493021	-179.355061531671	-43.6168269750499	-23.1555547360788	-42.815622582045	40.6956732016525	-9.82634596002558	149.217964475819	
66870000	-23.1575002879447	-176.017414458486	-54.2484430264441	13.591224018574	-44.8175384636696	165.006857180346	-9.21634173416724	143.290601954636	
71860000	-24.91255056504	178.130252267338	-37.1939941829864	-17.8756716731839	-50.2787719496577	78.6330998735389	-10.2457749824106	136.886759181071	
76850000	-20.8902179404575	-167.497392349275	-53.9932596403947	163.593789192271	-39.1999038022931	46.1283708725186	-12.0691870443897	137.142561082342	
81840000	-23.0547657770245	-166.717163221456	-52.750150416044	76.8036862324858	-47.4083437505055	101.572129029366	-11.8670549227012	132.958512057521	
86830000	-25.6089703460812	-142.445444538385	-50.9731728886057	-12.0558313581757	-44.2473125147634	175.618719835255	-12.920677983105	137.777783390175	
91820000	-28.539974004795	175.666209215323	-44.2629044950207	119.377972409185	-41.5154720053255	-116.412409596254	-13.0393944661095	132.928176607499	
96810000	-27.0828532881009	166.564253910223	-47.9657083145487	104.94554664754	-43.3803036571051	-9.8050376424388	-13.4159657678308	132.883822485936	
101800000	-27.9519051139935	165.960602557187	-48.4628013064158	131.96279757661	-67.2767474648014	-174.881506372751	-14.2638200391921	137.159984765231	
106790000	-27.0993139779328	166.43067214447	-59.8599963168508	61.1125557938536	-48.1455041050889	-52.8852979541123	-14.7372347994922	129.440032108112	
111780000	-21.9758901291749	169.929019672169	-50.3192501052283	106.254223785265	-57.8591789884671	143.032389217456	-14.6964111077755	127.827589308619	
116770000	-24.16848303354	176.645908093763	-42.290970719667	-12.5658417546684	-52.1647105737936	83.1408896510782	-14.4669046349931	126.127134006945	
121760000	-23.8427114010604	177.979400481712	-64.4271214165754	151.701119645018	-47.794793897394	-46.9946959062699	-15.6699624636306	119.170674782816	
126750000	-22.8811301606579	-167.205946154324	-50.5310197877068	-153.787415009412	-44.3820737026007	136.213560264453	-15.3520052132184	120.605281215233	
131740000	-26.3035470745902	-177.680162614401	-39.2076065201477	54.2806079486067	-48.1047701956345	-21.0238912327703	-16.6923007001574	112.823132733078	
136730000	-26.8110848572642	-178.288877025251	-38.7249073085829	63.1060566552896	-63.3937168025179	-148.964347881546	-16.0268319970118	109.318657871947	
141720000	-25.9906011719901	-165.935605004331	-52.681256115635	143.971971129124	-50.1545860814431	40.9482000064341	-17.1917624761042	113.630577849521	
146710000	-26.8722660480681	-170.175043188086	-50.5634421548264	155.516202834112	-55.9378137740668	-150.931985725013	-18.0124722612894	111.84218948881	
151700000	-28.6338964681374	150.187561742638	-39.2782295242782	-173.194743256773	-48.2796885377387	55.3175992383521	-17.2296001958194	115.447545328861	
156690000	-22.768984885054	177.177806967328	-54.8864288217551	66.3902565932213	-41.0944603761556	-113.828091560506	-18.4568859650395	110.272064027663	
161680000	-24.9475074095482	169.718070722477	-50.1152309097081	-18.5275981840361	-52.6359086039418	155.070829225049	-16.961142515099	112.209665130722	
166670000	-23.0156132376098	174.576927083858	-52.1407285484069	-48.1217954561026	-41.713968510821	56.9316763597884	-18.0662093867977	121.292280780893	
171660000	-21.8867825205107	179.021753410362	-50.2686704349671	-61.8527048822862	-43.3164706026987	125.644177716183	-18.0784797476232	117.633736136811	
176650000	-25.55672494236	-155.293287814156	-40.1628184534864	116.226359474692	-42.3303118455126	-81.6172180042071	-18.0319253295918	113.682944821643	
181640000	-27.4646063966083	-170.243409753737	-51.9364666883722	-159.497500082255	-67.0296304453738	-36.5853371004313	-18.4187930538518	110.499032759193	
186630000	-29.726426251902	-141.361892191011	-49.021648794316	-147.131672933933	-55.565426545391	153.428117474004	-18.7075959329065	116.143429699659	
191620000	-25.3087527185818	-162.241223340174	-40.5064450993439	-106.353303685913	-41.2877600308064	58.5888554256245	-18.6769786609486	114.003136187013	
196610000	-27.0907973636742	177.786315200291	-47.4758627997872	-107.965847563401	-46.9941973796367	-42.3012942387569	-17.5161147439424	120.41203070943	
201600000	-28.2577452592933	169.776751488289	-49.3265772205174	-26.7215359840982	-38.3834628683698	-43.0907074773447	-18.3472960720289	132.607072333741	
206590000	-23.586343899677	-171.841667797071	-41.311616419134	15.4343414044159	-47.9687890987795	-18.2207830329307	-20.1169164301772	137.481399224481	
211580000	-23.2504635664004	160.951756511299	-51.0877649519322	-72.8295859103993	-65.5536350571774	-99.5037210855452	-18.5432011450638	127.105172353365	
216570000	-23.608947456805	-157.26406570607	-44.640349040284	-39.5336557146773	-39.673661541792	-153.756266681172	-18.79127548402	129.030803854451	
221560000	-22.2917703885147	-174.78676887219	-39.4638423006941	162.794181885992	-40.7081676994128	171.872412114311	-20.0865462437652	135.739994413227	
226550000	-21.2856240469288	-151.191058749522	-41.8451570855876	137.37282322961	-45.0160191159158	-108.953665218914	-19.516865751621	134.042252665389	
231540000	-24.7872295151005	-167.023058532963	-37.199446639592	46.463586988023	-49.6929313969424	124.939824257919	-20.0978427395326	130.145250169739	
236530000	-22.3680264631062	-166.004352926766	-37.0168527715195	-51.181429240818	-41.8731909191793	53.0625507022622	-20.1526839147155	141.124722509502	
241520000	-25.4808065186261	-168.949833270779	-39.1986850347641	-96.1138817303971	-62.2244630484517	118.620088452233	-21.9980454276167	135.539863011311	
246510000	-28.3002710511629	155.26216940546	-40.7320802965569	151.89115028891	-39.0648265703895	6.3839063038435	-21.4832885821814	130.196822797806	
251500000	-25.1518005521442	149.363555938619	-39.86136956173	86.8387567347476	-43.1737519929233	105.249722978035	-21.7832949106261	128.609238589982	
256490000	-25.6228342359559	174.634027057719	-35.0161755699063	14.2482801388798	-49.5375104691964	28.747159899473	-24.3979049190319	119.314942538511	
261480000	-21.7757601662763	164.05643464677	-34.4480821580657	-45.1179559712381	-46.8829890548871	-19.3430550727537	-22.4220769042445	136.969016279648	
266470000	-22.6541605123292	177.339528842396	-44.473507066877	-167.325219250084	-45.9126286972307	-16.3584587414868	-22.8350520491277	127.357209903052	
271460000	-22.3509545718208	-176.320717899449	-31.6821998839149	163.775805350415	-52.1198034704995	-81.6750036066913	-22.2246585411292	115.751066750153	
276450000	-24.5930783995611	-160.225343589163	-31.2824293473156	105.212035164302	-45.7336411110349	67.6817739916346	-21.4619138673508	110.509246658058	
281440000	-25.6691851949264	-152.632405951391	-32.9045123946963	29.2744336659756	-50.4191185914325	-171.601307905187	-21.2598727836571	112.550359383373	
286430000	-23.6069000308072	-163.916342241369	-29.7398353494373	-14.6388397194525	-44.4234930494951	17.9004860873638	-21.5156811326842	103.569038314133	
291420000	-29.8950233184895	-169.789262267132	-31.2649485018611	-116.539220331341	-49.8485869750156	124.83743912848	-21.5606566680419	95.3539531262134	
296410000	-25.1443430388469	148.766475478208	-30.5988652652868	-178.375326484093	-42.6985774199905	-45.5255082788747	-24.0065857159094	102.047146466408	
301400000	-25.1958261470582	165.195285250714	-29.4389460679175	113.073426800417	-42.1139922518042	129.926967235298	-21.0016354829293	94.4689202096308	
306390000	-23.7903267848114	160.348712134989	-26.4308119857417	37.5744958371662	-38.8038767838571	40.3408065006893	-21.1607341338818	97.5267750457536	
311380000	-23.7432590743873	166.197392728026	-28.5540264155708	-44.0016094350742	-44.9314072775599	-65.2864889090583	-24.4485062966361	99.6571719172531	
316370000	-21.5369748844566	-171.482532684147	-27.4062050708351	-104.613938303691	-49.5485102893456	168.630503147839	-22.9927974867418	93.6784283018564	
321360000	-23.6116395711887	-159.651739708876	-23.9157281197111	-177.467156033739	-40.6126929946092	-2.76572138552065	-22.5731155230057	94.7347709618022	
326350000	-21.8523268740624	-174.847491612201	-23.5130601451358	115.411287449456	-43.6192284452046	12.2285071239308	-22.2317862942774	109.714700836796	
331340000	-30.0055908002585	-139.549442882726	-21.9013932209277	41.7554138997181	-50.15418973088	27.4435655717371	-23.741697966556	96.9287544749371	
336330000	-25.9982391866038	168.494877610381	-20.6160639274441	-30.4146792413899	-46.4002248915989	89.1221566824128	-25.3412788106508	109.357232708704	
341320000	-24.966384128288	-168.348364462706	-18.9474840055487	-102.084715720715	-45.8401704510676	-145.810085305727	-24.7526683447797	132.242759541952	
346310000	-26.0389591162223	165.385977473027	-16.2071956901638	177.724600694367	-53.6360767165704	14.4941006873369	-25.7763711582979	126.42683429734	
351300000	-28.4958786926532	-165.746155438409	-15.1424242546618	100.66762606965	-47.0800074094596	63.0079722309611	-23.4372451714733	134.156878130569	
356290000	-23.1075777914721	178.479834522013	-13.2176471944244	19.7189147961098	-45.4550553695895	-42.6694315029288	-29.6020834047479	143.16602757737	
361280000	-21.4293591113844	167.124394079825	-11.910733132902	-70.8295211289603	-42.2574782630669	79.4516808638514	-27.8819037153689	142.900964718063	
366270000	-21.3069351675371	-164.654739770996	-11.4947059753286	-165.424619719264	-42.9845295055141	-108.592527770268	-25.042005891888	152.891318624192	
371260000	-23.6341885535279	-159.038113778736	-13.1659099467391	106.059025274368	-39.3955227117231	-29.4884560052795	-27.1882687895499	163.618527008775	
376250000	-26.0951683718049	-166.089926871866	-15.5355783371156	23.0437874935637	-46.3495402358479	-1.57439450745329	-28.0103609498394	147.266383011816	
381240000	-27.2871614843636	-151.054317217668	-17.4194164390992	-54.4556756914203	-44.2644040246353	9.29024654683884	-26.9445372164574	170.162293336117	
386230000	-29.7991803355256	169.350664072457	-18.8755168383443	-128.143271086914	-41.2100713432347	130.752774717423	-26.8586889386764	159.449242468113	
391220000	-31.2236880696196	143.242395618643	-21.5742041664191	162.427291115228	-44.8291535558925	81.2482829046988	-24.1354874496045	167.723383955703	
396210000	-29.9184812651177	150.59083100613	-22.6709239129166	93.6388821050192	-44.1107016495948	129.680078949929	-26.0073954231373	163.603895392148	
401200000	-23.5148779678773	167.561427042169	-25.8145401565867	35.5386136104261	-38.8717821611738	59.0144683583767	-25.8728574133559	146.688873843007	
406190000	-21.8879352281233	170.470395411259	-26.2595451872955	-27.841611997914	-41.8006306378997	-35.8104586002072	-24.1007238538426	136.164587314154	
411180000	-23.3576357423036	-157.556807104777	-26.3679114043769	-82.8835469142973	-37.9817848518846	-91.1773514377197	-25.1801064727651	133.615042717032	
416170000	-23.6164338373858	-173.22235024057	-26.7826887316206	-141.999668332424	-52.7072443279978	-33.5699970718421	-25.3836271354172	132.345025544566	
421160000	-25.5399760703424	-136.637690142184	-23.729181140385	162.250093772635	-56.3218233446762	56.2085560387362	-22.6745142742667	113.881235801087	
426150000	-22.320012757596	-151.88020882925	-22.6911028277767	89.49839454763	-39.8687381954977	84.1217276580633	-22.3010464212534	132.517484007414	
431140000	-32.10556252842	158.087823514251	-20.1468585272697	25.9419419816745	-47.5162055073532	39.8494391327339	-21.4199346796341	131.017504253762	
436130000	-25.692620312187	157.699812735469	-17.4053248870394	-48.8812339715928	-40.5926922550265	6.98309435416285	-22.8874930691342	128.977767895234	
441120000	-25.4422923949115	141.774328826729	-15.9359001305308	-132.351644295471	-42.9324825999558	78.4269955268634	-21.4505134535332	129.575363322025	
446110000	-28.1758279290586	158.195362915014	-13.9347447293999	142.988427464094	-33.9668616636954	35.2804600030487	-21.2577011165484	124.109319019001	
451100000	-26.9514047874418	157.728036831912	-13.2616966248098	55.7378986410551	-41.2378871919418	-88.8403200626393	-19.9024062820765	120.717962697165	
456090000	-22.3257339185974	177.997186689126	-12.6206443182761	-38.3054416041334	-45.2735785078802	43.3347155903418	-19.486309757281	109.245252247516	
461080000	-19.8816400781822	176.007879028756	-14.0257241934591	-134.544557596204	-44.2194422826113	-76.264869817587	-19.2244937037827	113.605732798232	
466070000	-22.8520558618641	-149.236289870265	-15.8331151629368	137.554438226259	-41.586458783469	-37.3400611499136	-17.8584104563188	113.610221339564	
471060000	-21.2426320938245	-155.291725816569	-18.860619496094	48.0564251789891	-45.5560176634696	93.5627180006519	-18.8677129504171	117.770931572853	
476050000	-24.4223444999923	-166.768276642238	-21.5241981852406	-30.0158568576905	-39.1506687455999	16.7133920884045	-17.3695166824926	120.833959130996	
481040000	-26.3379519930253	-172.134214037427	-23.7035724888638	-102.678658749253	-41.4259621941106	134.70004552942	-19.9459846613858	119.6650944426	
486030000	-26.5142552422253	-158.760201617006	-23.8356498510441	-172.827689159427	-38.0148532622848	-165.333053402202	-20.1166102042153	123.947401212838	
491020000	-27.9703163577957	134.449349103457	-28.6061048258684	81.6098934254966	-45.8231261236853	166.748364127543	-19.3855370295685	117.271025688409	
496010000	-23.5196388645898	151.274918460456	-28.9474578504467	9.33824800320272	-39.6990651086695	59.8071706594796	-18.6549825492684	114.823747209183	
501000000	-21.6496945554937	167.575422176072	-35.6549143701724	-71.4505200898173	-43.8146944603662	29.7650614213174	-17.9399321477125	122.885013935336	
505990000	-21.2591838639947	-174.345109782393	-30.6012303600722	-174.346313521668	-35.6250901911557	-48.2064546351722	-17.3800483922564	107.727837001647	
510980000	-23.091736736688	-172.948233266664	-40.6550947877078	168.998790126494	-52.8672103426254	-49.7792797634977	-16.5343305763176	111.622654820111	
515970000	-20.7422246998015	-163.793793844245	-44.1331206012224	50.3152111417652	-42.9236478950822	175.029893620903	-18.2133311535177	122.254463439493	
520960000	-23.7797971300052	-166.070803728199	-38.6607708043225	-110.138568780353	-46.9994514357192	-50.4474551794847	-17.5759008032358	100.206688378936	
525950000	-27.1869340466192	173.961473414021	-50.2298891347149	157.214424378834	-47.1908834248592	123.65352612791	-16.556265861435	106.576030828729	
530940000	-25.4976189619954	-136.25616660363	-48.4852661041569	-89.5187552396926	-32.4132714391226	-117.273747252449	-15.973352841653	98.5113460626287	
535930000	-29.0371510169217	-179.060237974816	-34.6369587401412	-14.667196080848	-34.482214093451	-97.640956498537	-16.6716207664931	92.6249163606464	
540920000	-24.6473010989475	127.238758289397	-50.6329600698473	-33.8794191671186	-59.2511149656747	-156.016260297872	-17.1695166627099	84.4333861560952	
545910000	-27.1005830235558	164.0491286788	-35.9308199348814	-95.9834212190293	-37.3120492597254	8.03160999342685	-16.9990596989666	79.2840317375466	
550900000	-23.6209395182246	156.823631256283	-41.0774898922879	73.9135935261824	-41.7689941931828	-83.0840881801361	-16.1395278839816	81.9775329751233	
555890000	-25.9223521817509	-156.663196188789	-45.4961759977877	11.583660888232	-37.4504013614606	78.45356116019	-15.4984286557297	74.3425495494946	
560880000	-21.3894410787237	-146.587079191007	-35.2429073409991	172.656111422475	-36.206545992927	80.1587365225739	-15.4100398996403	70.7077658838557	
565870000	-22.8792005950361	-149.78313447271	-39.6799506235166	151.541810928415	-35.6224219133509	100.653738392689	-16.4950216776037	62.0658401369429	
570860000	-21.4128023207358	-176.52506401661	-40.6701356850994	-41.669263920854	-37.7353381367823	-127.831125022961	-15.609473582099	61.1006359595867	
575850000	-25.7608335653145	-165.588041546545	-39.1102056896107	37.7930420572172	-52.1536604571539	111.653949536766	-16.1402871657042	55.4603885245737	
580840000	-30.0719158901143	131.337404095152	-41.3381284145644	154.571782573356	-44.1011325598431	-160.22411122416	-16.7277147559156	62.1150826506225	
585830000	-26.0750930037637	-177.016197103314	-46.5375437427114	-153.764304344963	-44.9086368827499	-168.943089313658	-15.0412974134011	67.6515994187697	
590820000	-21.2149732070772	178.666994037185	-38.7123888164695	58.336470489003	-41.5110855651301	-51.4153656046332	-14.5766563527517	54.6559724283236	
595810000	-21.8631264731407	168.851177639128	-41.3530229718121	-163.28726647467	-39.8757882918162	-4.4320088879934	-15.9288991268107	63.0609075191374	
600800000	-21.370999515116	-169.81815798338	-42.6183796263106	70.469326316566	-43.3076746581373	54.1549127196182	-14.6325706471738	54.2057417669571	
605790000	-21.0800645202181	175.073506957105	-37.8039851170606	81.2454161781159	-44.2319641416935	-61.5265406868939	-14.4775988108348	56.8170494201112	
610780000	-22.8334040261051	-151.751264770863	-37.6767959065964	-142.161220486716	-40.8817582605879	12.2865989727478	-14.660979674806	59.4402423767593	
615770000	-25.3187712118005	-176.02706081956	-42.5244718213163	-116.814040722954	-41.796597960282	59.2137050166408	-14.773548529591	57.0189110353983	
620760000	-24.9321774268721	-150.663634064098	-38.5853659619832	-54.6539217007186	-43.7196357064915	-149.752612099412	-13.8761558873584	52.1350461323456	
625750000	-23.5807040140524	-162.481358928093	-34.5160195636858	13.8626903436544	-38.1853021056311	-170.093018516788	-14.9666524287847	56.6200145867242	
630740000	-29.5587561887066	-154.111681785279	-43.1548187752795	-109.73641061182	-41.8786037239827	55.1603361652731	-15.7210210105558	52.7740197005905	
635730000	-23.1097862263989	129.469543421813	-45.2274768078183	6.30907223455974	-35.8097107973346	-2.61035048262154	-15.1492195368466	47.6212073742522	
