!Keysight Technologies N9923A: A.12.45
!Date: Friday, 10 October 2025 02:29:30
!Timezone: (UTC+08:00) Kuala Lumpur, Singapore
!Model: N9923A
!Serial: MY61181427
!GPS Latitude: 
!GPS Longitude: 
!GPS TimeStamp: 0001-01-01 00:00:00Z
!GPS Seconds Since Last Read: 0
!CHECKSUM:0973385693
!Correction: S11(ON U?)S21(ON U?)S12(ON U?)S22(ON U?)
!S2P File: Measurements:S11,S21,S12,S22:
# Hz S DB R 50
2000000	-27.4548397530348	-176.960145083362	-39.3328696511818	132.841057332025	-36.6265201203633	88.0415126917359	0.0370726064697024	-23.9106669267543	
6990000	-24.0292320550059	146.341090995376	-45.3115501658394	-104.527998066711	-44.3372114081308	110.383248814125	-0.948354139704195	-72.9485645376406	
11980000	-26.230679473376	126.071246169733	-36.916183150539	44.9507010127006	-39.6676544680906	152.373485982719	-2.23348649710497	-110.742909462861	
16970000	-24.9869315239065	165.219151114417	-48.7103514465223	81.7844619749117	-43.7437839679422	116.094844695108	-2.8667421527736	-139.756493569655	
21960000	-22.0504128222976	169.373568281071	-51.0603465231882	146.582966056766	-48.1528176061849	-144.830728419543	-3.63189438784562	-158.113984765475	
26950000	-21.8683933412662	-175.133219930955	-44.2836165131354	-118.59551959995	-44.7660290099643	-64.3494093617383	-4.30897671271974	-177.881804681825	
31940000	-23.6094516570368	176.638143630431	-41.3925312797828	155.410666809255	-39.6897979119436	-44.8510934291797	-5.18632944956253	171.25047721008	
36930000	-24.6890808674508	-149.357650649984	-36.105264714732	38.5054266881186	-41.9354825917512	-40.9209751975391	-6.04634073525272	159.402327525592	
41920000	-26.3772856356984	-147.645725306587	-45.9871682269739	-49.6438646467949	-42.1830802650983	9.05825592810819	-7.03719316166761	155.588408470398	
46910000	-26.9717369087319	164.861339154163	-40.2280589853723	-72.8343173820439	-57.1234669156293	122.878972575846	-8.5857793021513	150.673482702146	
51900000	-26.8626551177488	174.188513462758	-39.9790672601635	-43.2030221135082	-38.8438060537173	69.8030591027488	-9.52840636628883	147.253196089582	
56890000	-24.2812900480565	161.344328148036	-50.0062078807932	179.122110412536	-48.1307715943136	120.005804658499	-9.13347582738236	147.722728780399	
61880000	-23.5310544904555	174.885541778924	-42.3437644812631	143.877395234661	-37.7190707640961	-42.1207283785851	-9.76782337596348	149.836948754827	
66870000	-23.1725481040153	178.145297597776	-51.4539133946857	-121.113714415613	-60.6058981049488	154.590007611616	-9.38958354091213	142.43475599552	
71860000	-24.3546689256608	-175.188352405554	-36.116948228488	160.937745445491	-56.9550416616503	152.29909399152	-10.2243761902346	137.439912783872	
76850000	-21.045988958098	-171.149596965295	-49.3818022920799	20.8909914565499	-41.7749466552548	64.4654100064527	-11.7555406693204	134.949572917527	
81840000	-25.0277105737568	-166.642037712612	-49.0800523070905	56.224313421225	-49.1500913774857	-16.7993638215409	-11.8041896015038	134.350327541653	
86830000	-26.4286355917245	-137.397068092915	-43.561007075998	171.105822357024	-43.5799532557162	-61.4827353023691	-12.8398552257404	141.170334468481	
91820000	-29.6581681090681	-162.021616865248	-41.7257443342874	-23.7275014155208	-42.1623485286491	-117.484579283443	-13.0931895776962	134.4041657369	
96810000	-27.604278498201	156.479204419587	-47.4303616711261	-127.663076086294	-41.399595833547	43.4628665676878	-13.5641358524295	132.382166548323	
101800000	-30.1741556354755	163.679914313682	-40.5962361503646	-164.959110391762	-36.7397620475281	-168.810544687067	-14.5127772031602	137.445192434004	
106790000	-26.0159256168402	156.168852238396	-44.5949065464267	99.4813379641294	-42.8730851013005	-159.248087537235	-14.9450380040732	126.938430593533	
111780000	-22.3634121373375	175.48657681066	-39.3033436583939	-75.6227403869857	-42.3035233810159	163.960929109148	-14.6557767969664	125.950747554451	
116770000	-25.7830330498063	-174.029451899324	-41.9346647788405	52.2431080285887	-47.2942976950458	84.8541759806464	-14.5530920587061	122.157799741893	
121760000	-23.0411355218427	-177.344514966775	-44.5040726526566	35.8824883846102	-48.5375878996187	-50.8208578852641	-15.3819308770581	120.480122107153	
126750000	-22.9580470576434	-173.102802533012	-45.6635946498591	158.091253100747	-48.0864149991459	-178.610282627203	-15.9793519497773	120.036249343946	
131740000	-23.261997905371	178.737819192517	-37.8522542072353	11.6475405872425	-43.2715033140731	-97.7708277965843	-17.0853050701251	114.990908542265	
136730000	-26.3743891746617	-177.082067456597	-42.5158539199116	172.172352464797	-46.5657011143805	-35.9128746551998	-16.3319303078491	111.590851439881	
141720000	-29.3416869273515	-160.062550524318	-42.1245189402954	-28.5120989875118	-44.4850398934775	144.765153828992	-16.9953120568891	104.084953964279	
146710000	-28.2017754650481	-177.10649332223	-41.9132425651456	176.178609402006	-43.5766462056887	-36.0329311042993	-17.2565697821892	110.924569137111	
151700000	-28.0604980099491	145.80355523418	-44.8821892444203	-74.1199721401055	-44.3897802755926	56.1157128524973	-17.3018755637372	105.155555058942	
156690000	-23.0323525395908	171.89417688483	-39.1382704477637	-25.0459908007312	-45.6474917602056	-129.281112605573	-17.9280219959441	108.27364610799	
161680000	-24.4935941076834	165.733022908102	-40.7115977464396	-81.5287535681292	-42.7827979357201	-31.5387028148995	-16.7238566231671	110.53716671605	
166670000	-23.4433455924278	178.819336530115	-38.8136431678327	-135.672848050465	-39.2821031319665	-17.5297099417893	-17.3915892171913	116.683589189001	
171660000	-22.4750387654805	179.004046928822	-41.8103809797025	155.060970118257	-42.8824165516339	-131.992713508519	-18.9548296843425	115.013809393579	
176650000	-25.4161510009181	-151.902408548418	-48.3586749200557	-158.28208633827	-42.4000673435673	-146.816448202809	-17.8046503048182	117.087217966857	
181640000	-26.6214974954316	-150.192765848412	-47.6850560002309	163.956361833897	-37.9194380258965	157.868606868364	-18.1378841410124	107.397585764885	
186630000	-30.358954472465	-146.005750477793	-42.7104563063226	-16.2585081814068	-47.2049913487054	-177.741734087844	-18.1137884974519	116.658974566535	
191620000	-25.2280531543611	-155.914264176744	-39.475146449566	-179.555642545118	-49.566541016596	138.376501278095	-18.4227291386196	111.997413195634	
196610000	-28.5332351580342	172.670049190204	-38.6017982456854	131.668695894056	-45.469955335496	177.492322408686	-17.4717302808452	116.608435890106	
201600000	-31.8146681294821	-158.934002709542	-54.252419310229	-48.8690796857715	-44.1311227124618	-14.7519589860841	-18.2843772673845	124.136667819272	
206590000	-22.2747938464289	-172.047937489794	-47.4648124898374	-51.3665537317669	-43.3711301202801	64.268246858735	-21.5323064783543	128.52603367992	
211580000	-23.2662928921189	162.193832926568	-36.0743916493307	-30.0348156281972	-37.7255904473112	-125.615476132442	-18.9774186715405	126.951209703281	
216570000	-22.8624182809698	-146.111901473247	-39.7733215451921	-146.973286757001	-44.5236036374632	82.833602407835	-18.622307214644	128.216385543036	
221560000	-22.5991352090892	-172.549257565426	-35.9972565241027	-155.403427671984	-42.537405554359	-71.4680128341097	-19.7397959670474	133.554088467638	
226550000	-21.1627131598425	-157.494026016131	-35.1477597321539	97.7354446683476	-42.6280421303089	102.680365398387	-18.9864207221022	130.536310499551	
231540000	-24.9461152037348	-149.580078138787	-39.9714076939422	-14.1342266063206	-47.7537298111431	94.8566863534632	-20.4942950944409	130.075614342283	
236530000	-22.9938689660013	-158.891343966181	-35.1593052828998	-25.3038110372595	-43.220098818489	119.026547440217	-21.238455883912	137.431343440121	
241520000	-27.9243477861687	-169.713371867302	-47.4532562262104	-116.459433300464	-45.5341497401815	-41.9089726305037	-22.0704526592795	129.099526463154	
246510000	-28.1221603156619	157.373951495641	-38.3388700894803	153.544929005047	-53.1844028688925	52.7405183377979	-21.9311405326628	123.575994605195	
251500000	-26.4410864585118	149.833940246375	-34.0391942096751	116.074937711515	-49.4635729981808	-70.2211376291223	-23.3178310771868	123.76424228813	
256490000	-26.0503762827073	175.305450167563	-36.456434913916	33.4341654127604	-46.4640838084585	-71.0412157671382	-24.6905126151643	111.772053314997	
261480000	-22.486133779042	173.128236368268	-36.5376355626449	-47.4484863027159	-40.488317739089	-6.17425583401195	-22.8710117482494	133.057792556766	
266470000	-22.7150319356949	-169.282592296604	-39.6428958694169	-152.269699426067	-46.7498255905433	-116.974878730825	-21.8680382440631	124.919963371373	
271460000	-22.0161066988507	178.49538464996	-32.5999072835698	-172.962965513715	-45.7285446677446	116.216062453299	-22.4659824986868	117.683460730544	
276450000	-23.1080945966438	-161.448596771189	-37.0704365650719	110.238756910653	-49.9073475696064	-77.644355808652	-21.7317789193389	110.196542165946	
281440000	-25.4250316909221	-155.890943182142	-34.2264569970306	51.6847204800243	-39.9629108725692	150.875026844782	-22.4636800064005	102.690706359564	
286430000	-23.5038390696817	-167.64300400811	-35.6255526736586	-21.8757544905428	-50.4820538064325	-58.6794197153907	-22.2256667868454	102.974894829027	
291420000	-29.8207730656113	-174.226367037085	-33.593076539297	-83.979963233688	-42.247178281479	-130.40345948251	-21.9722867512497	92.5116677328608	
296410000	-24.5561074643439	160.456443426116	-30.2175868641021	176.670398237278	-46.4799066636135	-57.1693052174163	-22.7640026170195	94.9937600075604	
301400000	-26.3266811066143	159.701942931159	-28.8886767498653	135.645446361741	-44.1596464963969	146.855945582534	-20.7689215214794	89.9501724768307	
306390000	-24.2043076175986	161.021003100469	-27.419667373597	57.2391504421317	-41.9139765780107	-14.2824268579265	-19.9001668412122	95.7501400198621	
311380000	-22.5428335376344	169.658902697527	-27.1394347851428	-22.2708194510464	-59.0553035364997	55.1407401726916	-23.3496125074745	87.3137704268966	
316370000	-21.7313134494223	-154.228962540811	-25.9203956906936	-93.6956151868905	-44.3880538790389	54.5466016010021	-23.0777199936038	93.5302563576122	
321360000	-23.0351677328141	-169.007959337001	-23.2204738513288	-161.956377238901	-41.5157637624057	-2.10775827360005	-23.4652497114015	89.7272266690262	
326350000	-22.9993930900712	-173.648929169492	-22.3924987912291	121.782858213653	-51.5247333558925	-169.06507397953	-22.0959442538063	97.4859607025776	
331340000	-27.6901419270416	-131.899067672184	-21.9256520986581	54.5665375246579	-40.5303264023232	-43.0910245016408	-24.052022823913	95.8019941898873	
336330000	-25.9589170313809	163.587139765134	-20.4331278672031	-16.3802434362754	-45.8815344495206	-86.6661148639655	-23.8171895103634	95.9795498589186	
341320000	-24.5315685244221	-164.833292776869	-18.7162793139747	-96.8955896835614	-47.6995363067106	-70.725596916451	-24.1038577979996	126.043329516485	
346310000	-25.5865275089388	176.182462634877	-16.686090392292	-172.479474265271	-41.2695806863658	177.913752836738	-26.1442665121392	124.295451373239	
351300000	-29.1308489726017	-174.958948406701	-14.7752615240358	102.857783121595	-48.3907551784532	-9.78157063692731	-24.9222018102359	122.674358581377	
356290000	-21.7313387066867	171.103600314512	-13.3488506571741	22.9210756557285	-38.8439431169583	-63.4378307463352	-28.374090811604	131.539770833563	
361280000	-22.4206034020847	172.621887669206	-11.9783386083	-68.7208632956087	-43.6768686008509	-74.3751602333456	-30.5251847600957	142.859477857128	
366270000	-21.5404721228085	-160.132639436046	-11.6606940745544	-163.564738380656	-44.0876788380266	-108.892825944817	-27.674917587963	126.987102307069	
371260000	-23.5003277011192	-168.447284127077	-13.3746879164712	106.233411444463	-44.551320567059	123.798397080976	-29.1787460801875	-171.724611936116	
376250000	-25.8455955702199	-174.298973410516	-14.9429275976515	21.145472406732	-45.7027679512334	-65.2242868757471	-28.2903996225708	158.009554981941	
381240000	-25.4544638930482	-147.0272641922	-17.8284615478552	-57.0050917225029	-39.4922754793358	101.363814625385	-27.636959184832	176.18415910992	
386230000	-30.7781502045476	166.888785181544	-19.4244467023697	-128.411195986205	-43.1663064555035	-76.6217089232701	-29.8489544908939	153.164649680189	
391220000	-33.4282827093626	159.135332108053	-21.2146339883214	163.801726660235	-39.5361649634956	62.9587361586779	-27.6312945664807	176.619607037925	
396210000	-26.587322684004	141.642051947484	-22.261075296836	93.9595108257129	-45.8741537299418	88.8426013329307	-25.6708384534381	161.435872102235	
401200000	-22.445095946912	161.09170917075	-23.4989333290632	26.1496959652204	-45.7870292819974	-3.01267089592111	-29.8060581868978	145.63123629944	
406190000	-21.1061979560844	167.732225655454	-24.666471427584	-32.1020619537301	-42.5851625828748	108.634623991344	-24.416168205207	138.342878718641	
411180000	-22.4348833397327	-157.146652535274	-24.5119314204627	-95.0915144788576	-41.6499719480997	-93.2018844023188	-26.0371901212529	142.271630245465	
416170000	-24.6748266703447	-179.503769880395	-25.8066304586533	-160.942605764887	-51.6092408488684	143.200855175762	-26.2827490951884	116.134885723076	
421160000	-24.6289082748405	-142.228776419217	-24.2233577557212	139.105786302293	-40.4562697276726	106.99718267526	-24.4375117898412	125.51691466797	
426150000	-21.8162799187793	-150.412894567468	-22.622122397051	73.8051244553045	-46.5322162366813	91.3541646695626	-24.3881784751727	115.944892736696	
431140000	-29.5293081606635	-173.827849568835	-20.1824088248089	5.47357816540347	-42.583855390977	-114.551358860227	-22.0501942633747	130.446626903857	
436130000	-29.1068307821921	159.998951180518	-18.0592170499316	-70.751841403906	-40.5466744403144	38.7168430937785	-23.3260671886456	125.050120265236	
441120000	-26.0508779431986	147.960921462213	-16.5028383671637	-142.67956489601	-45.0455882414994	102.985288320934	-21.4186487522363	129.061469589217	
446110000	-27.5576067876779	151.833993607062	-13.7534875174577	130.825507346132	-50.2377115029494	160.608149242663	-21.9868809146106	130.666646612311	
451100000	-26.0217189458426	158.546473131499	-12.0375575826469	44.5320239997053	-58.4509535585601	-46.6355468013393	-19.9384243622712	119.446312464607	
456090000	-23.1632072844817	-170.297347241653	-11.1747944670416	-51.0577265583882	-47.090425016161	-67.428795911409	-19.4907615703489	109.024274145256	
461080000	-20.0276421060165	178.31088473879	-11.4220316424501	-146.388885880403	-45.5289042693033	-86.4598577472432	-18.4259608673034	123.162726372718	
466070000	-21.5050851418145	-154.215182760237	-12.3302758727161	122.385863918956	-46.4860180171823	-74.218163554717	-18.0448766538325	118.234925599638	
471060000	-21.0376298111944	-148.003755434945	-14.440679081469	34.4909581780239	-44.0612367211266	-109.144014048362	-17.8591363366131	117.411044660111	
476050000	-26.1062125893466	-163.170653687132	-16.184515455651	-55.3498226064876	-43.6229715850823	-129.702338784303	-17.364156126276	117.24603989139	
481040000	-28.0726582589782	-163.645353962995	-18.0056243249048	-138.326345994738	-49.7562882433808	67.5368111635323	-18.8933960224112	118.407955883389	
486030000	-26.7205138661914	-164.177193048377	-21.012703568895	142.939257616334	-46.8172502412276	-114.182241551498	-18.8525603940333	114.490242921163	
491020000	-29.4156919090463	157.859798228256	-23.5454134225204	60.7308632489987	-45.0114778230854	-9.31283665845735	-19.0646455691495	108.820999915063	
496010000	-22.7073512987984	158.291269943913	-24.1373786331268	-38.8378382171872	-42.883464737778	-71.4820839154903	-17.2952391381369	113.391674895472	
501000000	-21.7471559073119	174.356749606827	-25.4298563096763	-90.3837197134433	-45.0642723262	68.036896807898	-18.0193922489227	113.177470063154	
505990000	-21.0721608732448	-178.880455604906	-28.2729697806334	165.095469342783	-39.9026644702766	6.39793796485896	-17.8518593115902	116.634475734011	
510980000	-22.02541489293	-175.746817615195	-31.4449843951301	88.3854854710369	-39.1850509556008	69.5104816585141	-17.330279877048	109.670197118929	
515970000	-20.2542497627628	-166.472546210487	-34.1695182517876	27.1678817407446	-44.1909704975698	111.089235586646	-18.7760641107841	112.854511419827	
520960000	-22.6654440677824	-153.702025166805	-31.0830674501371	-76.4728884215472	-41.4718110254638	-175.023063000242	-17.8205975413706	94.5067826242505	
525950000	-30.8758296657955	176.08336657655	-41.8307040561633	-35.3887162605041	-42.6466284905534	-13.2458556117815	-17.280250087569	105.576216911187	
530940000	-24.9510714491899	-133.393373139251	-40.3312455098332	160.38866725003	-43.042997543355	-157.20290541945	-16.3251645197378	96.9574332043518	
535930000	-28.6411543495877	-179.952898876622	-48.6557169290243	133.872061194013	-47.7562981022694	-78.7052481141765	-17.6587449617696	79.9200059854577	
540920000	-23.5329263254805	128.907124531904	-36.1021539198216	108.361551863476	-35.7075718926789	-160.457422499017	-16.8080857100574	77.8952187178269	
545910000	-25.2323779097289	173.209255299935	-41.8551367334946	-114.732907248156	-50.8743533623943	-23.3034407935614	-17.0603651159096	77.7340194148294	
550900000	-23.7659505121541	164.837680192304	-46.8388444875352	-167.113292724999	-42.1446657678522	35.6532696651441	-17.0303662417334	77.8923599327719	
555890000	-23.2317246892965	-148.570242635525	-47.4769000889915	-162.698230375147	-45.6647694043953	140.898374898075	-16.3674354017682	70.525982567662	
560880000	-22.530188726733	-156.629916229922	-38.7827793243152	169.414867168425	-40.5629311741026	170.952933907683	-14.4845112332432	64.2139450331034	
565870000	-23.1802127123265	-153.007247191095	-44.2036360756972	47.7541792103811	-44.126544972134	-93.0390898728967	-16.5409810918387	60.3689808170512	
570860000	-21.7527576755651	-178.754235129788	-39.0595048885043	78.1459227594939	-38.908432170887	-105.168204909439	-15.4085599926719	54.6503960315177	
575850000	-24.8000252171602	-171.510891082942	-41.9713681372381	-37.3953929763355	-34.8035086233176	173.602052672163	-15.2846432253261	56.7561649849292	
580840000	-40.9597971328817	-147.036064200177	-39.8758989740858	-50.8331432937679	-38.1422264600893	-40.2727632746308	-15.4356198359192	57.5920764863044	
585830000	-26.4840151109896	-171.387440592787	-39.9139011358144	109.160865805501	-40.0175663483954	-66.858585510311	-14.8466167933365	64.7731289266984	
590820000	-22.1904577970042	178.166389252275	-47.4656981945207	109.338823094934	-45.3724798721381	-63.0174156990095	-14.739799940234	52.1514398237726	
595810000	-20.9506512172202	167.285832191324	-35.1535045542282	67.8432565470271	-50.0047492084719	-177.253460643539	-15.4255372893902	59.0448891016608	
600800000	-20.9861244691736	-167.501876751406	-41.4465043262658	-46.0177423453782	-49.4241558281452	-69.8706427368151	-14.0096829819645	52.8709155168194	
605790000	-20.3219585540635	179.334596922415	-43.656123378963	76.8176274332304	-45.5178585059829	-164.057203751806	-14.3333481164387	54.4383576831707	
610780000	-23.131744374763	-139.5905803271	-37.4354947203692	-24.64089296175	-38.2526591180954	88.2401609959676	-15.4301333741673	52.3098838308187	
615770000	-25.5118025696433	175.155683236257	-36.636606603767	42.4190756324735	-38.8748191592887	171.448642269483	-14.2037011059541	51.1633930088556	
620760000	-27.1764362390577	-155.679218742688	-42.4965756915447	24.0148719260379	-46.6133843490551	8.51759575103543	-13.4272912492694	52.0653734569988	
625750000	-24.9106783547236	-161.014125873802	-50.967236963765	161.267086432227	-34.599838230851	-8.03082305216817	-14.6899845506606	54.0984593889577	
630740000	-28.5568651797942	-160.377428335871	-45.3621094483499	25.0263112079989	-40.5255185339986	163.783457259597	-14.7774740642344	51.2797702889732	
635730000	-24.2182939822569	135.208604593691	-38.2897997481454	38.1891898275039	-38.6942469527409	15.7296588887007	-15.1113896537988	46.0902976745047	
