!Keysight Technologies N9923A: A.12.45
!Date: Friday, 10 October 2025 03:07:27
!Timezone: (UTC+08:00) Kuala Lumpur, Singapore
!Model: N9923A
!Serial: MY61181427
!GPS Latitude: 
!GPS Longitude: 
!GPS TimeStamp: 0001-01-01 00:00:00Z
!GPS Seconds Since Last Read: 0
!CHECKSUM:0465860949
!Correction: S11(ON U?)S21(ON U?)S12(ON U?)S22(ON U?)
!S2P File: Measurements:S11,S21,S12,S22:
# Hz S DB R 50
2000000	-25.7497630898394	165.128780541056	-41.4101122454874	17.0239325402654	-49.2602757653336	115.636321664667	-0.0120744391313997	-23.9333610124774	
6990000	-23.2538009197551	146.03632638832	-43.6529560669313	-90.614341402973	-42.7682004782858	-26.5445120960776	-1.0342830694711	-74.2192100348204	
11980000	-27.7328174276197	132.115974494655	-38.8805615434879	40.5191538091571	-44.7481310821318	-108.610971327376	-2.17769330379628	-112.450894659727	
16970000	-25.611592835318	156.741988214416	-44.2953200343714	73.6696199812052	-48.1581829885684	-151.68388672852	-2.93978067741963	-140.431136707332	
21960000	-22.9384405810461	167.792258095726	-46.9174699833435	-135.726369452252	-42.5682600824005	81.3748955631342	-3.75512511234758	-159.835960811266	
26950000	-23.1267564726048	-174.65705380636	-42.8702862819314	6.17962309235518	-37.5874415257511	-160.679542682518	-4.39366978105794	-177.452978072249	
31940000	-23.3858799728427	-178.433678958051	-35.2663478030433	25.3856312147812	-41.5516168425045	113.792084945227	-5.22898251487094	170.678306910524	
36930000	-27.8421681999136	-144.575971535883	-42.9222734681463	68.8264073858941	-44.2001425133139	-118.502016662179	-6.18248770140285	160.616336884743	
41920000	-26.9079123789482	-156.059616177098	-37.9914159753383	-175.270115538338	-48.376152420405	-65.2193831049666	-7.1451409212521	155.606681327632	
46910000	-28.1747523036851	161.367115420734	-46.4470111030087	71.3413736220403	-46.9662472527235	-122.355318190026	-8.40854709479184	148.549780042575	
51900000	-28.0944887098997	-163.939228335463	-42.0021850155142	-97.9091852939309	-50.9243463957289	47.972361077518	-9.34432083394124	147.759219917958	
56890000	-25.1422031103727	158.998550270895	-41.9547209147939	96.8838242787254	-39.6072344021853	21.7559993454398	-9.09355843966542	148.855552007971	
61880000	-22.9400158670943	176.929145672433	-39.6927620469662	-84.2075327285963	-40.8120620395752	-135.860234607792	-9.90540055688235	150.300182172181	
66870000	-22.272720274353	-174.197217521653	-64.0540225426766	-18.6910773778763	-42.7117162129378	148.553117249867	-9.4299273214588	144.771134112741	
71860000	-24.1556565376754	-172.001637289311	-44.8455434004551	34.5073514757696	-39.5508982931336	115.079589823106	-10.4798636353276	137.230675167677	
76850000	-22.3029889668298	-156.688400597866	-42.320415439487	144.176729932527	-43.9305226157747	26.7228001993954	-11.7277131475114	136.972968004435	
81840000	-23.1807659990211	-167.992590695887	-45.4107945791971	-150.666641153086	-43.7427983776217	-102.840395047201	-11.9896997191215	134.588595069632	
86830000	-26.7386736689203	-148.931883009904	-39.0990506831485	-154.665008356184	-58.377068782413	100.003498559843	-12.6878871159067	138.141220250318	
91820000	-28.2376825414325	176.910757320948	-42.0439528331908	56.792198453049	-52.654402630404	-90.9410086430721	-13.0977944295308	136.829525583158	
96810000	-27.3933397920283	175.690501341532	-43.7642046739248	16.5435872550303	-42.521883068324	-132.671592683	-13.8219287903689	134.808254200091	
101800000	-28.1548858436519	166.342926974572	-38.2763865151046	-172.909579428827	-39.4794517686914	46.9728726162775	-14.1896842050451	136.195503922052	
106790000	-27.0473144922372	147.797817933175	-39.9017355150376	-114.094976078435	-42.1136934239351	-168.867702378345	-15.3884711085209	127.820211956204	
111780000	-21.2446089375704	176.020423058503	-44.7325150255272	33.4211364270014	-40.7068940855187	5.23362472433667	-14.7713268877315	128.674050979195	
116770000	-23.8105215495181	179.763253926767	-39.837075079606	5.25688601898618	-49.2844730908463	50.5797879286358	-14.772812937396	122.227744719788	
121760000	-25.4418415679696	-175.703381638498	-38.7084260344782	162.711849042014	-52.5493046515839	-105.306726120285	-15.4791998021543	121.72532147294	
126750000	-24.1227338400982	-164.335524724968	-51.3221950651833	-94.3839936555816	-40.3782423475327	-65.0111378210693	-16.0581381846787	122.564094861598	
131740000	-22.9649154528738	-168.450410605199	-64.8840349720273	-171.997812030489	-46.2402810319356	-45.4857808709538	-16.9391945034954	111.512556849731	
136730000	-27.245983577069	-178.570269522161	-46.7421025361707	127.441394974883	-53.7871276406311	136.659048061681	-16.8101286312832	109.29983727419	
141720000	-27.2045715444148	-157.907291366348	-47.8007158170631	-41.1003502993178	-37.0645360792555	-160.321885691955	-17.0786780667369	112.288960668145	
146710000	-26.2519343905801	175.236025538963	-51.8449818400401	172.910649047857	-42.195638044953	-161.274085471207	-18.0979268097775	118.781810897636	
151700000	-26.2914797221707	160.848256439618	-41.4029499634921	-163.813171886078	-43.2175177688818	36.2060978078305	-16.9895561748437	111.822403641039	
156690000	-22.9559766124765	170.979238736397	-44.7928312004871	-76.7128576088531	-46.0491373547376	-107.126688948459	-18.2925644172152	110.787731198444	
161680000	-25.10415041388	164.863542556823	-39.7061425982961	118.808059381378	-57.3439664994399	29.2997667662627	-17.2246405034758	117.495898648742	
166670000	-25.3053173629722	177.030628930456	-46.1782945766007	-37.6632648592817	-42.9699952000066	-50.994725563464	-17.7802602871119	118.305149676107	
171660000	-22.7608449477437	-169.541800724618	-44.1340105122932	66.7077070649006	-47.3732728244742	31.4580965610342	-19.230739954118	119.618567981518	
176650000	-24.3970373628562	-150.624725901521	-49.6144566642914	44.3435515186184	-51.2355053771547	-62.8409306367844	-18.3815104951493	115.573218621935	
181640000	-25.8670662019711	-152.338414264485	-40.5084320508754	-169.757217191848	-44.6902533575829	106.248326617091	-18.2814930122511	109.774738178331	
186630000	-29.4691440159332	-144.536118638973	-56.5073205071028	-22.2082177267672	-45.9515096852502	-101.274229422614	-19.2965406945357	116.517992880145	
191620000	-25.6589436968892	-164.757783770165	-37.7334636830574	-161.869066333663	-45.1611666044011	-123.725466379299	-19.0167948480975	122.300311653282	
196610000	-26.8660136194911	-179.609319437112	-45.2281548902491	171.051802742314	-40.4277929294779	113.123750869128	-18.0306228589094	120.735086079982	
201600000	-29.1354200130932	-165.045086418777	-37.4015322489333	84.9143093669977	-39.2133214950798	136.77650033656	-18.470464337726	129.099815863069	
206590000	-22.2652980488037	-175.233776892577	-46.8576816604235	-23.1239652848742	-52.7615749639073	165.580082660919	-20.5660470648401	133.819877360837	
211580000	-24.8067582082345	154.281863018062	-41.329261479089	-57.801940054282	-41.7586591465611	13.7042211318777	-18.5944624080325	121.847423368186	
216570000	-23.5599188948698	-161.856689775415	-43.5223999163578	176.570711793228	-47.9650652848994	-78.5299122758261	-18.5825393452116	128.486003780487	
221560000	-23.7238936828251	-172.123816072124	-37.1690853710244	-127.605630666669	-45.2007589538551	64.0151449938979	-20.4177205521095	127.724957103102	
226550000	-21.1962975080267	-154.926262877701	-42.0531309426097	84.4350811976503	-47.2811135683469	-39.5156590091909	-19.0786250768572	140.019015999205	
231540000	-23.8332761696761	-163.455038230083	-42.8188236853224	7.56871402897015	-46.5902583795321	-54.4159168328945	-20.9041296569474	136.583965597074	
236530000	-23.2731370124728	-166.47877230701	-36.1735475385924	-48.2560872746746	-49.0057005220108	140.608051051004	-20.5916799022642	144.213406506785	
241520000	-26.4436432355272	-159.179154407791	-47.2391853529748	-67.493162376224	-52.0225002762777	48.2600916503766	-22.5029035361398	132.334012945342	
246510000	-26.9200071947905	165.032987186713	-40.3909596910999	173.087221035716	-43.5377351427724	135.75137345583	-21.4961549219799	125.123810195096	
251500000	-24.8101322220252	153.393911050342	-35.5150512876748	97.6958196068084	-46.8924734144969	-121.360211538793	-21.5540695337	130.763800482974	
256490000	-25.6859294992682	169.643852866473	-32.8860021167293	8.69732355488947	-43.0956135349616	-46.0146759168493	-24.9426170962948	125.406591824434	
261480000	-23.0828915338954	164.01420076543	-38.2963003130859	-94.373240820438	-51.0673105471729	72.8652786131139	-22.8454184074139	143.251802169053	
266470000	-21.8888662427698	-179.682716391419	-36.1041835030471	-163.634963694488	-45.6908202720785	-38.0334192372864	-22.188214951084	123.568004158405	
271460000	-23.2939929713107	-169.196464978514	-33.5552668760303	171.007146333249	-47.1658510732998	-121.35908448786	-22.3191971354386	116.562287127337	
276450000	-23.2677859667273	-159.097902029785	-33.7869839299359	88.9881163624189	-47.7668047904078	61.5001477423437	-21.2278603870222	114.318481980872	
281440000	-24.6787323833774	-151.105399308904	-31.3060054444202	31.0400279261722	-59.6695277152725	-3.22079081738778	-21.6358998933965	112.285038168737	
286430000	-24.6132721913544	-159.202883137449	-30.1580645747472	-52.3177917039561	-40.2856101894928	136.638259715136	-22.0053832233225	110.96351458984	
291420000	-28.7786482621524	-173.788557679824	-31.8432279912994	-134.027410584363	-42.0836359897785	11.5678888801554	-22.2199830398599	94.4633693207054	
296410000	-24.9397462171299	166.787483772284	-30.6782865491311	163.458606469626	-44.4953311852816	-108.619211056866	-24.0964396013866	98.6370313985935	
301400000	-25.4208069339483	163.625992766902	-29.5538070830399	84.3746912072887	-59.8362456314187	-52.1786832958665	-22.4850797520701	100.383410090982	
306390000	-23.7009473083685	167.36336447726	-28.9032777696679	24.7978453735431	-42.4966944493555	-90.5548954659801	-21.3524643161986	104.623621820699	
311380000	-22.1381071224087	172.14679424072	-26.6114971348162	-49.8939468232705	-41.5274981520348	9.9090144188482	-24.5516607526938	114.648806838252	
316370000	-22.0707930964074	-163.652284418533	-25.8809313636381	-116.446635986424	-50.2232269278857	122.577644325653	-23.2492675808901	102.554258240392	
321360000	-24.0402972835491	-174.995505960597	-23.5863741079597	169.793998627109	-55.1360118794691	129.688836735829	-23.0647111691934	105.969946539119	
326350000	-22.8153611115071	-177.997548051799	-23.9245491699315	103.019186326834	-48.3159549614806	-51.974358725081	-22.10612129184	113.919827990769	
331340000	-28.2075231602981	-135.43985987382	-21.9842479348562	34.1593461639251	-45.5112983322296	-15.2301497427745	-22.3251464896433	109.343702697985	
336330000	-25.1447933159879	172.085547732941	-21.6854159388704	-42.5815863053211	-40.6923534580051	92.7748963210475	-23.4754584222083	109.564421977479	
341320000	-25.7501252723908	-179.079079188132	-19.3084072255059	-106.10293899455	-52.2185658317698	-109.462198231771	-23.6459514544669	135.263360629549	
346310000	-25.4869718157649	176.176391707876	-17.800406269057	179.472978863977	-44.8406329563423	-147.373355592755	-25.7229579890058	141.047101938597	
351300000	-29.063972012439	-173.79709665127	-15.3737181517288	96.2786501383278	-38.5431400613109	-10.2775205107395	-22.4454292555758	131.308845318954	
356290000	-22.4203770225423	-179.591386000348	-14.0558579045985	13.5441100611918	-46.2146062304164	90.6541847649215	-27.8433735259083	145.257788828301	
361280000	-22.1078214851925	171.403087842548	-11.974079189426	-71.4687105344864	-45.3420973667519	-100.758045248719	-25.0073349213383	143.508607948183	
366270000	-21.4536774437927	-161.117043384785	-11.8386911576056	-162.878491576113	-53.6887231229967	46.6397721583833	-24.0455076818561	131.025174783499	
371260000	-23.6884089475724	-174.071071733522	-13.362282921755	108.962578819464	-48.2543150821951	79.3231249714039	-26.9970504883908	155.633668106034	
376250000	-27.232168866551	-164.156995746322	-14.7836264460307	29.3180126502419	-37.6626081675765	105.471010605402	-26.4053449425427	138.85460896836	
381240000	-27.2166426786167	-160.071746256069	-15.695188039618	-45.7071644368791	-43.2019179134869	-53.2608909009529	-27.5169683241617	159.465049701768	
386230000	-33.6371111315103	176.970271191592	-16.6276442432596	-119.746395263924	-42.6368266186793	-114.411575457208	-27.7702394732043	156.465694772454	
391220000	-28.720872007232	146.805952664203	-17.8419256792738	163.244077395313	-46.9293342425437	6.46123787992135	-26.0593981174813	171.042319315654	
396210000	-26.5199616559855	144.93345131748	-19.8711970037428	96.6810822470634	-43.8069155946016	165.545702378347	-27.3899593761361	155.485370388239	
401200000	-23.6696418978545	157.841712850805	-20.4067325860337	25.2226440121988	-44.9130493453402	128.802701120478	-26.6267504838146	146.194064708843	
406190000	-21.9336028543889	168.680119731669	-20.6792271198017	-44.1991073707499	-47.6432525263719	24.8783510622439	-23.4240711077833	141.473232166214	
411180000	-22.778156481885	-168.070242258653	-21.710269053955	-113.274734699401	-48.8055844738693	17.8234100683968	-24.3407114141796	125.464082642886	
416170000	-24.0306318826755	179.458159186511	-22.868349850463	-175.933584373199	-39.2498813510215	62.1176445108366	-24.3008983286681	125.894573522519	
421160000	-25.319783685767	-147.22097203739	-23.6856012218789	108.261975759126	-42.1146225150979	-179.580141120442	-22.6003238009326	122.247893255317	
426150000	-21.511293563052	-155.744560528173	-23.1105332467167	40.9272414233195	-50.6454023625474	89.8166310139707	-22.8783007781664	128.334397218203	
431140000	-30.3099897635682	175.079176622264	-23.6844575220802	-24.9861622598586	-39.7420740319384	66.1204072360839	-21.219566492754	123.525267073978	
436130000	-26.5893280658505	147.641158278332	-22.6623657196752	-102.821339072235	-51.5894160844735	-54.5243099675779	-22.6091647882221	128.398489114391	
441120000	-25.6578081494926	145.444044805068	-21.3803392119431	-174.780258835664	-42.0928365280781	-139.916468897354	-20.92687172255	119.963011094444	
446110000	-29.1722545041872	160.126203263794	-19.3508020478179	112.70318843708	-44.4306198717613	63.0219559860094	-19.7822005695194	121.424905254686	
451100000	-26.8088945898002	162.442620427442	-18.3636277473385	27.6843354401089	-37.803739202707	-47.6168289275564	-19.7271165558298	108.737361065591	
456090000	-24.6429197638993	-174.775529660374	-17.5321278850826	-59.3771678503566	-44.8240267846607	-57.8081094787212	-19.4651027853109	100.462050950456	
461080000	-21.0643453675711	-177.839962096865	-17.9622508636063	-147.206264885771	-40.7766323386027	-129.263321458785	-18.8811540580845	114.362169411156	
466070000	-22.0954272460862	-146.702090465307	-19.4507794669066	126.606632343361	-44.7775924118432	103.484093411623	-17.9122536767422	112.724711349502	
471060000	-22.2112540506789	-154.382462830633	-19.8066164473763	39.2286649567369	-40.9355907378248	-125.155769994598	-19.4677470139078	116.379933931506	
476050000	-24.1552759566114	-156.741641103085	-22.4596016534219	-43.2101076754359	-55.8686549176561	-35.7761262396008	-18.1965651723356	116.968295580799	
481040000	-25.3535638680373	-163.671259759236	-23.384822632831	-131.975275881942	-49.0609023753209	-173.080812072347	-21.4613721105107	120.477213317102	
486030000	-27.416293435429	-174.370592075709	-23.4801115352814	143.634457880739	-61.8965486186763	-159.373226876422	-20.0132333804196	128.905241934163	
491020000	-28.621740286758	164.235736052777	-27.4843463777731	59.1069344844238	-35.8654605643051	63.3524945955254	-20.2724152807727	122.806738020875	
496010000	-23.3272555233789	163.903169949724	-28.1646819295665	-2.53899892585309	-40.202070966741	-69.8751010910657	-17.4708911989428	124.250115714741	
501000000	-21.360231121626	160.931093288166	-29.7698585042993	-111.755551307787	-48.8359814415989	-113.59843536899	-17.7110454559277	122.574470444426	
505990000	-20.4917512871286	-166.751367169732	-33.0819576703772	161.194111476561	-41.4832715027741	-68.1232264500256	-16.8790444789845	119.455707084021	
510980000	-22.8076495637766	-167.771866463391	-34.6836530959598	68.6993412471672	-42.069191533093	141.35121062826	-16.7756706045911	117.602515542474	
515970000	-20.8118770693304	-167.384718580567	-41.9823593360848	92.719531877746	-42.3208249717883	161.52647549115	-17.877981479718	118.298757410429	
520960000	-22.2817904377688	-162.246863692872	-35.1811514015368	-73.2365553490355	-41.7108791866929	-165.804155363352	-16.4409629458754	98.8984184825722	
525950000	-24.4599854983346	170.241404557409	-43.0738712595644	-56.8910365198499	-45.1612317686393	157.360322913039	-16.6982600416474	105.153629174679	
530940000	-27.5917488754457	-154.222502711492	-39.7029218873363	136.46393356464	-41.8219888604215	-152.377358927672	-17.054098758799	105.416589937078	
535930000	-28.7026480245674	177.332483088551	-44.4283473292612	-104.751876742161	-44.5281279239452	97.8303308447392	-17.1782054490185	90.280106320107	
540920000	-25.8380773933698	129.645378044862	-42.4274127608601	142.516531502945	-41.9947880036264	137.093523794262	-17.0086421443155	84.6116358681501	
545910000	-26.7752274097425	165.043294024081	-44.1593531182978	116.054696897825	-48.0031721992369	-154.890803423809	-17.0744050890654	82.5687251947178	
550900000	-25.1364595198942	161.50000772224	-43.8688901091088	173.554281759551	-37.7979625109498	-79.0216605173776	-16.2975818277762	83.7725611262813	
555890000	-24.7838261667753	-158.736121827298	-42.7132093084213	101.280336005574	-43.0091169050079	77.7093707151625	-17.1096167156881	71.9189046326682	
560880000	-22.6526059121169	-154.380891599356	-41.5874941930407	100.949970635747	-39.4180467622893	67.7867381488688	-15.5255787717965	72.5866813426569	
565870000	-20.6092130433216	-162.008470649266	-36.4616011368065	32.2461751009313	-44.2184782067227	19.1706136270647	-16.3236558849455	61.956019470777	
570860000	-21.7924302115298	-164.8386148233	-41.0984204740098	-114.935758809242	-41.4842035226631	-49.9549512649033	-15.5210878191242	57.224137668531	
575850000	-27.6362868589941	-154.875966309562	-38.9864454488203	-108.783852311324	-41.5979778358221	100.781507266168	-15.6717070385104	56.3487361779769	
580840000	-31.9208388752505	147.951557050151	-43.8520135532518	142.11033316811	-47.6994177965487	-83.1776007500578	-16.4769633909119	64.7183491451198	
585830000	-24.9528752369861	-178.659102348305	-44.4488927821143	-87.7507481701612	-42.8259812254466	-86.9539744492026	-15.0293369902324	64.8620387386162	
590820000	-22.5792520786428	178.272406676088	-39.9694311610906	102.072282533613	-37.8990097069035	-101.968628068764	-14.7108627476361	57.0996644078493	
595810000	-21.0799378537294	151.314167061374	-46.328368982776	68.7707164047184	-53.2133629970798	-144.147098479923	-15.103239706434	66.3571561944058	
600800000	-22.3784926074271	-168.889987061515	-41.6892146043	-19.2146913343747	-47.7441064168292	-65.9097739765271	-13.9020191032571	56.0075116996939	
605790000	-20.8401014782193	-177.598988971078	-35.3736197170133	121.21554613141	-35.7831484918855	-173.684203354621	-13.9045549146239	56.5620483117345	
610780000	-23.9824587027455	-156.609617221613	-42.5241766222371	151.762003000871	-38.0524268987291	-130.020136888297	-14.8235610092365	55.3348718853114	
615770000	-23.7035746735914	177.499407033145	-44.505734751821	64.6075289530542	-43.8093058198914	-47.4433461596912	-14.602346491783	56.7298485295135	
620760000	-24.8202657151695	-150.571014419432	-44.7874924673791	-123.521328596692	-54.071152822475	127.920404972226	-14.9533788885253	53.8662888809755	
625750000	-25.5113585092013	-162.864113699767	-37.4462135562328	-145.153471771967	-49.8306117475846	36.9465431061152	-15.072093082824	56.3193456224624	
630740000	-29.3232403812007	-163.344219338104	-50.7496608275472	5.63386975596283	-37.2575318448772	63.5069296919808	-15.5602012409213	49.6002762811318	
635730000	-22.1604020739883	135.078413920831	-35.1462477083368	97.6761166699453	-40.5050970698608	-70.4812306439513	-15.0546019441927	41.8672482589279	
