!Keysight Technologies N9923A: A.12.45
!Date: Friday, 10 October 2025 02:28:32
!Timezone: (UTC+08:00) Kuala Lumpur, Singapore
!Model: N9923A
!Serial: MY61181427
!GPS Latitude: 
!GPS Longitude: 
!GPS TimeStamp: 0001-01-01 00:00:00Z
!GPS Seconds Since Last Read: 0
!CHECKSUM:1113169006
!Correction: S11(ON U?)S21(ON U?)S12(ON U?)S22(ON U?)
!S2P File: Measurements:S11,S21,S12,S22:
# Hz S DB R 50
2000000	-28.6381990542686	161.507593190212	-39.8010931293032	13.8326584041431	-52.2351287649177	73.4858553257693	0.117193290842416	-23.5088908892429	
6990000	-23.5105453870755	140.44090221558	-45.299167148603	-164.199871165044	-50.9292486315055	104.226056333396	-1.02101797105221	-73.7935232565691	
11980000	-26.6145474970677	127.811350722917	-38.9656528409318	67.7982222080807	-40.8003849240491	111.626148341833	-2.21502501478377	-111.836080949196	
16970000	-23.9059803410182	170.079650631674	-51.6293509344657	-57.521931005912	-54.2820085078373	-101.028543286733	-2.96823533846601	-140.972357376666	
21960000	-22.6019271411951	171.177607536002	-40.1241611180203	179.754886009601	-41.8317688373993	-63.3639243064225	-3.78272984247334	-159.324347213157	
26950000	-21.6070804455699	-175.726515133859	-42.4324411061061	30.2318431423542	-50.1694699576028	-108.655214029944	-4.3659064032515	-178.282694417144	
31940000	-24.1042727975374	-176.339765112302	-62.5180451538427	-156.267305229849	-41.7150247332397	93.2076335667854	-5.36377613879498	172.060131483328	
36930000	-25.6077945507801	-150.081584952372	-41.6166219081317	113.719393580681	-34.4896412576056	-25.6371105046138	-6.2156912936963	159.893659275292	
41920000	-27.6964774940475	-157.108695353533	-60.4502028945344	36.8193876307602	-38.6302670005024	144.136255102836	-7.44499859596067	155.854271462962	
46910000	-28.4989776476422	161.228606326111	-47.1060011952263	-169.492983187067	-36.2995168753463	-129.636420899443	-8.40205772159547	149.978503914038	
51900000	-27.6740295468024	175.413290097534	-41.3600390636571	138.641669563909	-39.4246112492187	121.559117242563	-9.47487409152366	147.988362063516	
56890000	-25.6512752543042	168.340487914228	-46.9819289228596	-80.1408774129844	-41.1985625635831	-108.343213975667	-9.30084075593451	148.154646372361	
61880000	-24.2955608754178	-179.407944611763	-41.6981937937139	-3.15141242687546	-44.3413005198324	-61.9212637074829	-9.8361817409539	149.876422934758	
66870000	-23.2405156139721	-174.519169391978	-37.0044975963825	-83.0858781217625	-44.0052765856187	-9.60704493489843	-9.26439275176818	143.697411567782	
71860000	-24.4743469293358	-176.814831983936	-44.2436401188406	-30.8045801245165	-48.7301274538395	119.745465147491	-10.4787797530665	139.714283720048	
76850000	-21.5928979258904	-165.811560739424	-39.5923352201688	-151.957816684086	-44.8384322956098	-44.6395386980019	-11.6446334603983	136.776200431427	
81840000	-23.1910590216371	-162.840892356559	-53.6061038518485	-79.8697810587411	-54.8117454294916	-57.7805509455222	-11.985738319035	135.282610673778	
86830000	-26.9868053361001	-131.48286078339	-42.1171904692476	-141.120035899039	-53.6049659074715	23.8617716835439	-12.6645407286924	139.901003539921	
91820000	-29.4692763080085	174.25168371447	-43.5676572969946	96.9300909325442	-49.0363372983899	106.030043648786	-13.13245659411	135.575993513032	
96810000	-27.3336522279035	159.549898149241	-57.1791652941678	-120.938650128231	-45.8837507894562	-123.501501569739	-13.1578310381174	133.935013860638	
101800000	-26.6074202918501	159.965762349381	-42.0924137275344	-102.401083811929	-40.0188317384506	159.159162152491	-14.9400890658794	139.975197064488	
106790000	-27.8944581080722	147.012873120909	-41.8812049642012	140.592193462536	-51.9994359158171	-107.019670078183	-14.7079980713521	126.838269885274	
111780000	-22.1117751052184	176.937873253501	-45.6259665189939	76.7622376187539	-49.1442884092746	-135.325054191904	-14.6323919518553	127.532173061028	
116770000	-23.8048679052612	-179.797696473314	-46.4276758889331	-174.478155003145	-44.1051098154802	141.421556074129	-14.7262255099812	120.372824848576	
121760000	-26.0680300957254	176.047029350214	-45.8707018807747	-158.449757805112	-59.0479298820446	-88.3327327285095	-15.8762325157349	120.496564522734	
126750000	-22.6122788902707	-163.681424671794	-40.8025569695847	-173.529846456616	-38.8724161569597	168.631384673463	-15.9005684339881	120.353476340898	
131740000	-23.0966829082391	-173.229792643829	-45.3533565821932	172.9864532306	-43.6049840784871	-91.3220112070085	-17.553878294901	114.715390665456	
136730000	-25.9755131038615	-173.118504227981	-44.3627387160168	-145.658969133508	-40.7136184961016	-149.908060730705	-17.0045220135727	110.512621147288	
141720000	-28.0800941602646	-164.472392210509	-41.767972425212	-48.1297180136551	-53.4940589506298	-109.729348585662	-17.7340033127517	109.554957972618	
146710000	-25.7793589667958	175.396612011611	-38.8721868930724	156.102521904075	-46.9293619039796	-118.245505163332	-17.8049778451615	113.461155344776	
151700000	-27.5386528643887	142.81845548242	-43.3127384866625	-50.6660274292428	-53.7115806718067	-170.782481173174	-17.7690572375429	110.459685012643	
156690000	-23.1597365889858	173.710759395017	-49.7963054682569	95.9348233510722	-51.2878235180858	146.419935423935	-17.5444133719768	105.569429571868	
161680000	-23.3232211333873	167.40407719509	-36.1834450694466	-45.853593530184	-46.2466755539241	-66.4789465938602	-17.4066434794836	108.709907973904	
166670000	-24.6439526122804	179.132786115199	-41.2638725049191	48.3608091764309	-39.4439628757256	115.41523210384	-17.2737974781986	116.220525751942	
171660000	-22.855421905855	-175.839894571979	-44.9570025059373	-158.066351809503	-64.9572104563574	20.739162570117	-18.7693195441974	118.274801997308	
176650000	-25.8805208355159	-165.757633800415	-45.5885546204544	161.576901844793	-59.6324179305291	-14.1348793404341	-18.5429201208741	116.600390182956	
181640000	-25.9803593418762	-153.29126030729	-55.4570861379901	79.0874520789909	-51.0428488228533	-25.7498792180473	-19.0988065135271	110.67084751675	
186630000	-29.238275625467	177.406898779496	-43.3926396970882	-71.2697860531967	-44.6011245681115	-161.69454013085	-18.14324878947	120.865542642416	
191620000	-25.1654923268249	-158.238114551809	-50.376941226934	-166.142790766292	-57.1732504780668	-114.972190672253	-18.7630793456745	116.538279348818	
196610000	-28.2986469904108	173.010562859027	-41.0923930554699	74.1143485540096	-48.2634599804496	-159.939775382692	-18.9080625050949	120.411533070774	
201600000	-29.2064914707058	-168.293631562746	-37.3871154955741	67.5263731698998	-49.7290737261401	-104.267972184841	-18.1872103831907	131.221006455534	
206590000	-21.0781449409122	-174.335653081786	-46.2710850978427	-55.7915444810331	-35.6800745755029	92.8294637415561	-21.000864309225	135.934541815581	
211580000	-23.5115368102587	162.270982797721	-44.4254562256292	-85.7703220968907	-47.0370589977828	112.528081348276	-19.0838682961861	127.480265267364	
216570000	-21.9961910068738	-160.474980262375	-39.5263213718454	-164.845378681627	-40.9686947983808	-166.889499128753	-18.377104805771	133.74340210968	
221560000	-23.4274068443373	-173.516655423778	-41.240267869036	-178.369760131117	-65.8268820990739	175.448817983365	-19.4698639992151	134.852149454989	
226550000	-21.1435428747506	-148.004389674975	-35.8080204378349	73.6689557200037	-46.3994237604384	5.37486794152813	-19.1925502957593	134.473069262552	
231540000	-25.0368828054841	-156.985066178246	-39.5794529753392	-21.5402386088048	-38.4562795406052	-16.400835537799	-20.3469579804687	135.57692293348	
236530000	-22.9460672865098	-167.129122200957	-42.5242945858721	33.8261037546688	-43.5509108259475	130.926234933833	-20.1043994067363	142.452123989468	
241520000	-25.8437265726996	-173.514192980831	-54.4304526724245	70.3013381654602	-66.3853259514051	131.685503584045	-22.8837368627536	134.641467425481	
246510000	-29.7278719921733	148.108859888951	-46.3256139136856	173.371111924482	-47.0628376185199	18.6313991668319	-23.2077681230361	119.732320680484	
251500000	-25.4075031479322	153.096201100043	-34.6522223203908	92.0393696091301	-50.2536486632871	114.386737452544	-22.2495793610313	129.002937849939	
256490000	-24.6902594988372	173.769335780318	-52.2481552756121	8.21684184956453	-49.1474266154813	-71.6136506156344	-24.1734121069862	121.196743671997	
261480000	-23.2860188540535	176.676771642887	-53.1294448666531	-55.9089508378996	-38.4903726580258	150.818201636105	-22.8002473827374	127.023779035398	
266470000	-21.7338993525474	-168.182190452211	-40.4472486508488	-162.103187810475	-69.8907441620642	-169.574816502031	-22.4927887452768	135.101128041378	
271460000	-22.3043713392127	-178.398622047629	-39.9263028723806	122.71246809177	-43.7189035344835	-105.688629792328	-23.2830858008358	121.645865723709	
276450000	-24.5025984248244	-156.955499197984	-34.2040514163411	93.3690502868988	-43.5210399978773	149.251100274155	-21.5391772281106	115.397108762739	
281440000	-24.8611975466979	-157.269625463784	-36.3257349224645	48.9827800901366	-45.1293275150818	-92.7709902078049	-22.1059990135115	114.457386161883	
286430000	-23.973549720851	-164.325228165592	-43.4124399432812	-101.055083436571	-40.2892480746914	158.853104628672	-21.4098655413391	107.850527272504	
291420000	-28.2489157521696	-177.764850490049	-33.9778901867644	-79.9379678969601	-44.4702046564446	170.588848343133	-22.3288749346909	91.1473940339942	
296410000	-26.4950951820615	156.202970860468	-31.4808992374391	172.363907309203	-41.9300949752496	16.7806836366207	-22.7498033418738	94.3172540309291	
301400000	-24.7253715477003	169.411294848851	-31.0947552851749	137.565593892535	-42.9997354146698	-13.3511298621861	-21.5513726700325	90.5473575459916	
306390000	-23.6791819622915	162.167426577412	-31.3260549594206	35.5020677461796	-47.2077212536539	-86.0030352237983	-22.0688592244901	100.501509452513	
311380000	-22.6199563676613	175.305635962551	-27.6169732114865	-12.1100146738895	-38.9423185208333	136.321807250009	-24.4169809912272	111.164857464835	
316370000	-21.0897201959394	-163.757346681532	-28.9793244634408	-103.946841431597	-56.5386672075944	126.91956965336	-23.0143453392516	98.4830351512496	
321360000	-23.9452819411879	-165.655933501488	-29.1770836200022	-162.59686423784	-39.8788768487859	-120.571033382117	-22.8091024990783	99.3329844351476	
326350000	-22.9385232914201	-175.10062998071	-25.2153995606247	120.750547270105	-43.3951436520906	-161.653437232365	-22.4574079244114	112.738610030535	
331340000	-26.9706080268621	-144.537633593164	-25.0887995164211	54.897600944569	-44.3422204761825	-154.851454711573	-24.6097665681489	113.793776555861	
336330000	-26.9730819348478	169.962447450375	-21.5775161160763	-24.2568787265054	-38.510065256443	-156.726274565401	-23.8904420414816	102.581762802702	
341320000	-25.441829214826	-167.75157002638	-20.0254890164434	-92.7242605602611	-43.2149146969895	52.3817127956024	-23.9200295545675	136.375790349412	
346310000	-25.5646083544362	178.50316738452	-17.20220672416	-172.283748075585	-45.0350245892089	138.592096627996	-25.3293529676081	145.841935460173	
351300000	-26.957815939417	-152.95982720261	-15.3418141792136	103.766349148026	-51.0312116411055	45.5467307649812	-23.3322345872949	139.387556640116	
356290000	-21.5389512583714	178.72351416032	-13.7338821493618	19.9957716900144	-58.2903056940835	-146.946653099823	-26.250847519965	148.073716432844	
361280000	-22.6096156640367	168.411860714267	-12.0211111864009	-71.6129414965444	-45.9694194197892	47.6466070892007	-23.9904789219995	153.813331570419	
366270000	-21.6422372327795	-161.573489113475	-11.6048610480114	-165.326415482587	-45.2750189201497	160.376985108379	-23.241429368776	146.224440424865	
371260000	-23.4004344885157	-158.58796708942	-12.7465993907511	102.861187849908	-45.7222808035449	-179.334124413368	-25.4066091483896	159.223586913666	
376250000	-27.6028501923713	-171.028766106818	-14.7601262477912	20.4702604351946	-44.7949318305632	18.9387653335591	-23.8893351128769	141.503730856335	
381240000	-24.5493865471447	-155.402372226803	-16.4251539337327	-59.6477642323913	-39.6208853826272	-146.76953913267	-25.6546136522295	159.346988887083	
386230000	-36.4892011611565	157.791772027799	-17.8917067931062	-139.555381516431	-50.6716510796301	28.2075082210467	-25.2131512969716	143.454886236891	
391220000	-32.4297630477178	142.896579908036	-20.0415225036459	149.701021915782	-39.4355817611101	125.546733517537	-25.5238856832951	147.335998580767	
396210000	-27.9989967589248	134.749495759721	-21.3169468912646	80.9539511328572	-39.8532603477621	157.730567051007	-25.0588709370205	137.697418461747	
401200000	-22.1877797940736	155.980864805276	-21.928396944286	10.645757324886	-42.6827050158532	-67.5900497141596	-26.6404046185245	134.659315815109	
406190000	-21.6302923257163	168.230236791562	-24.121592844599	-68.0066496968918	-43.1649444372581	-32.0891032062248	-24.3630122270597	132.963053934429	
411180000	-21.7575808547451	-158.929303116502	-23.0687045822402	-120.995032194904	-46.2667767123719	-176.591014697202	-23.1478544786508	115.699046930466	
416170000	-24.736618764719	-176.062922434959	-25.4954177565595	169.278593417126	-41.7329235232726	-128.196666457011	-24.6086002939715	107.373118221662	
421160000	-23.7809844196099	-145.133426811411	-25.1505819860217	119.140622753989	-42.5029826722976	-84.0082818858878	-22.5118552377716	103.490756552833	
426150000	-23.0238677196767	-148.645333264155	-25.5794336062272	51.8045881227931	-38.3461374284408	84.3445457979727	-22.6278474417775	108.561134894434	
431140000	-28.7459394219452	172.049250565729	-23.3025017665483	-6.20617844373684	-63.2126484990818	-45.6277476299657	-23.6164500068268	111.223958770494	
436130000	-23.9427674670245	147.085477009006	-22.9567297494156	-75.1701672770254	-43.2313796096484	-164.864064243938	-24.2654676979313	109.434327486469	
441120000	-26.4524282251101	137.165401371842	-18.689078071116	-150.415060547165	-42.6150856459223	0.225696813229332	-23.7782525748589	124.797183963127	
446110000	-25.4893865334492	153.902740715903	-16.5344066500556	135.314690893515	-48.8399203740371	83.1197410478482	-24.5870725429964	122.646851699346	
451100000	-24.4984617592794	163.859497759058	-14.3571879214823	46.359472318538	-58.9277662050291	148.574704286586	-22.085372037882	117.650055817347	
456090000	-22.7256995783193	177.519778806334	-13.150821745932	-45.9697742271873	-40.2028309633038	142.564733128211	-21.1812717511489	113.940124226095	
461080000	-20.5605262069964	174.65453176409	-13.0808237590655	-139.902670313657	-44.8264697029764	-108.10893854235	-19.3015477200505	129.261078404867	
466070000	-23.1062047232211	-148.492431400513	-13.4258222505399	124.571102777542	-44.5737726728659	-13.2027897084815	-18.2336745571402	127.28345658419	
471060000	-21.8179419870436	-150.999209951379	-14.5128434181226	35.8061333688108	-42.6790501310598	65.8040903079823	-19.1100548151671	125.334527559494	
476050000	-23.5020876161157	-158.982292469254	-15.8688489307814	-52.0614102445793	-37.675476464156	-119.475493188207	-17.0923592739525	117.978892053607	
481040000	-27.6253278748714	-170.624880704554	-17.5259068146461	-143.42756022356	-42.6644105767957	68.6907708097118	-18.2410034615517	124.16244386926	
486030000	-24.6262195705578	-177.356196343194	-18.9988790351085	128.152896968483	-42.2808936860326	9.7064488816351	-18.7018609285694	122.616049744254	
491020000	-27.4814152978564	159.982366493769	-21.5076765105178	33.6772015389013	-41.083226640522	139.654996486101	-18.5539112293252	118.475786037996	
496010000	-23.0222445586306	165.614541112195	-25.0451168735134	-60.9289491187071	-41.7548180779378	-145.248884172379	-17.5180992168339	120.828102320543	
501000000	-21.7221203364818	171.162783730691	-28.6184474832797	-139.81642794201	-44.3719798124718	88.6212377741682	-17.8171086968983	123.168458576686	
505990000	-21.6304200061032	178.818896376278	-33.097883916845	125.703675166322	-40.6749130312682	-115.87964982336	-17.9233107626225	116.928497851345	
510980000	-22.6328470524788	-166.870436535056	-34.7595681322741	12.9253654160599	-39.5729965193092	55.2517805777592	-17.0929438192821	118.061352681656	
515970000	-21.1560781108723	-167.858548927728	-38.5806164269109	-70.3530268548414	-42.9237250300955	-125.773550913829	-18.2624153900847	116.870174438015	
520960000	-21.5283122061995	-171.468961536223	-45.8097078194292	-122.717552442885	-38.0966723733512	-177.292986513615	-17.3412849387645	101.421052913905	
525950000	-26.6467561512962	173.218795494741	-47.5448738446149	54.9752231178094	-41.300494915711	-14.3643994437035	-16.8816240189611	108.223772469408	
530940000	-28.0259615418096	-138.815919180968	-38.848450375783	92.194021865147	-49.8132962324561	-62.8069909729244	-17.042834355186	103.236289080439	
535930000	-29.3243712607083	172.122241931908	-37.433603503064	140.264682850435	-40.5044628499886	101.021851229121	-17.7621551608773	86.8867535741753	
540920000	-29.5624714620327	118.955741434692	-35.1641075007718	-73.4887708772748	-42.7506867473429	37.5965093897883	-16.7956324914169	87.2139499383566	
545910000	-25.9801973260819	165.1173573983	-46.3337455310614	139.35138168787	-50.2851517064703	-176.921635915211	-17.471122904624	76.4181617661716	
550900000	-25.2918349813172	162.815046548762	-36.1594860334397	-64.3552278789908	-43.6076261219444	80.8399719209667	-16.4911399707456	81.3457350783321	
555890000	-25.9625242354854	-160.32532865999	-45.3287632816121	170.087623353443	-43.7302440269518	106.898734494001	-16.7279847575586	70.5521149842728	
560880000	-21.6694246740082	-152.336710250576	-51.778788273529	5.44229790429576	-45.0896201703859	-26.7730156747138	-15.8426723661677	68.25615885587	
565870000	-25.3064047431174	-163.472896299544	-35.2441163543973	10.5149659454608	-54.3974676221388	-24.8920073773166	-15.9399380168954	68.339175584427	
570860000	-24.411827152899	177.860079237498	-36.8571966014254	-160.200201577913	-38.5720154573744	100.812325269702	-15.3702815737651	56.2033227789889	
575850000	-24.67013127994	-175.251992293221	-44.7135496786545	-125.68053994063	-41.9774310423786	-21.8560945379528	-15.5541495700687	55.0599514281442	
580840000	-39.3387335611854	-152.411576336867	-50.0529894324691	-146.64933442868	-35.9484421216419	-79.8281787479871	-16.0207474008846	61.917603945594	
585830000	-34.3744663127995	-166.013390450879	-34.6053645603542	95.8466180230621	-45.7944521917232	-176.256188215005	-15.1550965604859	66.1480886900866	
590820000	-22.1245060756964	176.826745980963	-50.2556892759722	38.3299702395909	-50.0347991292167	-159.003757569254	-14.4963564390659	56.3094980558147	
595810000	-20.3366566959457	165.903038267885	-40.2709123416744	-58.4512013767082	-39.0735773622787	106.182053854641	-15.4419188611177	65.2479731804864	
600800000	-23.7838762733004	-173.210837103784	-44.4506767049602	173.229139328661	-44.555429159733	-21.6546884100284	-13.8174006073684	55.6445637148842	
605790000	-21.588568222813	175.806855251616	-43.7300241437621	-111.913460890111	-45.3150388317053	-0.911396203760653	-13.9254101195856	55.3947372783268	
610780000	-23.1308981287274	-146.662735478017	-43.6662817740331	118.998854741244	-39.8846253936329	115.922424996124	-15.0195908820783	56.3315800702085	
615770000	-23.5411489329512	-179.502296516249	-37.7425028264987	77.3716177121416	-37.6651723111677	74.1020033868997	-14.7396718520285	54.2064628980293	
620760000	-23.7035386801495	-136.82717972703	-38.4593067980474	-28.9977818266998	-44.5849414119555	-11.6200061262905	-14.6023721540502	55.286505460534	
625750000	-25.2521306049544	-163.730100041912	-37.2462238549662	-77.7010170799892	-41.576721150328	-85.7408265896712	-15.4042386708794	57.1635914919868	
630740000	-28.1399676949252	-169.883030761128	-37.0381795097926	76.7870628285093	-45.0011229539596	-84.3175213309872	-15.7445639367243	53.4229494795171	
635730000	-25.3532204217182	129.218998457194	-50.4642226753352	-38.7435525847212	-34.867494158249	-10.1368286768019	-16.0496333912619	43.7461243811353	
