!Keysight Technologies N9923A: A.12.45
!Date: Friday, 10 October 2025 03:09:15
!Timezone: (UTC+08:00) Kuala Lumpur, Singapore
!Model: N9923A
!Serial: MY61181427
!GPS Latitude: 
!GPS Longitude: 
!GPS TimeStamp: 0001-01-01 00:00:00Z
!GPS Seconds Since Last Read: 0
!CHECKSUM:1372348593
!Correction: S11(ON U?)S21(ON U?)S12(ON U?)S22(ON U?)
!S2P File: Measurements:S11,S21,S12,S22:
# Hz S DB R 50
2000000	-27.9997893129263	170.001936926275	-50.0466523321407	-89.2645784829733	-47.6944644405405	119.957584231943	0.113505265234489	-23.4964831938734	
6990000	-23.4997583952542	146.378098681403	-41.4506616511196	85.4059662246997	-45.8395359496659	49.3039619173122	-1.04916302589125	-74.1021841160459	
11980000	-27.9608369212141	133.354218776597	-56.0072595866068	57.4398749526416	-35.6651727791033	90.7558097390956	-2.2235286695491	-111.654450421037	
16970000	-23.9153589193898	173.606086776472	-41.3747827016502	-151.050755173952	-48.3397163126921	71.8011316299265	-2.7972850403998	-140.639018152654	
21960000	-23.8080230484672	167.552932584438	-42.7325462344017	-120.47956052313	-38.7375942051145	105.830430440493	-3.77459200166442	-159.498743939436	
26950000	-22.6239456548099	173.475369820639	-36.6540419407619	-132.516812574572	-38.8705099712557	-54.1388289345045	-4.5658718500116	-177.771870037953	
31940000	-24.0298856835557	-171.73722425086	-43.1296424723549	15.6159258852403	-53.6175821322123	-84.7929972371741	-5.16381963303704	170.104168751316	
36930000	-26.3717664534202	-148.727725115241	-40.4833323193456	169.694458330874	-39.013921411033	-145.362517450144	-6.35122461542485	158.986890525835	
41920000	-25.824003758424	-150.857263392321	-43.9653359700762	30.2458774021983	-48.9349301480002	-7.06591824311281	-7.24499886239401	155.217628483596	
46910000	-25.6193489354258	176.411760736195	-53.8877759143985	-57.0933634377864	-44.2976308542697	-3.89515639634615	-8.36139499244427	151.667390472805	
51900000	-28.5233560565704	169.337296501174	-36.3906901369105	121.578724699775	-56.9233898608101	-30.2219716725017	-9.56303392459384	147.621211143745	
56890000	-25.8871251349405	174.646079405488	-47.3278223809586	176.04451531594	-46.5414144938309	-126.485425592909	-9.2727308905315	147.758744429444	
61880000	-24.2946596371116	-178.83930549932	-40.2369331358673	-75.3323494941992	-44.7748275440557	141.852026215791	-10.1176966101181	149.001744306943	
66870000	-22.3540228112356	-176.340326010175	-46.2502630862488	-160.188267478099	-53.2809128236569	178.817295601023	-9.33768674691845	143.862588701296	
71860000	-24.5192233709248	-173.125507943525	-47.4430532356629	-29.3223751417563	-38.9681264632202	88.3527441685907	-10.4363187515911	137.797528301294	
76850000	-21.0910298339551	-165.508145329914	-40.7359828030786	89.1704902103025	-48.8214547546298	-168.259089556068	-11.8604255749206	138.99960586237	
81840000	-24.2219802284384	-165.306034444219	-51.9193014519101	149.417351914846	-46.0400801640048	-47.9236897418241	-12.0661227149905	134.226390068192	
86830000	-25.7489643817568	-133.870923818748	-46.4292659203183	79.0091177651686	-51.6985352686657	122.045119508864	-12.8798685992457	140.373111338411	
91820000	-29.7513265238095	-177.502423092683	-52.0223921636945	12.7075821189362	-48.8953892937383	149.713742546963	-13.0072427155222	137.487316394026	
96810000	-27.9651355242885	178.582258330639	-46.7005863230422	18.1622855440624	-51.6098713467708	54.1427477852203	-13.4755597314779	133.536041772033	
101800000	-28.9427650782191	175.569543042774	-45.4118079073562	156.851547630289	-41.9926806604258	-40.6264556812556	-14.7313737971109	136.683042254334	
106790000	-29.660002188801	156.212387842843	-36.6556788863937	-153.565187341155	-45.7436397170799	31.6686094307726	-15.0160707375016	128.382345214743	
111780000	-22.504590114913	173.217458547872	-44.0700590852463	91.2848760195544	-41.8387159294367	-90.6597980521121	-14.5902908995047	131.04175006789	
116770000	-23.8813464614494	177.65344400277	-47.6069694661146	-55.2004441262036	-44.5086912745992	130.399453347499	-14.8480146433289	124.058114552223	
121760000	-25.0572627031676	176.345858727997	-45.3981145358214	-111.608442495044	-39.98090670833	-113.897490103781	-15.1532469808289	119.372677134746	
126750000	-24.3226383739932	-160.271428583385	-45.7931447140558	-98.6197794687313	-39.638079687944	-83.9098193751938	-15.5745163817768	121.109161872393	
131740000	-23.866660303071	-178.709730651008	-57.0106515075643	-139.990530071492	-44.5902371679331	-131.130337990994	-17.0340489947479	116.314223405364	
136730000	-26.4947620454531	-177.288933934343	-38.2873773115329	45.2399814328059	-47.0424875884609	106.116721540561	-17.0960365557945	112.55339524591	
141720000	-27.0025294118863	-161.522928964132	-47.2060047004923	-78.2695189524866	-42.4188699198253	-49.2225412528795	-17.4911095018033	110.661555166086	
146710000	-26.0547290647274	179.708492990202	-52.9154392128121	72.7782629620403	-39.3731067101405	-139.500450215424	-17.7479807721517	116.285873048118	
151700000	-26.3156620291276	157.395241796266	-40.6973938787658	174.846604713835	-51.8168795816449	-44.1541208447488	-17.3082151534544	112.590698153208	
156690000	-23.853597698378	165.3177548836	-38.2482853134411	83.4988966579965	-41.1453364048318	-116.749290147151	-18.1378325025614	104.293807345099	
161680000	-24.1599306053001	164.548922951762	-47.2627072499958	-23.9620523912595	-43.8369629260072	-76.0475917612858	-16.9935018803875	112.384202287798	
166670000	-23.0488163374811	175.072487476055	-43.3162531414704	99.3065394600703	-41.8344691126847	148.182451987748	-17.8964643661346	120.943524174076	
171660000	-22.5172983236959	-173.287928867615	-43.3378589227167	112.25632933414	-41.7185443243031	-145.553382551416	-18.5010183432372	117.932796820794	
176650000	-23.8469175301935	-147.771402589128	-39.0694987194038	94.6515980497252	-52.1064317462279	112.54007465882	-18.2097135439934	115.858371266582	
181640000	-27.6687780089965	-153.516875741083	-54.2544264958208	-123.668963968451	-39.6361990156698	90.0780829236367	-18.3250475883347	110.281676826539	
186630000	-28.4392738930551	-142.515519328984	-42.6287245299398	-96.985763079178	-50.2255063353176	138.017083590146	-18.7019704841397	117.60652017511	
191620000	-26.4274002870199	-166.553642367101	-46.1170949660029	134.951969138441	-41.3253037775736	155.610761411021	-18.4539777961737	116.770626055323	
196610000	-28.229723591684	178.45140578116	-46.4309626318274	118.866679044074	-43.3787318753873	17.4391443882664	-17.6695656996735	116.760017792668	
201600000	-28.3304632924732	-166.285337807536	-43.7822085557848	75.3216444859307	-37.3879049413434	-174.954853637657	-18.3120997270519	130.072394667229	
206590000	-21.5998486432219	-174.840998815778	-38.7364172708839	-5.55052961684377	-37.1410029952904	-126.408774193488	-20.0418162907004	128.222311726208	
211580000	-23.3970381013909	167.112042784918	-54.2492430705719	-47.4534688685039	-43.1285443434255	-17.0604905544718	-19.1939403315005	122.796304406223	
216570000	-22.9404970197906	-166.621780014993	-45.1549740677793	-97.9225572078955	-49.188393931991	-157.693031118877	-18.6807867194269	129.751555216459	
221560000	-23.5208636394457	-169.813764291795	-37.0109233301543	123.509143401732	-49.8571379230525	-46.4726943181546	-20.2684800245722	134.591726165134	
226550000	-21.0433912760867	-155.283236583233	-38.7713164383152	77.9370836011688	-51.1585319070586	87.9115749951699	-19.7952508261639	133.703719783749	
231540000	-22.8681308784157	-158.42153887878	-48.0682284483597	-66.525944761691	-53.6387741040771	104.573594680168	-20.2829483841311	129.395412582393	
236530000	-22.5952813189222	-166.973950284301	-38.8138124182621	-42.5217644828582	-40.6705482706329	-107.828937446825	-19.5663925244529	140.979026766104	
241520000	-26.7338993609784	-161.600680747681	-37.8737189328281	162.517612311297	-53.5938009679489	-39.5276676810304	-21.9620251905053	131.270860062942	
246510000	-27.5933849486086	163.314050805625	-42.1540267248495	-151.151576101147	-42.594986522027	-57.2670694293867	-21.6366441406129	131.119123816221	
251500000	-25.0780395207847	155.595016217252	-42.0452079700042	55.0380910350738	-62.8279383346173	-0.661206926809875	-21.9720473203708	128.82107772593	
256490000	-26.7493765972634	-173.281690897403	-45.1607804400831	22.5183750510796	-60.5327027808085	-67.2713601205211	-25.4164914588582	124.177586753594	
261480000	-22.859455522957	170.419055926754	-38.0647480383501	-34.7591943083989	-54.3921944249148	-121.475546878336	-22.7070642181149	143.876984522519	
266470000	-22.1609883853137	-172.35530939573	-33.0840720175336	-95.2860955175172	-43.7537513165755	146.867818780431	-23.1225754482508	131.240086092176	
271460000	-22.091355955084	-176.891730059027	-34.5570278372929	155.726329619635	-44.5207163404234	-88.9633134601755	-22.9244502217506	121.714015433887	
276450000	-22.3711654173891	-156.530106669545	-34.825786368896	76.1619317258565	-41.4262896822769	-23.9006455927171	-21.3403725221788	109.115387102106	
281440000	-25.8216712512012	-166.54937913896	-36.2275670585718	18.0988168519928	-42.7363621266321	90.5985955936792	-22.7263667780036	111.619173872739	
286430000	-24.6884360607624	-166.256220209006	-35.9723547743014	-59.6010623766177	-51.5364067542044	77.8551869566888	-22.1009459775099	107.568578089594	
291420000	-26.8904599640671	-178.7795099265	-37.024316073961	-132.910041185006	-42.5078915550795	12.2411183178154	-23.6127227823051	103.416128318816	
296410000	-28.1684412585446	157.28792735391	-33.025901317999	155.977233500029	-47.8902733464478	57.74729206297	-23.7515896032383	97.0966549696114	
301400000	-25.6071585585776	163.732459201228	-31.0779037785354	107.344151943136	-42.1519589177067	49.6662766274788	-22.3882273460468	92.8623370862173	
306390000	-24.2613735185258	166.000381365766	-31.6815863640185	32.6057505741015	-51.3697932790166	169.848613346129	-21.0703975211925	106.256167388451	
311380000	-22.9605459286324	175.676046862362	-27.8887618302976	-34.3665738902658	-53.781116521426	-92.1311309015654	-23.7561581790291	104.971832342622	
316370000	-21.6384792840499	-166.956505325204	-27.109976558649	-92.4980511998037	-39.7402585566678	-10.6443300795211	-22.2213156328045	102.642078228493	
321360000	-25.2594380434017	-165.429636550684	-25.9772120568309	-167.640701653351	-54.6626588036606	-78.2052848029217	-22.2021191899138	101.688892130711	
326350000	-23.4967303345591	-178.820216113904	-26.5246078940618	118.901633853844	-43.5875162990946	-57.2097736728923	-22.5798714134665	116.906449846393	
331340000	-26.9693528249244	-150.240395635132	-24.7802066226138	44.6622991525295	-42.5152219879588	-24.5653340808047	-25.3896126454175	110.701639129025	
336330000	-25.5555876014688	173.889105660656	-21.9755406876325	-28.4543682527697	-39.7310683460646	151.657070952821	-23.9163394655698	111.686401791369	
341320000	-25.7979471041309	-165.041870417792	-20.7582159135268	-97.5262480124447	-53.1027889167678	142.809508134505	-22.784373652226	128.978843939627	
346310000	-25.4183989992026	174.316913955459	-19.0515551491776	173.932389613297	-42.6692755718994	162.677690956679	-25.0284029942861	135.24180949152	
351300000	-29.5029816088811	-156.275778281796	-15.9877313637787	97.7921052541126	-44.8609936544263	-153.093887067616	-22.0201491673254	135.868173078383	
356290000	-22.6923249724304	176.453963621274	-14.4067221798471	16.1045328254984	-45.5546804808907	-69.1432567510107	-26.9159612497408	139.118562493052	
361280000	-22.1585708461149	171.09420736763	-12.5303524104532	-71.7545653979145	-39.8785783489055	-176.871794446774	-26.2945603380704	133.784794543317	
366270000	-21.6668705288619	-162.516247097987	-12.3101585975886	-167.370306846367	-40.0479074662329	-131.264064424047	-25.4669625191268	132.564699426328	
371260000	-24.18361989355	-167.038170115619	-13.2908281162339	103.822331813485	-58.4225450922077	-135.823947610197	-27.7105985794383	154.581202776682	
376250000	-25.2813371966595	-175.414263211405	-14.4098517318198	24.4519476437339	-42.5355170758382	40.3297852455654	-27.0660967202819	145.448608458764	
381240000	-25.7409443757768	-143.169177145165	-15.8552262725517	-58.5734404988065	-44.1672540196383	65.55683182768	-28.110521254237	159.102440081642	
386230000	-33.4046566105956	-174.943463310724	-17.0281009122963	-135.143548893172	-46.534991767874	-47.733684794367	-28.6917629161015	143.46077811666	
391220000	-31.313306375893	165.173398185103	-18.6984560785786	149.060554741856	-43.0824291583202	66.4097049092805	-25.8772041628019	179.134424969386	
396210000	-29.4006759441878	137.313624189879	-20.4421867680915	75.4999131193142	-43.9211311254351	-128.255536172082	-26.0831665563349	150.568967849993	
401200000	-22.0608245336348	171.571937476691	-21.2142190167783	-0.901801519699961	-49.0534136728758	64.9534922769438	-28.3543833040973	152.105337372204	
406190000	-22.7412325211041	174.050129256189	-21.9330746405958	-68.1681491376095	-35.7323836154566	-88.1408947399211	-23.4981602702722	145.164165789181	
411180000	-23.3911286229644	-162.719897627956	-23.6517711302657	-140.000966494892	-45.9976023496509	133.973227947355	-23.6594248229178	139.946216936973	
416170000	-22.9178848330013	-166.946237250193	-24.6800964188951	151.16228532052	-38.6628796410726	-7.40802728074799	-24.8173068539242	125.686272801163	
421160000	-24.083031809433	-145.162099887591	-25.6894574883255	83.5607631509184	-40.9998238389971	87.5756252133177	-23.0447255807222	130.701830662036	
426150000	-21.0411162031698	-151.427120853941	-26.5115649393521	11.3986309385054	-44.8872686661952	166.276863717078	-22.3423826248132	126.176106427046	
431140000	-31.658702096927	178.366653618117	-28.5997315368476	-46.660746942408	-39.2133025990949	-139.241312498057	-21.6847518602512	121.496815821841	
436130000	-27.0548005880001	149.23498567184	-25.474113640801	-106.240516125441	-45.0622423602026	175.735357581426	-21.7881437826485	125.635855272991	
441120000	-24.7692162160852	154.396090621433	-23.0087440330785	-177.490966470632	-40.7396892621627	-55.4626785110403	-20.7607232880984	121.728905482793	
446110000	-26.2323422440828	141.129997751691	-20.9054506809872	112.281992899435	-54.0941775823209	89.5907766167058	-19.873156310823	118.829020254511	
451100000	-27.4881894189921	175.921336005561	-19.1387477906044	21.9256554953259	-36.6515157403243	-38.7946341669716	-19.2235456177488	114.388628828505	
456090000	-22.5835316488581	-177.633330755391	-17.8658706811703	-67.3085736318249	-44.5459583559402	-141.632732282813	-19.6829122778324	101.56874886932	
461080000	-20.6355060920482	-176.629621691474	-18.0335011899319	-161.370177883852	-42.8320847987586	-73.3395638806366	-19.880325770252	110.701013387298	
466070000	-22.8135654395646	-151.694760564963	-19.8946826135435	97.3890988739205	-42.3251967512225	-61.9749635073493	-18.6251506058632	113.9395409989	
471060000	-21.1414351801552	-150.694217238628	-20.4374431581797	7.82961590572799	-44.3365339794567	-30.3100848457916	-18.6569770740288	111.90823164484	
476050000	-24.5679176434576	-156.825450954641	-24.3724004943143	-80.4481169691205	-49.6799592625038	8.45290602174329	-19.7819201189971	117.015647433691	
481040000	-27.5194181284542	-164.009186818901	-28.969477873922	171.760768190058	-51.5231652792311	97.2195896361771	-20.6947364693566	130.70465734314	
486030000	-25.8959507513014	-171.968067104628	-32.101873516743	91.7702528272571	-62.3461442887518	-86.2807370223932	-20.7621171357448	124.003070508126	
491020000	-28.4546162632931	142.042070464984	-42.2482800236884	30.6693098592175	-38.2198773199317	-49.0084416092743	-20.604650009662	128.985698446546	
496010000	-22.266419244925	155.743082376899	-57.9875277860893	104.910026119443	-49.1105210811122	169.471298659623	-18.0140734733282	124.975919483716	
501000000	-21.5852780540975	165.199291357656	-37.7294077407795	-55.1457014390601	-37.185029127414	-171.30412120209	-18.1329328894203	125.716219450627	
505990000	-20.6646779548554	-169.347373707862	-35.1949674737411	-174.950562585238	-39.8607755201523	13.6590369137616	-17.3620527180428	121.665660557418	
510980000	-23.2771681173967	-175.502280341123	-34.9011549973166	132.741392404005	-42.4765655043535	-73.3359276889953	-17.3466856981308	117.561899679018	
515970000	-21.2805451508203	-159.986782005128	-34.1180963972757	-5.19304400792361	-57.3940178886494	-41.8719446887435	-17.9761386319366	123.912678908201	
520960000	-20.4398848546648	-158.226979412822	-50.2492455265542	-142.579453935441	-36.4540006826916	-20.3450221244259	-16.9558319417078	104.646846209069	
525950000	-26.7521568867559	175.816352888538	-38.3227283556196	-86.4635634486566	-39.3672669667503	-161.898194529209	-16.3132968383666	108.460473624098	
530940000	-27.3962119244919	-153.304802706155	-39.0663273317727	-138.628135222073	-39.8731371361538	-8.65386023068243	-16.5206170974092	105.220283696166	
535930000	-31.6103929676392	-169.704235816321	-35.9365095764689	-114.716878906067	-37.3362369229217	-131.015849731108	-17.1505683231679	87.8211765293584	
540920000	-26.1727373936054	131.037373896419	-36.7221105299898	-159.120699261178	-36.7554647893454	106.346046084219	-17.1001724310596	85.6051971082609	
545910000	-27.7388328042322	152.651098956697	-33.8882922750081	-129.389488931806	-52.2188120603277	-33.5647407564998	-17.5736738172537	75.8264933666468	
550900000	-24.6695163651522	154.431837568175	-40.5246428895379	-57.3606040134659	-51.1709087061156	-162.092808516362	-16.4641160299259	76.0194909160965	
555890000	-24.1376133223419	-150.03416574671	-34.7831342748343	112.469367079771	-39.2646537676182	-114.675832625748	-15.8372090893438	71.3825552962773	
560880000	-22.6725228482077	-165.329035724859	-41.560092174624	-76.5241283819977	-52.2682175303341	-120.528505920845	-15.5283809849157	68.7477252890837	
565870000	-24.7603330331045	-169.664424315863	-45.6578995876211	-101.896812068097	-45.2374502393482	-170.781859606867	-16.5217933621441	63.3306886851027	
570860000	-21.4401627379141	-175.73422290131	-36.9412719716528	-135.77464847541	-37.638002705436	34.3078450007822	-15.1297006893784	55.6394542266844	
575850000	-27.4303864809952	-165.44353368869	-40.1731202759713	-34.3536525341243	-43.7308082104935	160.399500745671	-14.958150894634	58.1345130975589	
580840000	-32.1554077049542	166.71016050634	-42.1611004246834	-33.0964280611307	-44.2968803495048	114.342422145942	-15.7997447599147	60.3731367351782	
585830000	-29.145710393285	167.992270171331	-40.1323677618775	-123.055357774497	-38.787203909689	-5.42283689548636	-15.040424420073	68.7619297132179	
590820000	-22.0848067641522	177.067648995967	-42.4331887289198	-40.2610995781504	-35.8360822610193	-5.07448487830799	-14.449481052829	55.632477382116	
595810000	-21.0352630383197	159.19478395906	-44.8059373597112	157.583597192375	-41.3606731443789	102.168242161449	-15.0096052096509	72.4670476000138	
600800000	-22.3586330152761	-172.997656056177	-32.4595045292354	151.311309241173	-35.3569611920822	110.653359375409	-14.5951913953785	52.3122018585315	
605790000	-22.5748091353518	-165.765576922843	-38.8795708229022	103.85059427192	-33.9245436844843	164.759613823371	-14.0992518571156	52.1484706879272	
610780000	-22.2443938983802	-141.929028219026	-54.8758638819054	-165.397184302036	-36.9526436952761	5.23492505109861	-15.1440443157648	55.9295830972819	
615770000	-29.2402780280526	-172.318378523698	-50.4940078188553	68.4148431541156	-39.0104942549311	-84.9722336046884	-14.3812844448064	55.8766237573729	
620760000	-23.8255847928511	-146.195613994675	-36.4867682503429	-12.8997507353763	-43.1518377873332	94.7338269576032	-14.444935459594	54.2109288310769	
625750000	-29.7363947578678	-153.622603802958	-39.9223152318949	177.550145486918	-41.4068212977031	-13.8208132063014	-15.4758526774205	52.2385580492665	
630740000	-31.6898383321277	152.468017345282	-34.2637729161946	-69.5008453396963	-36.4024037658989	-92.2772149798996	-15.5094147773364	56.341970153354	
635730000	-23.2806142727741	136.691538889489	-40.6136260036484	143.69721217059	-44.365113653392	107.823515438393	-14.9628909389623	45.6487072015129	
