!Keysight Technologies N9923A: A.12.45
!Date: Friday, 31 October 2025 01:17:51
!Timezone: (UTC+08:00) Kuala Lumpur, Singapore
!Model: N9923A
!Serial: MY61181427
!GPS Latitude: 
!GPS Longitude: 
!GPS TimeStamp: 0001-01-01 00:00:00Z
!GPS Seconds Since Last Read: 0
!CHECKSUM:0305097847
!Correction: S11(ON U)S21(ON U)S12(ON U)S22(ON U)
!S2P File: Measurements:S11,S21,S12,S22:
# Hz S DB R 50
2000000	-36.6375183617644	14.0252080285228	-0.130587673061666	-7.13551869963089	-0.131416925764381	-7.13360604921319	-36.5354850230564	13.8551620114232	
4495000	-34.9312670368431	7.99290637127044	-0.157933992890961	-15.6562272312707	-0.159306108019457	-15.6644096664307	-34.7856112035237	7.55916571551407	
6990000	-33.8561534976967	-0.299854556014784	-0.171879741622329	-24.1385415137349	-0.173385539757328	-24.1523360503751	-33.8934332895967	-2.44677079478267	
9485000	-33.3780849116813	-8.98139638984804	-0.184609068495242	-32.6239222607451	-0.186000714714079	-32.6180245916364	-33.1051202616211	-10.4604256687724	
11980000	-33.0223350791167	-17.9058649353878	-0.193462729660663	-41.1111827030197	-0.19325174798637	-41.1043086485661	-32.7766372983901	-19.520970547627	
14475000	-32.9939354519014	-25.9682032678014	-0.200839694117898	-49.5901330610722	-0.201581322049694	-49.5873556806484	-32.6102393311408	-28.1889034155062	
16970000	-33.1647764783467	-35.3368349106806	-0.210698379296497	-58.0631743189456	-0.209151154252607	-58.062721574011	-32.5606996706146	-37.1642916880445	
19465000	-33.3073705027286	-44.4944740984476	-0.218150895692826	-66.5615093380995	-0.218911353902421	-66.5444810993767	-32.6516006619268	-47.1352697507132	
21960000	-33.6773150691758	-52.9883018675356	-0.225344265899243	-75.0370077609472	-0.227209536907464	-75.0339220699497	-32.8665618691826	-55.8558715010147	
24455000	-34.2726990322796	-62.9351515329719	-0.236238245640589	-83.5089921774374	-0.237151475961819	-83.506254843249	-33.1475452459459	-66.4679750773994	
26950000	-35.1749241194514	-72.5646712469857	-0.246216041455791	-91.9791423171184	-0.246439818545505	-91.9904389797874	-33.6447209808882	-76.2413050700258	
29445000	-35.9353902106643	-81.9927228388705	-0.255555900753977	-100.457327968968	-0.255682847526538	-100.459484834476	-34.0504221262124	-86.4999804694788	
31940000	-37.1950502736803	-93.0092219946014	-0.261962416161823	-108.920470181042	-0.264655690359513	-108.911369759819	-34.708627859487	-98.2685352058848	
34435000	-38.7189037204681	-106.51938840135	-0.273175690634193	-117.387822165472	-0.273827409954735	-117.381424228242	-35.5323861388362	-110.361728181009	
36930000	-40.7873557982213	-121.365844797621	-0.283714518065906	-125.849262206115	-0.285194888023595	-125.846974792765	-36.2694371206837	-123.805622246045	
39425000	-43.1831797724544	-141.84885170897	-0.294168282194478	-134.300920515326	-0.29309191460602	-134.303042633771	-37.0771935004867	-137.887096693567	
41920000	-45.7231321359316	-171.96753915312	-0.304202376401116	-142.762356491114	-0.302123258324871	-142.761993664023	-38.2265013633765	-153.655541254201	
44415000	-46.6352272470927	148.608281667077	-0.312259415688582	-151.215496379555	-0.312516943940875	-151.212859872757	-39.1749611312862	-171.374521813038	
46910000	-45.2379155220318	111.225329907523	-0.321912451125499	-159.668207601392	-0.322876208899953	-159.666274168285	-40.0383329921754	168.909628682887	
49405000	-43.0456443339146	83.7374334390778	-0.330426108477176	-168.117750500132	-0.331382462561818	-168.112094760219	-40.628781079187	147.618782842875	
51900000	-40.7111703259024	64.8410773220506	-0.339416399671957	-176.561600298237	-0.339512435362481	-176.549954572667	-40.8989229744032	125.497945341966	
54395000	-39.1437270354919	49.0070714949577	-0.347550368544382	174.996723541465	-0.350243342731232	175.00889339759	-40.7197018449701	104.20768615244	
56890000	-37.8356401225992	36.4932386946789	-0.355765596700558	166.57103423605	-0.358625387618581	166.565163365798	-40.3847416773692	82.5173619657924	
59385000	-36.8346218775623	24.6205793067809	-0.364435650613934	158.13122500001	-0.365534048392623	158.136759478336	-39.6474373775263	64.4148111188729	
61880000	-36.0480560482376	13.921653603771	-0.374113450308455	149.700738185796	-0.374540853180893	149.688274050316	-39.3959244893693	45.680947129103	
64375000	-35.5265261273175	2.64341627457567	-0.380124220923314	141.263791081031	-0.382880844201792	141.261866250518	-38.8332367162785	30.2244558763862	
66870000	-35.2282854863133	-7.39467858571784	-0.39009095620228	132.833388976346	-0.389611366204625	132.824514888562	-38.4750087123621	15.2066199637835	
69365000	-34.9624494292355	-17.8919679704968	-0.397231397799201	124.403146485667	-0.396759465340888	124.393639998685	-38.1109702653447	0.544550963904153	
71860000	-35.0118380679947	-29.2151883518148	-0.405675822891232	115.964425852569	-0.404503719578144	115.966430749981	-38.2227602059995	-12.5779864554249	
74355000	-35.2429134473073	-39.7838794492183	-0.41281993408637	107.542613677541	-0.41185726966175	107.537094895812	-38.2674124954563	-25.8296362340774	
76850000	-35.5925991121122	-51.1296945380086	-0.420579085177943	99.1162139064856	-0.420881911483277	99.1095252280046	-38.4953147115028	-40.3437635769689	
79345000	-36.06703189927	-63.1718044238167	-0.42752141142149	90.6793813447904	-0.427450126671505	90.6765837671299	-38.9383840396086	-54.737268859866	
81840000	-36.7810286869536	-75.4437365942535	-0.43478907898177	82.2516855342344	-0.436495650513321	82.2569303637287	-39.4872243543325	-68.1785580083956	
84335000	-37.5766985883857	-88.8385241759352	-0.44143898105613	73.8333082288394	-0.443027134807092	73.8358495294663	-40.1732718207847	-82.7063652148658	
86830000	-38.3042036221133	-102.463475977443	-0.44824585952459	65.4019015368891	-0.450434456758152	65.4064772542167	-40.9931617857706	-97.79724790586	
89325000	-39.4336733693324	-117.944656433804	-0.457462500920049	56.9757868861671	-0.45685364568522	56.9649219653086	-42.2612242346312	-117.913898550125	
91820000	-40.5032359940128	-136.177341012983	-0.462586081716431	48.5550378873471	-0.465720005376942	48.5527105504289	-43.5877985440189	-137.230521132806	
94315000	-41.7588623651967	-155.531787028308	-0.470730215089155	40.131297878252	-0.472302770512352	40.1353870873778	-44.7093417101182	-160.46557982335	
96810000	-42.3831594988512	-176.186885483169	-0.475643145358701	31.7188059804414	-0.478173189876216	31.7076180387589	-45.800988631067	171.056367452357	
99305000	-42.9576718787404	162.017321969665	-0.485243640091664	23.2949012218386	-0.486228118887257	23.2916737574389	-45.7879712466344	140.122682693907	
101800000	-43.174883164386	139.192812573152	-0.492413451672141	14.87933517509	-0.49418454539757	14.8769835779906	-45.1683399715941	108.913981165029	
104295000	-42.9285437482973	118.004417593489	-0.498751664307994	6.46964389159945	-0.498853740647364	6.45619585446366	-43.9625323860086	83.3173459116863	
106790000	-42.8500254054187	99.1587533608364	-0.505000047886668	-1.94835563366261	-0.505725060015708	-1.94878559585259	-42.4270192026035	61.8457730851333	
109285000	-42.5138623016117	82.2767714975161	-0.512060066597488	-10.3628077425347	-0.511749911731556	-10.3610064563664	-40.9679187279907	40.9270132368462	
111780000	-42.596671332244	65.6837397083975	-0.5171992082	-18.7826461832453	-0.517319868725053	-18.7785257638891	-39.8090851840748	24.911274031708	
114275000	-42.9655343118338	50.8114369410632	-0.524019838757768	-27.1928961887983	-0.523662290373597	-27.1921135840533	-38.7831154543161	7.20385932087642	
116770000	-43.1762749885146	36.8230384381642	-0.530721633421688	-35.6063206672772	-0.530880743484517	-35.5967094966328	-37.8803187946537	-7.61029904274706	
119265000	-44.2910875930208	21.1616920649365	-0.535917013684444	-44.0158664019213	-0.536224203358233	-44.0264191981777	-37.1116532436143	-22.065681957468	
121760000	-45.4037992846743	2.69069802866107	-0.541392592336846	-52.4326436476469	-0.542801286856695	-52.4294552610416	-36.5041194106681	-36.6970699049561	
124255000	-46.7564021215816	-16.7235198208435	-0.548913272178944	-60.841776542238	-0.549376901700823	-60.8474334476871	-36.0820429319501	-50.2176067778221	
126750000	-48.9619776662234	-43.395080001617	-0.556293439559377	-69.2706657382797	-0.555354891724833	-69.2627724845572	-35.5472723880039	-65.4100554794897	
129245000	-50.3244027495844	-77.1651060484604	-0.561584744463148	-77.6873519242635	-0.563520825790988	-77.6797829232938	-35.2196572043513	-79.6539446791481	
131740000	-49.139312883785	-121.160086118775	-0.569073460612089	-86.0921595281949	-0.568628186705797	-86.1000497265597	-34.8812302935374	-93.6879979709637	
134235000	-46.7178552168162	-151.196547691768	-0.575573155954836	-94.5073297880452	-0.575329869880464	-94.5104108813274	-34.6545565848725	-107.02004020446	
136730000	-44.1757478937426	-175.99645026904	-0.581689326401356	-102.922592046369	-0.582394754780447	-102.922922442886	-34.4751290895149	-121.570650562017	
139225000	-42.0827125816427	166.150094417207	-0.589164513136714	-111.342269443117	-0.58756818183605	-111.34864306601	-34.3746373252633	-135.349586033517	
141720000	-40.3763932005378	151.756088900011	-0.59356504486821	-119.75208831543	-0.594511056202556	-119.743964058525	-34.2363731245859	-149.339805920319	
144215000	-38.9706351200057	138.419871859925	-0.600697831707171	-128.159775861782	-0.599609246605311	-128.170411783075	-34.1427384145955	-162.933717306997	
146710000	-37.6992829611927	125.537547507611	-0.60472806204953	-136.565188497534	-0.607241297058462	-136.572980406695	-34.2456154047819	-177.420116898187	
149205000	-36.6774174450249	114.754510027842	-0.610119456887201	-144.972092900491	-0.61039783835534	-144.976429970223	-34.2338075561685	168.857057313609	
151700000	-35.9186070208404	102.934863929557	-0.616036497616701	-153.379578753879	-0.616480793829575	-153.386644239333	-34.4082103895641	154.923508329514	
154195000	-35.2751330780252	91.6068550669304	-0.622851073076395	-161.783679303574	-0.62104336166408	-161.791171518469	-34.6302065465622	141.169202331974	
156690000	-34.9268782568583	80.2385683159892	-0.627700641479873	-170.185833505702	-0.627300616269782	-170.195391019841	-34.9166626169666	127.101729854713	
159185000	-34.5656582234493	69.7889253990895	-0.631691233950474	-178.584240053503	-0.632259592732695	-178.596914238351	-35.2681913003009	112.719067678847	
161680000	-34.5129630217345	58.4126406576289	-0.636637014882399	173.00010048967	-0.637036615932401	172.998410716631	-35.6130795398785	98.2830100501911	
164175000	-34.5016423995166	47.9414495481338	-0.642269968725177	164.601257681997	-0.642291877448807	164.601826133054	-36.0692170462741	83.0532182338647	
166670000	-34.6416917920357	36.633682841864	-0.648334463409977	156.200907353254	-0.646562402501595	156.195043720874	-36.6677589081878	67.7928628904626	
169165000	-34.970880414052	24.3307806181342	-0.652639172557752	147.797983232256	-0.651542600153125	147.784322265965	-37.2942732797293	52.1307692109275	
171660000	-35.4828520107195	13.7326814961528	-0.658558892948108	139.389267988824	-0.656815440998028	139.388349841351	-37.9546795042476	33.905417208764	
174155000	-36.1849734410814	1.92832257402928	-0.661175221288567	130.97269332728	-0.662420585816394	130.970016096071	-38.6297361616749	15.0067357378013	
176650000	-37.1015628731666	-10.4490658549861	-0.666852546649635	122.567033223744	-0.667151404312767	122.567511233663	-39.1219489338358	-5.1926305293994	
179145000	-38.2004003647277	-24.1868854722623	-0.672540375221706	114.15983346896	-0.671286670065309	114.145943672722	-39.380624448793	-27.2206913735801	
181640000	-39.7194885762186	-41.6045659169093	-0.677137188676419	105.748079990132	-0.67792539585463	105.742880176476	-39.3281726878417	-49.1016419814167	
184135000	-41.6971978782306	-59.0689834890177	-0.680727984208769	97.343944237064	-0.683032492824176	97.3370541997747	-39.0007607730278	-72.2135966755957	
186630000	-43.7723507478857	-84.6828499051232	-0.687303245901915	88.929570866946	-0.687438859599454	88.9272950001491	-38.3629935027455	-91.5707384873287	
189125000	-45.5618795021396	-118.770951005357	-0.692268880970718	80.5212594498597	-0.692966317059247	80.5190843303264	-37.5834792530886	-111.422824543083	
191620000	-44.7704833976611	-159.685641414984	-0.698037499187062	72.1111202073619	-0.698085254202318	72.1072224634808	-36.5871243367276	-128.698819348019	
194115000	-43.1139269330195	168.459091934988	-0.704276967759168	63.707546354897	-0.702642626839809	63.6969793656702	-35.9504192472729	-143.900775689939	
196610000	-40.5669648958467	145.062829205734	-0.707874351486082	55.2993080516942	-0.710687798227274	55.306660419125	-35.1759910419535	-158.681043227564	
199105000	-38.6175761631281	125.389493619792	-0.715407846175037	46.9039353229365	-0.714140958070947	46.8967940595447	-34.5746333921793	-172.976446126247	
201600000	-37.0821710946989	111.008113889818	-0.719104245646448	38.4873066345031	-0.719806045103357	38.489034529623	-34.0915953901657	174.118063625198	
204095000	-35.6823537065249	97.4551019379485	-0.726154240084614	30.0821001804515	-0.725820194174237	30.0910832226379	-33.7020080408797	162.059512068285	
206590000	-34.6881330928431	85.3555079101811	-0.730180553089969	21.6936605642734	-0.730517900159117	21.680587975954	-33.4319796409719	149.967482799042	
209085000	-33.8636408122414	73.3347307233288	-0.735686601363236	13.3086949279682	-0.735813177355232	13.2743423853992	-33.2514110001117	137.960899198075	
211580000	-33.1692869876721	61.2182515248627	-0.739680011888965	4.89326625515769	-0.742545000157444	4.88610519499406	-33.3000399316552	127.201770257439	
214075000	-32.7301928809941	50.055855324736	-0.744906784688548	-3.50350277218617	-0.746621568101361	-3.50885461433541	-33.4341387710832	116.444058494747	
216570000	-32.4191882803959	38.9931252251067	-0.750924496932079	-11.9064129322477	-0.748492479810751	-11.9069431984101	-33.8102887172897	105.361063294058	
219065000	-32.3311781685502	27.9044799861534	-0.753913542440268	-20.2986831480937	-0.752591380836213	-20.3050176590304	-34.3246939922427	94.1254670389404	
221560000	-32.2541340066209	16.1932947605155	-0.75949474962539	-28.6977267149532	-0.758738162780158	-28.7100988299312	-34.9913814120677	83.8847720173471	
224055000	-32.4270884395749	3.932537596437	-0.763363048354758	-37.1038811913835	-0.762384285433721	-37.1044853879716	-35.9401613018808	72.4390088880684	
226550000	-32.7326948627509	-7.98375305728479	-0.766943252587186	-45.5070661783303	-0.76853665625251	-45.5070050718536	-37.2151546055995	60.6357394857997	
229045000	-33.2781717069542	-20.6932771771618	-0.770449386805718	-53.912088104789	-0.772920890801535	-53.905305604998	-38.86888511397	47.779012086933	
231540000	-33.8273878220407	-33.7703320922935	-0.777022987190906	-62.3134955983036	-0.772627523712305	-62.2982607552908	-41.1784016094987	36.1629041314322	
234035000	-34.4149181638063	-48.3659589380853	-0.777558666890317	-70.7082421305957	-0.780638707939287	-70.7197694390708	-44.1620023284905	19.0280581276771	
236530000	-35.3177392978072	-64.213851486398	-0.78174856898156	-79.1088296124383	-0.781934671790149	-79.1183843319314	-48.8909017538107	-9.0445564280478	
239025000	-36.1666232255922	-80.8177091881902	-0.785750029961235	-87.5246919648252	-0.785865264775834	-87.5210320331365	-52.8401932639407	-82.9043381940982	
241520000	-37.0135463493364	-100.266144495759	-0.791375624134599	-95.9234959568534	-0.791490765996968	-95.9282992468979	-47.6478520520799	-136.782388551673	
244015000	-37.5840251406298	-123.424770590458	-0.79408592374121	-104.329820569394	-0.795807739647546	-104.341549591843	-42.9968325227754	-158.84088588367	
246510000	-38.0605037034127	-145.286279097225	-0.79939165176996	-112.726532313117	-0.799911323556013	-112.735537298934	-40.4793372419846	-173.055742934828	
249005000	-37.9206262050708	-168.547682770335	-0.804607763789367	-121.139592066617	-0.803284795988054	-121.131185476033	-38.247365806196	174.3712782922	
251500000	-37.3829046062767	168.888914779342	-0.808419213032252	-129.530891413756	-0.809257078414715	-129.535787424612	-36.6776840143547	162.854922253282	
253995000	-36.7367154101301	148.147454943	-0.813522058391957	-137.919944698147	-0.814452862905537	-137.936997652213	-35.6278671260657	152.992860890129	
256490000	-35.9748572241208	129.868442191354	-0.819569457452513	-146.326896293619	-0.819121238504093	-146.33068503431	-34.7473872962295	142.883563734072	
258985000	-35.4406185041241	113.741037396161	-0.824248902817414	-154.730412990973	-0.824398460036146	-154.735573483865	-34.116097657118	134.162682678011	
261480000	-34.6929846319298	97.7265696176812	-0.829964445913325	-163.121755599137	-0.830057255797679	-163.132301239563	-33.7910610476811	124.87928525418	
263975000	-34.2448926296096	83.2261274518886	-0.833889230402635	-171.517893231182	-0.836458061400263	-171.533675056883	-33.5647476228883	115.272020790339	
266470000	-33.8739824903282	68.5010323408769	-0.840323978062296	-179.91205889162	-0.839067912257172	-179.922307161259	-33.5680612303948	106.513659206461	
268965000	-33.5718536808768	53.6697405193812	-0.844671302682998	171.691248586023	-0.845094088518994	171.681218958809	-33.7594382829584	98.0820940580263	
271460000	-33.389154469565	40.2426084652017	-0.848001094965929	163.293868050263	-0.849678171415808	163.288696968106	-34.1716144612007	89.2287265791894	
273955000	-33.3056078534107	26.4319113160081	-0.853643515981941	154.889715566543	-0.854688414768066	154.893735243833	-34.8976793593501	80.8713987767422	
276450000	-33.3817372836944	12.739182404306	-0.857614605474038	146.492686372508	-0.858259349728561	146.4909616196	-35.7015210367429	72.3864392673705	
278945000	-33.4632767773233	-1.52674044297595	-0.861421450312092	138.101410608397	-0.861737384647837	138.084549645321	-36.9858324505662	63.8117848224152	
281440000	-33.8205665401857	-16.3241448308168	-0.864714494437453	129.698087155193	-0.865977231800222	129.692087461215	-38.6303395098406	54.6336835493471	
283935000	-34.0748841351948	-31.5139640991967	-0.868729359730014	121.292623942889	-0.869198551717698	121.289633699016	-40.7811927331103	48.1195045193942	
286430000	-34.4766523462252	-46.9291757003567	-0.872006119323652	112.895727102004	-0.871514127361922	112.88965793897	-44.157665390465	39.8114971910154	
288925000	-34.9216925862627	-63.7559782825975	-0.875029582657967	104.486160493738	-0.87544170055298	104.489332068664	-49.9809193441829	33.5612003144674	
291420000	-35.3625381719175	-81.5462702005179	-0.879986962748265	96.0901810237535	-0.878689829418151	96.0843163807433	-68.7996982157368	144.500116647677	
293915000	-35.7012229818581	-99.6109822255217	-0.881443734936869	87.6759278375506	-0.881934196885207	87.6904341013428	-49.8259445066544	-166.388687700367	
296410000	-36.1177158926696	-118.884068628449	-0.886783878986404	79.2767907659484	-0.886664853281998	79.2756944245074	-43.8647156178587	-176.54931164878	
298905000	-36.4424577563819	-138.913210372603	-0.888209265248332	70.8870652298888	-0.890988188189414	70.8730588564416	-40.443169632702	175.9397746481	
301400000	-36.634479548933	-159.548188013754	-0.893839182690964	62.4901574642389	-0.893444722724986	62.4725317713983	-38.2956489814942	168.648879916435	
303895000	-36.675051396231	179.113897386979	-0.898704345266519	54.08973065969	-0.898159757532475	54.0892656239654	-36.613994435423	159.84992408243	
306390000	-36.2069008870196	158.783815373699	-0.903507906977112	45.6946504157649	-0.903458193136508	45.6889953861436	-35.3075319500106	152.91047164893	
308885000	-35.8270633410731	138.474736636813	-0.907929891942848	37.2959190936378	-0.907100634836429	37.2914082911726	-34.2993028921061	145.604967568567	
311380000	-35.3053966236043	119.802248467857	-0.911811047825775	28.8989352706648	-0.911366455254645	28.8982170866939	-33.6256654941029	137.728895547552	
313875000	-34.7743651256797	100.85907761107	-0.916893176187442	20.5160379236304	-0.917382234753566	20.5054850906004	-33.1451185179193	130.511085782397	
