!Keysight Technologies N9923A: A.12.45
!Date: Friday, 31 October 2025 05:11:08
!Timezone: (UTC+08:00) Kuala Lumpur, Singapore
!Model: N9923A
!Serial: MY61181427
!GPS Latitude: 
!GPS Longitude: 
!GPS TimeStamp: 0001-01-01 00:00:00Z
!GPS Seconds Since Last Read: 0
!CHECKSUM:0705864134
!Correction: S11(ON U?)S21(ON U?)S12(ON U?)S22(ON U?)
!S2P File: Measurements:S11,S21,S12,S22:
# Hz S DB R 50
2000000	-23.1458726633439	-154.939856303154	-63.674396057551	158.966569949882	-36.4730686942593	-16.0137032267436	-0.126257456586071	-22.8565826847647	
4495000	-21.4262775989597	-145.487902865642	-48.4136373870227	26.3847073927435	-39.6582459117226	149.276849704372	-0.500302488953695	-50.2651191387953	
6990000	-21.2511563659299	-127.933948703175	-52.4578266450122	139.727760859784	-56.9142622761551	90.0102882388557	-0.792037260936565	-74.3591268741367	
9485000	-21.1323568441695	-120.028292629857	-56.6536344032718	179.612059389254	-35.5729371679991	-28.7993065495949	-1.38128250121214	-93.7190629409684	
11980000	-21.3857440941253	-99.0355072364961	-39.4229622957354	-103.229224793991	-36.0883248440421	-20.7734168245109	-1.56239326366724	-112.023517673325	
14475000	-20.6471863950927	-89.8844150017913	-43.3145850881818	-169.065984906645	-49.5504569384781	-35.2494741633007	-2.30743001425043	-125.464460013364	
16970000	-21.3936588382066	-80.0030183017454	-38.129124132359	166.442123165404	-45.2685151517899	-81.5429943912139	-2.62059006511514	-139.018777901885	
19465000	-21.8145065049786	-49.7980818730385	-49.957186839827	-138.351641329877	-61.1043729062429	-143.246542005327	-3.060646152444	-148.367081438185	
21960000	-22.4863341346076	-42.0492173513945	-32.2209406746379	178.755618915418	-46.7458334344392	-32.4844709806693	-3.43386305512457	-156.945894203026	
24455000	-21.8805872106087	-34.6192725865217	-30.9326523195267	146.59410082819	-44.8334906749893	-137.630824182252	-3.74782624312388	-167.578817198108	
26950000	-21.560135385779	-3.63109394387894	-40.5629600530666	-58.3215144778733	-40.0936220197767	151.560031319661	-4.55664996291584	-174.538795285253	
29445000	-23.5123085946758	8.79791400755368	-34.4224133411645	38.8746744974933	-43.9557813779402	109.782413772601	-4.63692288433814	178.563127886786	
31940000	-23.9369519046392	33.6507241436398	-32.84100092343	123.094921974239	-38.3661213830923	162.01259002364	-5.15161756222409	172.960408922087	
34435000	-24.7761589795213	43.099275820641	-34.1634210270241	132.78087981156	-44.2147602246464	25.8992970162299	-5.83157918987731	169.962518441576	
36930000	-23.7782137441043	80.1777181502542	-30.9404230073777	-140.534988606647	-51.9607029417529	-1.34209993011967	-6.18216062595404	164.214011129449	
39425000	-25.9677709627463	87.9838690492466	-33.6974419272651	126.17004826748	-45.5247688226227	-144.563226899602	-6.83932539961334	157.92621395221	
41920000	-24.7938068635066	111.58706749663	-22.6651504251082	-0.0298755770474691	-50.4986112616375	-123.15309489053	-7.45694426500011	154.663681211615	
44415000	-24.7274789702874	119.817607226049	-23.5278539169416	-45.1391169220282	-44.0844126454933	-76.0523561817913	-8.06780351644016	154.37990596271	
46910000	-21.8279366855593	140.519746425317	-17.6727365096293	-96.9521742480848	-38.7895200584275	159.347054011764	-9.07088060454334	155.412261096307	
49405000	-23.9823760738084	162.000859170031	-11.8788312429599	-157.286951601802	-46.4300391126891	-108.016307464907	-8.4375205561957	151.960366937681	
51900000	-22.7076373643477	179.489149629645	-7.36022596123361	153.987319057557	-50.2851361467968	-84.2892613348004	-9.25635843010209	149.57643212924	
54395000	-22.1173696003049	-157.432008597834	-3.27603949186891	97.5370881252669	-44.1500177712338	74.1966781010939	-9.5829757007644	150.088173672778	
56890000	-21.7523458624341	-141.624743654362	1.13127257883708	43.4210288487339	-55.0483408430751	-151.225987872123	-9.67564857862343	146.487132580884	
59385000	-22.597350805075	-134.181327889796	4.91137090217558	-13.5594014333552	-45.2639286958092	-149.200294739554	-10.0592145859117	150.065287607021	
61880000	-23.0284557348972	-120.291735142005	8.2333266146498	-69.5574985220316	-36.4965938374715	118.848627945207	-9.2125626944928	146.466434780577	
64375000	-20.6541524911551	-99.1028694120968	11.0517523503754	-126.303300473937	-54.3455037535544	56.5931626264999	-9.32604754097642	146.344138228319	
66870000	-21.1625824876862	-85.6541129750332	13.4616510663071	178.004695349681	-44.1836949641434	115.587820738209	-9.45202706580366	142.920476137623	
69365000	-21.9088299825523	-72.9150147403695	15.4834207310896	122.45107449532	-42.8674875681153	-15.7816212388095	-9.98697473934723	138.614109073926	
71860000	-21.6274328784445	-54.7047951750783	17.0572856804474	68.777552478872	-46.3230140487526	-109.545059556486	-9.81920878645993	137.394646407353	
74355000	-21.3762360697557	-40.9132844336514	18.4297486584578	16.3215718703905	-46.8636200127913	-80.1143748570171	-10.6078767681781	128.360171366847	
76850000	-22.4102165491232	-26.1009295004005	19.5128821158941	-34.2451714424332	-46.1173639783252	165.19619326982	-10.9680358500679	131.596291259389	
79345000	-22.511115260204	-13.3032674899662	20.4318667808575	-83.4674914456292	-46.7558761316422	10.6754815572621	-11.5355022694641	129.779452340678	
81840000	-22.4477294999558	2.75346591946131	21.2461268820007	-131.268807108586	-45.8915615474034	99.40383341447	-11.6365917003069	127.707452598318	
84335000	-23.8909778157362	28.0144829138502	21.9573360990661	-177.174679497725	-47.5925158326795	-20.1327800831587	-11.8277956022474	128.745335786064	
86830000	-22.8315138574204	34.3622961128851	22.6700411659148	137.018654718756	-40.3951226985756	-120.709033020453	-13.4282063156268	129.157161422547	
89325000	-24.0638326297836	63.4926313125232	23.3576334804756	93.2056326089366	-49.7403576321801	38.1668244253268	-12.6030591098013	119.501882017297	
91820000	-22.9088243851096	76.9643690434212	23.9320001766057	49.5255807156815	-44.9691581611008	56.9457555998343	-13.7213785157218	127.836226048373	
94315000	-23.1110311911245	100.849261643494	24.5022312050432	6.45481318219282	-41.2391312662335	127.354997170343	-15.0913888477581	132.647357189577	
96810000	-24.6606292075962	119.01716650529	25.0540840556863	-35.9435761864689	-53.9911451719954	137.65362869609	-11.925190391695	135.414797145862	
99305000	-21.4870344938998	130.088057914545	25.569097542059	-78.1810351313609	-38.1249216032238	-116.994012719153	-14.598590302938	129.929840945152	
101800000	-24.1941454976379	156.70181707919	26.0490051027878	-120.217231233775	-66.4917500866627	87.7422421712241	-15.591490778658	112.822000450317	
104295000	-21.538727721347	168.826287791357	26.419629201325	-161.250146578097	-43.0222900945574	3.66856664380475	-14.4166757588722	130.274645098532	
106790000	-24.0885621079485	-163.296962587594	26.7202734690711	157.759353421554	-49.7431770809255	-82.9819512894215	-13.611888598686	131.389990825987	
109285000	-21.2086694175771	-148.744602780083	27.0247375248917	117.137195571198	-39.3296500292024	-167.800250519068	-13.6284487873046	117.222495224559	
111780000	-24.2030000386134	-139.521345919331	27.1994122668673	77.0039003454024	-48.2938221338319	2.56823581002294	-14.8209868667392	115.964957709583	
114275000	-22.3942007124646	-117.68160794677	27.3963657527316	38.2033105032302	-43.8699975404157	-59.1707682596578	-13.1564554765205	122.038576613895	
116770000	-22.8325655033838	-117.382919992194	27.5488992666774	-0.771001632386768	-47.1016226992348	-81.1204366800793	-14.5769858691351	121.47547061431	
119265000	-21.7179207920033	-87.5798728125452	27.7220475328749	-39.0270151394642	-42.5652390808444	122.352609203894	-12.5887945149312	117.104683711965	
121760000	-23.2739228316304	-69.8340188363664	27.8938331820952	-76.6097444373969	-53.3531629660152	-29.1105305548267	-13.4541239849767	132.501637587059	
124255000	-23.5590527310714	-61.3788213554829	27.9583934728668	-114.003959628754	-45.7116969972999	-8.94556028846334	-16.236420378164	148.701112162184	
126750000	-22.7902530909561	-35.4598458554729	28.1831851004642	-151.475270092655	-41.2916509831796	-26.7242243308055	-13.3737826602837	119.277043717644	
129245000	-22.0648205749723	-26.1753488008625	28.3672454656471	171.746143825249	-48.2258255667351	-73.3098296928397	-15.485956423131	133.616440030797	
131740000	-21.8910155199508	-23.3684318215432	28.4956844178395	134.871295259557	-40.5344961346086	-44.5908904756997	-15.143639808434	114.761769839774	
134235000	-23.3113364229738	9.64730674974577	28.6902810367897	98.3062114277826	-53.4131390457115	-1.38854833106026	-14.6235728528692	114.733498876466	
136730000	-23.9358187185488	23.2244418703569	28.840609012304	61.7961039138304	-47.108711327898	12.9261517858729	-17.1072199654644	115.306196948252	
139225000	-24.3852897043632	43.8299789535675	28.9467941512672	25.8166756110802	-53.6283811860377	13.032066348436	-16.7041507103646	141.936574708445	
141720000	-23.8811605383005	75.5612102499665	29.1107816167038	-10.5882064983846	-42.8458232529946	-21.6961113152093	-17.0713447635011	135.127162885852	
144215000	-23.1973307671288	75.356406099589	29.2609815923734	-46.4309485062399	-41.1841739710845	-144.506175962477	-15.7028774699354	123.113668408678	
146710000	-24.5900234920512	101.693300846187	29.3001878714747	-82.3455414377528	-54.6485004881393	-160.201515983877	-16.5275620916626	121.604285658149	
149205000	-26.0959014713962	134.073577394293	29.3884362698834	-118.001018803856	-39.4169660807327	-137.409602185472	-18.1749908432743	127.537076318373	
151700000	-24.295144362138	143.472591751617	29.4762264340155	-153.520017864266	-44.1771685398266	-78.3938677110834	-18.2873263286235	122.100959945375	
154195000	-24.9191460451599	164.253857428146	29.495285561642	171.056413457067	-44.8319774953123	-24.328514953347	-20.0439727574848	97.8595280040168	
156690000	-24.2333309764151	171.001326470425	29.5539440077043	135.960475192811	-40.6588004260532	130.333459226038	-18.9703756070036	108.964382523695	
159185000	-22.7741689243238	-154.113237360218	29.5884578913455	100.952925604418	-40.2872636458209	73.9165961752699	-22.6070136877934	87.0098630181022	
161680000	-22.5148314728894	-156.07205167521	29.6485572645263	66.4435148813459	-43.688554297131	-170.56315822526	-21.8734250338138	106.733795018084	
164175000	-21.6627126300282	-137.529230813191	29.6577756051042	31.9878670431983	-43.7944729383076	77.4473143869063	-17.9603726867181	129.966143720693	
166670000	-21.0513319412396	-117.650015391279	29.7169924925156	-2.47100647480245	-56.5306567224772	-85.8121234180627	-18.0058706342584	114.719769919573	
169165000	-20.0602827075559	-107.918159189465	29.7723699248145	-36.6779883189979	-42.1317579338157	139.113072295394	-19.8304733098594	113.368233645353	
171660000	-23.0163250875795	-101.621490168904	29.7819829011173	-70.9242542270906	-38.3733707338566	101.205934745937	-18.8631408436453	121.081239151188	
174155000	-22.5991898258558	-81.9552065758431	29.8223014673359	-105.083017552146	-41.1537073112807	143.170525798003	-18.0827483109335	106.135332462258	
176650000	-22.898593801937	-77.8590027353445	29.8824396256198	-138.87122825026	-35.4939535164945	-114.117720890939	-14.9992802435813	88.3014994980675	
179145000	-21.5391771341333	-60.6625583093763	29.9031356544629	-172.699869695952	-40.1420854781923	-30.1279599967586	-16.6144842365853	117.919701952622	
181640000	-22.9108217564243	-38.6237674333282	29.9530991820525	153.575569073317	-42.0560658176338	2.90080904357518	-19.4946717636221	67.8471597232497	
184135000	-22.4970930537696	-27.9110055260701	30.0322722656416	119.493416899121	-47.0410375521241	54.882676502367	-21.2335926517079	131.790021391941	
186630000	-23.1100945686179	12.3266658723345	30.1042622636476	85.9168194507658	-39.6911404599695	-59.9427561107777	-18.0508780994062	121.244221319832	
189125000	-24.4775406560355	19.3913085111577	30.1316264880117	52.2231044326396	-53.6470883637403	97.2763912885719	-19.5803290343414	111.839739744548	
191620000	-22.3508165526548	28.2071359673238	30.141674614931	18.4277514002345	-39.2285199672147	-97.0634055133821	-20.6004055867137	120.822644176232	
194115000	-23.0173540541352	63.7430187079181	30.2009634730078	-14.7056955539288	-55.0362099184507	97.1363597518373	-18.6268794301204	116.808340983105	
196610000	-25.355744814068	75.9521972819853	30.2528609361535	-48.7456557871316	-47.5185607534132	-43.8520848281083	-21.0004958772376	132.005713932094	
199105000	-22.7824797291025	93.8949089842037	30.2381036864206	-82.013399216861	-42.7535688011561	155.174054777211	-20.2137244400929	120.09839129736	
201600000	-25.3416249957934	133.074331100473	30.2424488924856	-115.371110703694	-42.487341349466	-20.1679153014151	-18.1885257712378	140.346477064611	
204095000	-21.1304713397516	138.275966725544	30.2536476309031	-148.699120749384	-41.762316744517	-54.3351398814097	-17.6081281146806	151.804697230871	
206590000	-23.4510777462739	150.591408196628	30.2906203698124	178.286667634572	-47.4512602747154	-133.994959486096	-18.7908153740278	132.792565704873	
209085000	-21.2985043762923	166.770048370986	30.3361855758472	145.068966390493	-42.0574201052285	-25.1452627675416	-26.2867724389673	91.0252968253093	
211580000	-21.3135649883935	-168.438462753848	30.2841023168607	112.072961861121	-42.3335941292546	151.702587556207	-18.7235785595888	151.840644320395	
214075000	-21.3728925914252	-148.195606741259	30.3572938538817	78.9714003640892	-44.3728545445758	-140.721294216391	-19.9971151674016	120.661535354119	
216570000	-22.0978778029756	-145.557750713389	30.3825218034144	45.9517799819318	-43.7211877539424	28.9165246598547	-25.0058429504579	81.0137490066863	
219065000	-20.9685985856288	-125.015272737555	30.3785639527218	13.1311731247203	-44.1262774887357	-11.1813952989547	-19.5058840212814	116.405190415577	
221560000	-19.7390021368651	-107.920154328589	30.3891581832648	-20.0271520401573	-41.8387108073698	0.895777005378279	-23.8741701907658	138.517482425793	
224055000	-20.791966200972	-94.0836858547296	30.3823189525474	-52.2723187823279	-50.3635018413484	99.3001991158712	-19.7042957061373	163.430751283492	
226550000	-20.7978890919821	-94.55887222823	30.4067711334758	-84.9567118831541	-43.0563679756531	-33.5330109462119	-22.1630948074564	132.454447947986	
229045000	-23.6069949741638	-61.7623698187168	30.4679943304324	-117.61360001924	-37.7026161438939	-86.204457673034	-25.6574241617356	117.614794252841	
231540000	-21.7301969627963	-52.5335661302159	30.5244400130987	-150.407576776107	-44.6865464707039	-48.8501594764842	-23.8116385672101	131.841799517723	
234035000	-20.1351142798572	-33.6951990127292	30.6108937585567	176.676525967259	-40.9513529190748	-120.57931618154	-19.6348057116166	107.438883269453	
236530000	-21.6670080095037	-35.6760528072348	30.6628631860658	143.878149260689	-51.9236265485087	-162.158104755853	-21.4563497138756	118.148911781536	
239025000	-22.1202806702353	-6.18337883692575	30.6330613238707	110.91851850351	-47.1496654170816	73.3803533883378	-21.4231122357894	105.389629498929	
241520000	-22.2550391221198	2.54445857551054	30.6378882822625	78.0181110820373	-51.5585386869314	-41.864500183055	-21.2121675156176	118.557492697841	
244015000	-22.436002558647	17.9310857469167	30.5562582638848	45.4464437885436	-50.0756383497576	75.0561266155591	-22.7865838110886	125.782162146398	
246510000	-22.2575616691891	55.2080840620854	30.6097937536409	13.1825674837226	-42.2286192633607	-174.686277622851	-19.4822058675644	106.366602333133	
249005000	-24.0843456103145	66.6298755224593	30.5588349531654	-19.1209597104495	-59.8787160092818	-39.1465207582124	-27.5575216726445	100.811787820772	
251500000	-24.8990480603657	72.6105750591648	30.6040634523468	-51.323518721902	-47.8328569562642	127.097001636654	-21.1827631452399	140.219671980604	
253995000	-24.0281181756023	83.8824940045062	30.7078195177832	-83.8139580952736	-38.5016048375278	-133.089445183056	-23.7506055848194	131.657973587897	
256490000	-26.2212901213199	135.972849919451	30.7547811307936	-117.276415510538	-50.176193497481	141.103661047475	-16.2663221053601	102.375576298394	
258985000	-22.2210331648786	126.952224719571	30.6685171107905	-149.468702538145	-44.8038935264771	-2.66357881391196	-21.8387257667064	157.076137012053	
261480000	-23.2410499073239	164.038652937185	30.5609862683332	178.145842061973	-63.1869568173648	-97.1662536454764	-21.6777055518593	126.524139848566	
263975000	-21.3745065032636	-171.920225806786	30.5505006967932	146.197523336714	-44.7739306233282	-95.465228314697	-15.8634183861273	108.75573092554	
266470000	-20.5412433608187	-160.175443750493	30.6211121799716	114.563931068964	-39.5345733609344	-103.362535822415	-21.2646709734548	116.094401700482	
268965000	-23.9888156578958	-138.398501139613	30.6810283729569	82.0992807394819	-45.7500942873443	106.113404682259	-18.5598871665643	99.4696039798632	
271460000	-21.7467481504598	-122.697339945643	30.7483775535509	49.8031891053249	-48.1100627166943	125.475669769271	-19.310146097624	96.7660012475226	
273955000	-23.1770987697709	-108.834269011983	30.7709949656934	17.4135446088805	-43.0383213708364	-167.282507013785	-21.1807885383278	93.2837597813718	
276450000	-19.7156628297237	-101.352178861544	30.7958331260944	-14.9531946122146	-44.0105747218551	115.359538252151	-21.3825332058512	157.638635931532	
278945000	-19.2306718200287	-92.2444318803842	30.7961683987473	-47.8996167194946	-41.3505301201452	109.498598359764	-18.4602260909467	129.589829301357	
281440000	-21.6754802626667	-71.5907364163648	30.7123378144393	-79.8480837752992	-46.0375120070088	-65.53498457387	-15.9862801476741	90.6078935907596	
283935000	-21.365966131677	-73.6240598021133	30.7470489759545	-111.168363495188	-45.6560704417809	171.633753625347	-18.8693197156723	87.4056189164059	
286430000	-20.669579958185	-56.9725805357184	30.8922611361992	-143.374114707492	-47.2054537321218	-76.8861825816662	-20.861432066829	121.496927466016	
288925000	-19.4173279548179	-39.7353382220608	30.9426494144512	-175.906206655129	-40.9649614169138	-13.1930718263674	-20.8252884787255	74.599698660429	
291420000	-21.7812503010193	-15.0536366653056	31.0107405037343	151.256343213221	-52.2136243354725	35.7600159912132	-17.7031502484605	102.432364411208	
293915000	-23.3803704296277	6.74478309074233	31.1408232287651	119.031601119479	-46.4076625641779	-118.281798579605	-22.8436526303324	168.326713681458	
296410000	-22.2481621544259	-10.8547082202961	31.0581851786103	86.6451401770543	-37.8699473966632	74.831455886321	-23.1265908723128	62.5760993962839	
298905000	-25.1064532244855	17.2239102823843	31.06579403091	54.1148392865096	-42.1812862781602	87.2303874931922	-24.3945105487478	84.760502088317	
301400000	-23.6191320265925	54.690141202842	31.0715514647575	21.5603252816826	-55.8467147664401	40.2084407290796	-19.669789441536	71.7037602182603	
303895000	-24.6898311030269	66.1667374637791	31.0772079397056	-11.0769550430907	-51.4648781923614	-138.030067846748	-20.8471916288572	86.803957054026	
306390000	-24.4327470940928	102.788142051338	31.1253656195635	-43.1898860050342	-46.2247502344751	116.462990607795	-27.6213605697561	100.40930719359	
308885000	-23.8956171579021	107.471152205045	31.0854013500771	-75.6793217830406	-48.5749015768658	24.566086054011	-22.2011363281295	80.8725101996896	
311380000	-23.8005467815195	134.690204650482	31.1300312538819	-108.262938815196	-63.8105534446461	-59.2741905851656	-26.3987688871065	167.262834804676	
313875000	-22.5479702803973	154.692437832493	31.0465700188973	-140.49203379273	-54.8530040011017	150.764578091231	-21.2815451390837	108.208236263728	
316370000	-24.1511087508593	173.278377579518	31.1314690260108	-172.426100674077	-55.0595389166759	112.838796553875	-24.6703540211249	46.59710231282	
318865000	-23.5567227102215	-162.851138481877	31.1058347390345	154.69395778952	-41.2700914615721	110.467121649459	-28.397682544247	98.7258943333174	
321360000	-21.7766008032652	-145.296358791817	31.0785916206946	122.500998176056	-45.5207470773728	114.233439198877	-24.7914627330896	111.59108447779	
