!Keysight Technologies N9923A: A.12.45
!Date: Friday, 31 October 2025 04:39:17
!Timezone: (UTC+08:00) Kuala Lumpur, Singapore
!Model: N9923A
!Serial: MY61181427
!GPS Latitude: 
!GPS Longitude: 
!GPS TimeStamp: 0001-01-01 00:00:00Z
!GPS Seconds Since Last Read: 0
!CHECKSUM:0264430868
!Correction: S11(ON U?)S21(ON U?)S12(ON U?)S22(ON U?)
!S2P File: Measurements:S11,S21,S12,S22:
# Hz S DB R 50
2000000	-21.3943486180803	-161.222605924351	-42.2437430023092	2.42916612762121	-44.2232770952946	-128.519292867015	-0.0151824015952016	-22.7047030644755	
4495000	-21.0944660445451	-149.141849407536	-37.9246951504145	60.6913168064692	-49.2605761453908	29.0078900180031	-0.451579117633989	-49.8507935194759	
6990000	-21.6445444372002	-135.582995026478	-46.0383978099221	19.3680832494494	-40.3727153130396	-49.7653935288712	-0.752951580255528	-74.009601665558	
9485000	-21.7946856173902	-118.887228448051	-39.1653247081736	101.967256053708	-41.9371489764372	-3.08226022491948	-1.49405732187621	-95.2592529916163	
11980000	-21.9033241204653	-102.917855779651	-36.2975531862101	-23.8393932019033	-45.6151064629055	0.071924171887912	-1.82670472185763	-112.10440740706	
14475000	-22.0622987629741	-86.0842577425991	-61.1439802669491	128.137177321192	-68.3316684498919	-113.368627928196	-2.23679768401263	-125.951271322831	
16970000	-20.6533273628161	-70.3857627444238	-31.2655550944482	-65.7001974096149	-44.3889092105437	-62.0872611345067	-2.49927250884363	-136.912725728327	
19465000	-21.4707765996011	-60.6959361711861	-51.1960160369265	-140.241391257695	-42.8601865901577	63.2915386168015	-2.82328377285872	-149.406160031495	
21960000	-21.2031313120959	-40.5482502405518	-37.9599529340727	-52.1966879699552	-47.8220055694586	-51.2437063893908	-3.49996908739195	-158.827465923228	
24455000	-23.0499408534164	-25.3734846760491	-37.152296703985	154.360302192576	-46.9942920895427	171.750235390702	-3.78516052184765	-169.611644301681	
26950000	-22.7910528832267	-8.1582152459311	-32.5935778273518	175.711852785745	-36.0217049309596	75.9260032656872	-4.11533411198379	-175.096963973432	
29445000	-21.7175234822353	0.434302065443197	-26.0053971533997	69.0182450190092	-37.7607806008745	154.334532409421	-4.17851093480124	177.972312018193	
31940000	-23.1451572404072	25.9708406106041	-30.3554448840123	-21.4434970493942	-44.0530154573576	-84.3122267223682	-5.25689203517504	172.249588914036	
34435000	-24.2313001006488	41.7689039898098	-26.510700759445	-91.2060653513291	-44.7201509782868	-162.180522138563	-5.83583175312055	165.224278470302	
36930000	-22.5927736686253	59.3191589083546	-27.9297366508468	102.242468830283	-39.2586666952506	-86.2370941749422	-5.71176512215392	161.319333823437	
39425000	-23.5629306244501	74.0612294102712	-32.752684067615	-65.9225592987614	-46.3896384018392	80.5017768196993	-6.9739760826312	158.171918168539	
41920000	-25.3893055112093	101.842429850417	-22.770336023522	2.80720616079253	-53.1995125744925	-108.652033335373	-6.8971031802254	153.919291517998	
44415000	-24.2110258530717	128.866467588622	-21.5798174010169	-68.7231102534377	-39.3392709292895	176.036328456218	-7.87508205784939	153.265113438563	
46910000	-23.252136184302	136.678782345282	-15.572720718916	-112.866876997907	-41.6322537154235	0.332788403739273	-9.23801601743591	148.5867098099	
49405000	-22.9748879635588	157.464967964102	-10.8183219211049	-164.130772628455	-47.2239028352648	-29.4591483270813	-8.83993503757007	149.225580169307	
51900000	-22.8352073444958	-178.801568423719	-6.89447766859396	144.130767041407	-52.934152547182	-175.560448450915	-9.08408765845392	149.021915661866	
54395000	-22.5559834568421	-164.410589498005	-2.56572338014268	88.115693482507	-40.0127909611839	-97.3003024511858	-9.04283128680946	149.973330525807	
56890000	-22.8511796840671	-149.378273652196	1.62769901119568	33.4588726568722	-41.7664624114708	-121.664450028667	-9.88815915655544	149.493681219744	
59385000	-21.9876642686965	-138.068586144538	5.48343157635759	-20.7688884690107	-47.2750479140291	-35.4559144132681	-9.60523205017754	146.521125966519	
61880000	-21.402514332534	-115.184694192789	8.73332767549868	-76.1256915271175	-42.1764730168065	78.5738601738458	-10.1823976135126	148.339933180447	
64375000	-22.306981354587	-98.7723837813819	11.5837985604215	-133.763507325415	-45.3793431349631	172.275078771352	-9.06930882356579	143.292470134683	
66870000	-22.3417834938994	-74.9115783436367	14.0023260868182	170.434139404664	-47.6085873172205	-167.667728238109	-8.90798293874469	143.493171268548	
69365000	-22.1176405400592	-70.8455891053606	15.9597939987243	115.690408294593	-50.8477939190433	9.91211514223765	-9.77496698017926	139.119813173696	
71860000	-22.2274895680555	-58.8948999523726	17.5809999930435	62.2573771517873	-51.6845825110418	-117.33337593811	-10.4398861039651	136.880542201677	
74355000	-21.0449058312757	-42.7709327562732	18.9027340682171	10.3775605065701	-51.1867106592497	-143.759890531591	-10.192639118455	131.748489176949	
76850000	-21.9028347341199	-32.7360574477719	20.0128991485348	-39.81900829538	-44.239249211154	-57.133341481803	-10.8071305020089	134.570020776365	
79345000	-21.8265609581924	-12.4331733091889	20.976007651624	-88.7912713715582	-48.6008850160724	104.706063177783	-11.0872751147802	126.696863612506	
81840000	-22.4035147563821	9.27155275535883	21.8053728051792	-136.087900102721	-42.7146873196408	138.497217410183	-12.7386125147868	133.479967882963	
84335000	-24.7931067682	30.1882156295702	22.5442106149831	177.901280681677	-37.9388078665093	31.9784457495563	-12.1911583230626	130.145889420344	
86830000	-23.1649788628805	48.9840815885572	23.2622315053799	132.697337770585	-50.8565889299118	160.66923258108	-13.5417418903694	134.943822176657	
89325000	-24.1928948083176	63.7944084659953	23.9012500699006	88.9799889027917	-53.4584345019816	105.586186775495	-11.3283382510563	127.700719894276	
91820000	-24.1437548520329	73.4450724517193	24.5217662511812	45.0183803472058	-43.792377682631	17.4345561594834	-13.5627446893928	129.876894534343	
94315000	-26.5255088351945	85.5385645783923	25.1385040663641	2.06032692790654	-43.2362559471345	39.8336896900216	-12.2878406345132	133.980481974374	
96810000	-24.6569895756939	121.346094933829	25.7279665136063	-40.1815213192459	-46.3814998495003	-3.80018111409716	-13.0965620380739	125.927465169992	
99305000	-22.7994335719456	125.019333634572	26.1891919955455	-82.3976745708407	-41.6259309349105	-118.724751528791	-13.4548299854758	134.060548547023	
101800000	-24.635306792146	151.557746308413	26.6935428647321	-124.22062024717	-47.3990838161988	-132.734771292763	-12.7763266236856	127.935213100063	
104295000	-23.0217318089106	169.423279519563	27.0848272468037	-165.351277036457	-55.6550273596921	174.478250997554	-13.8985798779338	138.108234986625	
106790000	-23.6914889105293	177.309085790431	27.3677252513291	153.507793013965	-39.6995317209181	24.3195880830422	-16.3314096960475	136.427690523628	
109285000	-22.7660728423895	-156.831965636683	27.7518575673565	112.986734476514	-42.9445300388944	152.506351733949	-11.79641987829	116.470064872147	
111780000	-23.2553670385909	-127.929124303484	27.9138395645185	73.2014252574412	-40.7650131120828	5.98028732193751	-11.8913910688662	127.450141476742	
114275000	-22.9030876620917	-120.043385992328	28.1276433711539	34.0170334212281	-45.2233332778886	-9.6865523135691	-14.2263043761681	130.323455852329	
116770000	-23.2158625093006	-102.764634186532	28.2968247866875	-4.64671367724555	-47.1134778630047	-130.558052936785	-13.8342688167298	127.442895986731	
119265000	-24.1502751742218	-98.0864404068601	28.4423097472762	-43.2582506535529	-40.7916622860227	-71.7220572259296	-14.5728608767778	122.276988023417	
121760000	-22.1860120960935	-71.1047428342277	28.5916873526313	-81.0947830058435	-42.3446317061064	149.576564273043	-15.2568814289345	128.77090882631	
124255000	-21.5241479304964	-45.5143786920385	28.73564535113	-118.708044635124	-39.2113706880766	-110.398222442529	-13.2438191411443	112.222419923455	
126750000	-21.3997901384735	-41.7978712112807	28.9091189983476	-155.77042705252	-49.0371782609404	-88.2813047350362	-12.4078671344646	120.996184372556	
129245000	-22.1939959487911	-34.135988441787	29.0085495926981	167.302648630546	-42.2237358594539	-88.5563978371411	-18.2509427084216	124.993136904353	
131740000	-23.4703377484543	0.808657530634043	29.2264603543448	130.840367278128	-52.8124621293582	69.1214220267391	-16.9651269776853	114.306480077655	
134235000	-23.1609549359441	29.1673599398104	29.3554381834934	94.2417794591664	-40.6252895863143	156.862597110498	-16.9300574845557	124.349508951914	
136730000	-24.0232555539249	18.3594126351386	29.5627239860996	57.3899213615353	-48.8007547965236	49.231043493967	-15.8624813709002	122.561502125518	
139225000	-23.9222341369835	49.4807859843482	29.6438925182073	21.0422864906811	-51.9939953673569	157.356424921465	-15.5699479507762	117.193338105988	
141720000	-23.1234943936514	78.3400990942914	29.72254625061	-15.1942099176725	-41.0931055263298	-38.5119718786322	-15.9692617545394	103.972288045207	
144215000	-23.0854464505894	84.6736598309118	29.8551724742906	-50.9803652089993	-59.0061857556609	-69.4115921380687	-16.2386654822422	108.456681491492	
146710000	-25.7408383263215	107.647895704192	29.9664906896928	-86.8927928489538	-51.4670316672957	34.3708963869971	-15.0832534960128	125.015838549028	
149205000	-24.6664867319051	128.315828705457	30.0323081550494	-122.589178905651	-58.1603963784056	-58.4920995097326	-15.6485198462383	120.342949773609	
151700000	-27.4622067029626	136.528138693835	30.0819257451756	-157.975771160702	-37.6514175509449	-26.4629618251893	-18.4941832951401	120.005839464522	
154195000	-23.7882454521185	163.595118180945	30.0836855438984	166.594954005563	-46.5367536833043	-47.2360898264221	-16.2527181842552	110.992672333613	
156690000	-21.4659073510311	173.034686293264	30.1211652373418	132.145730845688	-45.7124833346125	-168.360779856503	-18.6475222870502	98.2249794566837	
159185000	-22.1309528882889	-161.458968615815	30.2041448667918	96.8045167104306	-47.6092284814589	39.6617485655532	-14.3788420000263	135.752936701468	
161680000	-21.4228266556836	-160.243633529668	30.2075122964145	62.0038134597226	-44.2031655633593	-79.9951462527447	-14.6346369544848	136.462657610415	
164175000	-22.3974441814887	-137.971802779921	30.248569056356	27.9159555171678	-46.0847523720386	-148.205987357038	-16.3518996320294	126.123682320702	
166670000	-19.9640788749732	-118.683950471569	30.2803535675514	-6.42495102096669	-43.419092263368	132.949039831421	-15.2619831617391	133.746103859406	
169165000	-21.0298331062784	-87.6961894721615	30.3292129651879	-40.9843384209105	-34.882655932717	-92.9850246522834	-17.3504650999858	118.788198375523	
171660000	-20.7952840572458	-101.802073874522	30.4311470096383	-74.8527172316663	-45.1047146450716	169.778459934088	-19.3603188845967	140.877094993487	
174155000	-23.4231373005651	-83.1158247467628	30.4422487893613	-108.828661150393	-41.7126480553049	143.361249268938	-17.5792943856624	129.465535714053	
176650000	-23.0442824142332	-58.010337327534	30.4847918380222	-142.767003106878	-47.1305978995243	163.943437900637	-17.9850937672639	131.845546841954	
179145000	-22.6215311006817	-41.0387337838349	30.5940439791292	-176.822508737608	-41.8237279334953	-175.658472218589	-18.0827662119511	168.022893012442	
181640000	-23.1303688468133	-44.2674240575126	30.5753198026572	149.819834631065	-38.1614649180414	2.59215644553499	-17.8868145885474	101.406468093306	
184135000	-22.9139823199403	-15.4282377815103	30.6689241338742	115.645123006258	-46.3890477987665	-75.6284705294531	-24.4398916693351	114.617212673091	
186630000	-24.3459788277298	4.8343369717595	30.7063365397189	82.1277119132653	-42.5239507945395	16.2494717068202	-20.8145066994121	132.279684666521	
189125000	-22.8570543199188	10.3530270234956	30.7113465284405	48.410084861308	-42.7104271948464	-154.577661132761	-19.3098476928175	101.1930713832	
191620000	-25.3915444606147	41.1368109767537	30.7517196074456	14.7406207126181	-43.9543281727223	171.257037718929	-19.5646228546916	119.451027554858	
194115000	-24.7739455620779	58.9551510803612	30.7804392360496	-18.9804040018373	-50.488523900371	-71.8761975467659	-25.0722932232496	129.584390461002	
196610000	-23.6073963067795	84.6810125722846	30.7993355579626	-52.5758072150821	-41.5287452381241	174.194222028734	-18.2112129368646	178.716121827466	
199105000	-21.9684320784021	95.163430946192	30.7939850586299	-85.6240941950387	-46.78159113445	169.226755313439	-17.9927172252398	109.297591348755	
201600000	-25.0683186831253	116.7884561788	30.8119226669102	-119.03327604376	-42.5436524262895	51.4171598785974	-20.0512733700999	121.481355168131	
204095000	-24.8646413283505	143.14741996406	30.863550581535	-152.1306442498	-41.3872612233186	70.5390607981668	-22.2579094201657	106.317396365099	
206590000	-22.9553247391677	148.349995806615	30.8590565298148	174.74282841271	-55.3564743060166	-145.649210057196	-25.3824630174452	102.000775966252	
209085000	-23.6442123335964	168.792149865057	30.8257886900992	141.832164616147	-49.1216595814619	-65.601900810586	-17.5594582912889	163.266565360408	
211580000	-22.1515610797862	-168.325428097026	30.9081498342177	109.043033180872	-52.4847082110438	96.4610506308569	-19.1860138256453	98.2727590485946	
214075000	-24.3985158946201	-159.767134819103	30.9462415548102	75.5822938396153	-40.5306264200025	-21.0937442343904	-23.9324167391099	87.3729768405525	
216570000	-20.8617125860559	-138.919918636857	30.9240242484452	42.8880018176756	-52.3875584874046	-42.0298566504251	-18.5907892821329	125.636379359589	
219065000	-22.0392558422834	-117.436872837515	31.0159422223111	10.0772660395054	-45.8787330971003	81.1913267442896	-14.8161018728168	92.2532663616911	
221560000	-20.6596069915374	-112.877259506165	30.9653432060554	-22.7875277871739	-56.1142239285417	24.2067571880882	-19.4180984397993	129.495687049592	
224055000	-21.9231249949629	-107.206912857166	31.0139514163403	-55.3511870644113	-44.2175382615194	-116.094623281964	-16.6122438042936	133.447962900143	
226550000	-21.2063843310544	-86.3517859392767	31.0177161861699	-88.4458501005016	-50.1210781920503	-70.3634748515712	-21.0696142122049	117.12316166375	
229045000	-21.3960576069136	-81.8259373188195	31.0744912915753	-120.873891393982	-42.9018510526853	33.7905583484644	-21.377199895007	129.12765303792	
231540000	-20.9648155881548	-54.2244616184463	31.1530083734013	-153.880373054417	-48.4120913773745	-119.990064154878	-18.3982065947446	106.945359940114	
234035000	-20.2445273059601	-36.2207853921129	31.1973391779644	173.292468216698	-43.476028612058	-94.4827946484667	-18.4979040611634	93.5740825837025	
236530000	-21.6457298907898	-44.9409776698003	31.2478040077723	140.445409232324	-40.5600494481425	-165.931872062262	-19.1603932895842	123.175929927991	
239025000	-20.7722617476008	-11.9835802671993	31.2001917093801	107.461878535825	-43.4031296722927	-20.9502996627387	-21.9974708931991	149.055271569149	
241520000	-21.1531970960134	5.32756267739541	31.2059875428889	74.5590942864428	-44.4707466527845	26.1569448510946	-16.7296977774223	123.301782678679	
244015000	-24.7213843003028	5.67476533822973	31.1607270235812	41.8924230312693	-39.0575155886227	-55.3779073977896	-23.0536714357499	109.341591337749	
246510000	-24.4913407209714	38.2999098298793	31.1970003616145	9.80589977549903	-57.2545484648214	-15.8158195345359	-15.1788231479447	116.241298156868	
249005000	-24.9694236602303	72.7523914948131	31.1609416123771	-22.8946352984079	-44.5312748544356	2.63512059457643	-17.6643823692127	97.676679873017	
251500000	-22.3525750262661	110.34609021225	31.1494626601972	-55.0097804806003	-36.668208856773	-27.134288006073	-17.484162747353	107.639227163745	
253995000	-23.1391185499728	97.8612417456671	31.1459570613882	-87.1492412054658	-46.9542739312664	-103.370119852452	-27.8322304852147	79.7721477271612	
256490000	-22.7624190532863	102.328965491531	31.2904428756605	-119.688853864199	-39.4771725150714	-65.6936671330045	-20.4557229977074	160.116176003816	
258985000	-24.2702359779692	142.4386896447	31.2329499233094	-152.977611454206	-56.592016657475	142.464366279311	-22.9753329171765	135.960113344192	
261480000	-22.8073733727306	158.837696647187	31.0815789092473	174.670248931248	-60.8300140176943	114.808271927616	-22.2069850745938	99.3857094490616	
263975000	-23.749558933371	-169.071803618633	31.0631278347106	143.067778372194	-46.3219106518765	-40.1440091107787	-20.9991072912063	94.1097760030058	
266470000	-20.5592624177512	-169.729006730383	31.164783033417	111.563431281382	-41.9055954625295	-138.606811865964	-19.890272435597	134.351456330606	
268965000	-21.3265967506705	-147.083056816637	31.1968115499159	79.33765743617	-46.4624299049332	2.24263860786129	-23.3421315127537	130.289013486718	
271460000	-23.4600127321343	-111.548628270846	31.3178806672543	46.9452042141845	-39.0008249035399	127.798254524551	-20.4876352928197	137.676067423822	
273955000	-18.627976393186	-130.899814532355	31.3395599082453	14.2429360028773	-37.8689760918592	2.55452776576868	-23.2009406440058	99.6548238233255	
276450000	-20.3865123321552	-96.1991451260831	31.3719583428078	-18.7762357433136	-44.4499015739824	163.794312801882	-17.0049728372321	101.917035823285	
278945000	-19.792745817752	-108.115342824022	31.4201692910395	-50.4863294808762	-41.3580704222599	72.4966395974749	-17.7822066324953	-173.053893500244	
281440000	-23.3627210282526	-80.7837111686806	31.337538284946	-83.0590779565871	-47.1523659263085	-5.58291715471799	-19.4558146037626	117.06237312434	
283935000	-20.4975813593142	-73.1617234498689	31.3456695517408	-114.8416403921	-46.0435053587003	175.848662318659	-16.2857202731481	121.323594460555	
286430000	-21.6313242120575	-49.3530741669495	31.4713040493261	-146.805783790718	-61.2476221830346	-8.05179622653977	-24.5228661958945	136.352634768641	
288925000	-20.3856705859688	-41.9537908428609	31.556568061571	-179.296638425723	-46.0108786842626	-60.4760869561027	-21.9001711443519	124.172497856519	
291420000	-24.0990458447214	-5.75059181487894	31.5665309906046	147.807967229926	-40.5438447990494	-176.973533733147	-17.3266409157176	106.037036576193	
293915000	-24.7002180544539	12.4931061971375	31.6354081191817	115.712534633705	-41.8224266864072	-142.260378913327	-20.4509648602823	114.64898188128	
296410000	-22.2643615177638	21.1766436158191	31.6168089422476	82.8709850955603	-43.4425337249127	-111.450339060919	-20.2433918667708	124.620520485343	
298905000	-25.6312033127295	38.1022683489533	31.6597550357207	50.7069809168524	-45.971137570958	7.41806673078523	-26.2350702909007	111.383320794902	
301400000	-23.8924435215177	59.9790380250558	31.5696813203415	18.3531041305506	-53.1257415089505	-104.211253023185	-22.5951236067149	54.1183164527895	
303895000	-24.8118131371385	84.4835186818388	31.6204051176504	-14.313613252108	-47.1792907072831	111.748365989104	-23.7590182663905	127.528816783667	
306390000	-23.5993575867062	120.732879382061	31.5898841532304	-46.4131292430525	-41.7255694215856	118.362085519521	-24.6551571178345	73.601902417752	
308885000	-23.4962057646871	94.6178210252443	31.6666909543577	-79.0567179006094	-41.1265980723354	30.2013423047234	-29.4237513421855	-123.314837754468	
311380000	-27.9492995114504	144.777317405598	31.605833367152	-111.089342877176	-40.6387850114421	-36.1164542271699	-19.7899317013652	96.7982729650301	
313875000	-25.3291178673376	146.699575548497	31.6337878792275	-143.243766776342	-41.9382157922889	78.2196400365119	-24.9957974712487	24.7706853750646	
316370000	-21.2482014879113	179.418425180457	31.6353473901535	-175.759368689676	-43.8587787757462	-48.7621657638393	-23.6569719877071	90.1362471270924	
318865000	-22.4637471082738	166.547236778617	31.6544758592578	152.024345878736	-41.8920016093428	-160.703429658589	-22.8931031374251	63.7671839047042	
321360000	-21.6824878883223	-155.298780651557	31.6098012136525	119.399936332818	-48.1769178210482	179.012043143556	-22.8613707919091	96.3713202291952	
