!Keysight Technologies N9923A: A.12.45
!Date: Friday, 31 October 2025 22:34:05
!Timezone: (UTC+08:00) Kuala Lumpur, Singapore
!Model: N9923A
!Serial: MY61181427
!GPS Latitude: 
!GPS Longitude: 
!GPS TimeStamp: 0001-01-01 00:00:00Z
!GPS Seconds Since Last Read: 0
!CHECKSUM:0635246553
!Correction: S11(ON U?)S21(ON U?)S12(ON U?)S22(ON U?)
!S2P File: Measurements:S11,S21,S12,S22:
# Hz S DB R 50
2000000	-21.1051050822873	-158.024942087795	-39.1586266256308	21.4905880710642	-44.9692699162506	-142.036565610663	-0.143504328919418	-25.4750472009452	
4495000	-20.869748758328	-142.118949855801	-42.3483292895505	142.707257620304	-36.1338695647425	74.3630499541656	-0.571717746934747	-57.9828738832177	
6990000	-20.6331947393956	-130.831002979271	-35.7893649058953	-43.6734397497728	-45.5115244907251	147.161367277678	-1.28709075377479	-89.0669472474387	
9485000	-20.3221151270085	-119.423398156674	-44.4029939945446	-67.0982893061528	-42.3842967418088	-167.529097177817	-2.32078992517647	-116.338075407833	
11980000	-21.0593056716436	-98.8595856393072	-47.1256606501093	-49.0909720576386	-51.0601879348762	25.6805114840344	-3.58810918210058	-141.032081981901	
14475000	-21.1920674066877	-86.4740084855949	-45.8215462409136	-18.1402607711686	-39.9341423262728	129.650761729598	-4.77988383127519	-161.873952688022	
16970000	-21.4420709579534	-75.7229508055518	-38.2950029796098	60.812968775499	-50.112655559046	-92.9392910406348	-5.94535054361619	176.855858557468	
19465000	-21.1800199454102	-52.689946140352	-38.4826770345178	-3.65382563617464	-53.1193340304992	147.838077464798	-6.94215159889267	158.371938477324	
21960000	-22.1029325751123	-36.1582462026287	-41.6075919268787	2.34159377542841	-45.6780671427481	-124.577003442845	-8.35302173418601	143.334469002121	
24455000	-22.4337371045004	-25.4134534705268	-35.8740262741877	-56.0879123553423	-45.6083934055115	-40.2532563703972	-9.83289274891308	127.108889446084	
26950000	-22.9431382651826	-13.9262976920372	-35.3756831445498	146.891178254828	-36.9525516665775	28.6137475857864	-11.5316880467084	108.805465142469	
29445000	-22.8935103568868	7.22131246462672	-40.8600759809398	-40.5120621117612	-48.3517468084231	51.4895767151794	-11.8379510732716	101.279227820935	
31940000	-21.9049992471751	30.2756648751613	-35.3232875820679	-20.334753175412	-44.2876627398623	-94.2659802167053	-14.9707846506227	86.549518147657	
34435000	-25.012784201276	37.5852908325035	-37.5373300296842	140.5714746626	-45.79954014144	143.1327921189	-16.2691442113326	81.403399180561	
36930000	-23.3735786701162	66.5107903049382	-35.7652913916229	18.9905884634719	-48.1617265667751	63.750481985211	-18.3861188747509	71.3543249319712	
39425000	-23.9412754677416	90.9510018452673	-40.0963618928001	137.191349003702	-44.420225202557	-110.742658669683	-20.2280652886815	64.2265267152108	
41920000	-24.0275418736708	96.4336040205927	-31.082572558985	-66.9779491341063	-47.7794030348657	-164.497983080642	-22.3022928074058	57.7570219899513	
44415000	-24.9410845085915	114.521989607766	-27.8020223606706	-166.034718459546	-39.1761023711825	111.458541859764	-27.3964480407244	74.5916082619936	
46910000	-24.912642603923	139.423738021128	-22.7261602163663	124.327274225868	-47.8275822744606	-46.1293789934867	-29.1609479114537	46.1697061204213	
49405000	-23.6808403731485	166.783854739567	-19.1321787433218	72.3113932348905	-43.6472934446261	17.3993389277524	-27.5246700507604	83.316035241208	
51900000	-24.1392241700825	-177.088126967291	-14.1849191787656	8.87120849188771	-57.2639593613552	-25.1805115712578	-24.4536095333738	102.666769768564	
54395000	-23.613412218894	-167.244973564554	-10.1415591140889	-49.3378481753332	-52.6322516831798	-156.469291275932	-22.4325251493324	92.7503314194834	
56890000	-22.9663501865049	-152.675572185137	-5.48032460499849	-106.666693534945	-40.253058839688	-151.155285600006	-20.5978871276515	93.973518851092	
59385000	-22.6628527095142	-130.730938266957	-1.94685083892542	-167.459378715484	-53.0866845511044	55.1326579103088	-19.2834217228579	83.3064629309603	
61880000	-20.8770982042033	-114.795716650835	1.60118564144465	131.543266820877	-49.4741754179699	110.265900726095	-19.1692681390373	63.9397309588214	
64375000	-20.3918783863879	-98.0239600233156	4.49222577778935	69.164056432152	-41.5333535850264	57.5267714790772	-19.2912966739617	61.6016591996176	
66870000	-22.093986221911	-90.7432019852363	7.06455620071352	8.13393986626352	-48.9560838706134	160.978996388594	-18.1493279916611	42.6558089690018	
69365000	-20.1623659778939	-69.5018599539204	9.24865630458679	-52.4553703437912	-54.5656504803339	-85.8642430334873	-18.3286359929449	38.1514917085297	
71860000	-21.9118580458055	-54.9802918848476	10.9597606050295	-112.251623400296	-40.1071295755262	108.709447012567	-19.2718010426462	17.7743662959666	
74355000	-21.2426940549371	-39.4452988858428	12.3781813890259	-170.37483201212	-48.6973354275138	-124.866382356771	-20.1015750583938	14.7725591206399	
76850000	-21.8575934192329	-31.678338844644	13.6485543210261	133.149972385388	-38.818687079326	131.349213268578	-21.9426068328568	-3.1715597999301	
79345000	-22.2016777089094	-13.5341590978528	14.6417775814813	77.8766308223575	-43.9063648950863	-155.578361710724	-20.8573202523503	-5.88030610883994	
81840000	-22.88800559609	12.2454916307637	15.5515458227867	24.4292858761531	-45.6857305648073	36.2552062545314	-22.4829958146489	-2.01960014789136	
84335000	-24.1966536958045	23.6055607157997	16.410407131578	-27.9573830025131	-38.2701765897634	-77.0409344260428	-23.2838026370498	9.97999344327241	
86830000	-24.4661190934502	35.6787135834855	17.1945445820615	-79.2394303247013	-51.1442334217195	-22.4934115734369	-24.8386412451897	6.90266371208691	
89325000	-24.4278794758872	60.793165611914	17.9384113326948	-129.452771907225	-42.7752382182465	-92.7931324014008	-21.1583215271522	20.5789450606288	
91820000	-23.6808254195763	71.6938640935548	18.6302981468502	-179.88448541223	-48.8860613196206	-111.143993964216	-22.2264758978748	-10.7460840091044	
94315000	-23.8538950909342	102.037980067333	19.3002699091639	131.317825163474	-43.9758204911374	35.4696471578887	-22.5298901496572	0.306902416693289	
96810000	-24.4969896083611	113.434602158402	19.9177845155089	82.3925218222746	-41.0203618779812	-55.5476715350423	-23.8425794048611	-16.3168844179855	
99305000	-24.8515072602939	125.746744915756	20.4751466183193	33.6810400362876	-47.9742212611322	52.5177499935248	-22.5912669154281	-14.75052424301	
101800000	-23.9282697869616	152.179864946213	21.0189067227968	-14.161846695993	-43.8976972297042	147.720579207797	-29.5014614622359	-17.149103975144	
104295000	-23.8101921512023	175.34205812393	21.4745991399658	-62.2566484950481	-40.167531450931	36.7625872109111	-23.2784327902941	-26.4419927822838	
106790000	-22.3331381440714	-170.713620849051	21.8694564898026	-109.508279562053	-41.3652242092358	26.1020473886322	-21.2618580986412	-17.3121999546148	
109285000	-22.9505120925545	-156.399107339999	22.2050117644961	-156.225856200031	-52.4523105319386	19.6547247948569	-29.001479131527	-24.6999006766986	
111780000	-22.7699177500992	-140.154498339548	22.4209866879474	157.39245314023	-44.4612297179085	97.6408773061688	-22.6378836216236	-40.0726607694122	
114275000	-24.0991367186753	-117.574550435804	22.6363121200952	111.753906657209	-47.2258703001209	9.46097721097076	-22.1411177451814	-57.9775284861459	
116770000	-24.4958341694917	-103.360336914368	22.8665159186733	66.6993813341375	-38.7391270461277	77.8204458924753	-22.5359042586572	-48.2036912354522	
119265000	-20.9019108388574	-77.4626910390473	23.0860053573657	22.1500644652519	-39.2035407059413	47.6453954932648	-29.62982089004	-69.3544801540095	
121760000	-22.2641030494057	-65.8947253829085	23.2778974348688	-22.5027703161393	-40.152636864363	111.798338397682	-25.552657088719	-18.701366485227	
124255000	-22.3215347052004	-58.030917349536	23.4633165648547	-66.1436538446092	-47.6090801350933	75.6267734297658	-26.0363649856221	-38.059366600084	
126750000	-22.5491236342399	-49.1160926533099	23.5758378795445	-110.073426037132	-43.4503212888393	-161.158429161765	-22.8192114878728	-47.9216411619444	
129245000	-22.3724052155197	-28.3409858898545	23.8298556345476	-153.389741415501	-43.2369144585743	-124.874680304299	-24.5237609112699	-100.899005708128	
131740000	-23.0822860697466	-11.4444211455806	23.9878381982414	163.545899281777	-49.0964199927504	29.1332561661955	-27.662908112123	-38.8767099728641	
134235000	-22.115472978428	11.798030026152	24.198673758595	120.528910982849	-45.8922605694321	40.5594843939908	-23.9113546424075	-88.9101730101756	
136730000	-23.700552153761	25.8610828647683	24.318810647965	77.7697860221954	-54.4016908997638	79.9551043841503	-22.4392615203708	-109.333880652295	
139225000	-23.9159343720584	52.1624293676049	24.455327433851	35.0871776545934	-45.6552870618061	-142.597600280598	-20.8325498007238	-84.5570266314142	
141720000	-24.6952558853649	60.6549361381594	24.5919300228239	-7.42349954757697	-44.9402987872501	-21.2958820764871	-21.6327062352877	-101.147847934107	
144215000	-23.5935647350405	101.836778256303	24.7389223526018	-49.9064929481701	-45.2767145182119	81.8899870413773	-19.6929562990556	-99.5767129117499	
146710000	-24.0897323248508	107.434758690808	24.8104029123549	-92.6339152891005	-53.6999863254673	-175.388202817092	-28.0938202755872	-84.8538333810221	
149205000	-22.8617667669664	125.096192882709	24.8857373449155	-134.676698080602	-47.4664825747825	112.867493742771	-25.7948689884475	-96.6914123154337	
151700000	-23.3352391104121	150.537242959764	24.947775671966	-176.019960963208	-51.3770034515689	130.479404445864	-23.8527089775367	-92.8032211525267	
154195000	-23.4306656446912	157.648317130158	25.0044613467582	141.905290348294	-39.5871723986486	177.340312831797	-24.3895595992294	-119.638961801242	
156690000	-22.9329481925055	170.292380830583	25.0540927108735	100.743836150959	-39.9395530709828	-168.818346698083	-23.2897533873395	-116.696670058276	
159185000	-22.5474470137782	-172.094385536513	25.0870727913052	59.5660904500483	-42.5452022245792	137.632023513097	-26.2525066946014	-95.2461823590872	
161680000	-21.2681254439863	-158.741497092695	25.1389284064039	18.4286913608241	-45.9490680951674	95.8794851763885	-25.5850711917254	-135.470672253845	
164175000	-20.91582346741	-140.584181524125	25.1814881485525	-22.3515118330152	-40.2907392732049	20.4626948811976	-25.74476319919	-130.439415011384	
166670000	-22.2388888416814	-124.239111270028	25.2188378282665	-63.1536108195831	-46.4192809878724	-5.19340050609629	-22.1459927350625	-122.260975342466	
169165000	-22.1421703301267	-103.558208846834	25.2509883911578	-103.542070084438	-45.8687753545467	45.3639162610374	-23.8660699031644	-89.5499115010891	
171660000	-21.4409351791847	-96.4790285710806	25.3140557414087	-144.119650996177	-47.3789907135293	155.521670100585	-27.7436178982226	-128.234896634951	
174155000	-22.3076169953211	-77.1471593415411	25.392881468452	175.618579639456	-51.6686591664322	-37.746713057002	-22.1620287223328	-136.481688674396	
176650000	-20.6944315008559	-60.9578315241317	25.4749473977693	135.064940102294	-39.2716864992432	91.1129312689943	-20.8305557831847	-127.966522121739	
179145000	-22.7969046450206	-51.4432529400512	25.4838014093823	94.8314358068066	-41.3088110636994	-41.3603293308307	-19.8030483553698	-119.725687266812	
181640000	-22.4735987994284	-21.907952863626	25.5541391079819	54.1882651865538	-37.7888335106196	-37.5731281358076	-24.1572866165095	-125.116159567929	
184135000	-22.0582519870049	-18.1753564808598	25.5898476127244	14.4406674335736	-54.4107879171105	-114.010015104237	-21.3557518897424	-127.88233212876	
186630000	-22.23303046167	5.49876975375877	25.6416913821499	-25.7090322646265	-46.111198531527	22.4313604911756	-22.0479832521896	-102.563426036744	
189125000	-24.9735045211947	14.4537911494846	25.6548768297942	-65.9739795279317	-50.2312075795127	55.877684976196	-23.2668697299974	-130.948587798067	
191620000	-23.4587288235037	35.4910534396477	25.703139731565	-105.586342812743	-49.1800556083791	49.6387718259289	-20.2145138318333	-116.951488613584	
194115000	-24.8222104694475	62.4877621539652	25.6933686516049	-145.627970828153	-46.8296747221323	-127.391059167115	-23.56740021071	-117.824109402004	
196610000	-24.6611446925224	84.9702422872803	25.706162767279	174.946073024906	-40.8872694720701	105.187049595866	-26.4046467132271	-128.266144264585	
199105000	-24.9316057471822	107.247012419907	25.7673724579616	134.943665827057	-45.3813426039214	34.2859922310723	-22.6114280444935	-116.377724282722	
201600000	-22.9253775506105	130.571964973313	25.7591061015186	95.4282428357579	-40.219590534935	97.6004702533796	-20.5488505385637	-115.341204421649	
204095000	-23.3869070910877	134.684399164344	25.7407484567433	56.1905373556432	-51.655052010617	73.6633256532162	-24.8640381967562	-138.778191920205	
206590000	-22.8255915133592	160.442196849302	25.7638750506612	16.5023052035966	-45.091907631463	10.2040231209244	-23.9575855570146	-150.434024716316	
209085000	-23.902062242163	158.833964965684	25.7373277242139	-22.6945207932007	-44.8948998911772	60.2542657952088	-23.748842966137	-128.101042107936	
211580000	-21.1752472953339	-168.469232738008	25.7555781026026	-61.8835222203804	-38.5760344032934	-52.2915910199469	-22.7222450505767	-141.035453568327	
214075000	-22.4181314602652	-150.739530577002	25.8112238103527	-101.03935873427	-39.9413859766401	120.726757155608	-24.7269738300919	-101.91692744739	
216570000	-20.3665644191414	-142.520489949282	25.8132722031997	-140.121253791092	-43.5388074903059	49.8552872407709	-23.1284396369046	-139.548842933944	
219065000	-21.4810997062601	-125.259236661171	25.8163382280387	-179.397215918108	-53.4294975193678	-146.007280642227	-24.4321479163225	-145.156277875028	
221560000	-21.2249446395224	-124.48031743904	25.8249103826755	141.599054434635	-39.9519666291174	40.6671465974988	-22.678278724723	-166.955443795044	
224055000	-20.82455676578	-99.2507971567347	25.8575799187529	102.58584806189	-46.8282243487192	-72.5974351659447	-23.6721680422297	-139.671118244496	
226550000	-20.5079016990845	-85.8474367017191	25.8372705489396	63.7533195493605	-43.0276427659572	111.782254018645	-22.3222092607756	-147.59754169904	
229045000	-20.5928288520787	-84.1684666600425	25.8633303518607	24.912862894509	-36.0656624727874	-112.960018596009	-20.0606367437811	-156.051735883782	
231540000	-19.704510431617	-52.2312651958338	25.8854478647961	-14.2159765079894	-41.2800474666736	42.1102943552615	-22.1445429276999	-152.627710506664	
234035000	-20.8543792797664	-39.4705969844014	25.8712283977021	-53.2706823488037	-40.8598503822789	161.437132556908	-22.9478414049335	-122.033484225305	
236530000	-22.0284332873338	-30.1358309421926	25.9078064489577	-92.0739275435253	-43.0120989501783	67.0558542362609	-21.5306886151298	-145.566253459619	
239025000	-20.6880317556129	-2.68363365689403	25.9261597346546	-130.895355281397	-44.4928112721124	-109.470666515617	-24.1467450955333	-140.799523517267	
241520000	-22.8875153537442	11.0400573895942	25.9477708085903	-169.849805154951	-47.8159739770906	-59.929633680817	-24.1430690422722	-175.092420694823	
244015000	-23.4654035311747	14.3327964284783	25.9172250221896	151.368667990509	-49.509272998778	160.802782065672	-26.7303821684407	-158.679022984006	
246510000	-22.0149177623195	28.7778397080999	25.9088468951547	112.706289243378	-39.4710637305152	-40.1500203589072	-26.1482153753174	-169.026455112818	
249005000	-23.9923514632672	41.8922040938255	25.9553441065318	74.0485117156247	-37.0733353742237	24.9339288676691	-20.6350076510074	-174.771336314909	
251500000	-24.9747583565796	80.9549786593203	25.9153351629615	35.2425234420612	-44.6124070951735	112.713134304198	-23.0055525291081	-175.984111728457	
253995000	-28.1072399444436	105.455756351354	25.94039367334	-3.34419569100517	-40.0555167040481	39.0068316362928	-24.2760513176817	-178.428167663534	
256490000	-24.6356551492648	137.625399049783	25.8874597340892	-41.7512089381664	-61.0146204119812	134.782060241761	-23.5782551755132	157.878612928439	
258985000	-25.053624407062	141.903636436067	25.9259183205237	-80.1912489788618	-48.169272635888	112.648435011393	-22.5335322687502	148.202081583899	
261480000	-21.9065493710343	155.028851227515	25.9007212501437	-118.611389829603	-43.5178566274432	26.3246855559505	-23.221464142711	148.037595031277	
263975000	-22.3013706334888	171.050595573726	25.8857223609063	-156.892144261176	-51.1955886861703	-39.6564983646854	-22.9657203539664	158.758507276474	
266470000	-21.4677142425693	-159.624315914343	25.8728607349312	164.595437622161	-43.6034173652745	-98.5033922754045	-27.8442540593823	137.825298762098	
268965000	-22.0005680888318	-148.989234373971	25.8857608910894	126.238518537008	-54.0391899413197	-103.522157085702	-24.9345971880194	129.231157833806	
271460000	-20.9279194654887	-132.811746781786	25.9017337465415	87.8985254149668	-43.6687834987334	-90.4048125805569	-25.9862311668196	148.49062274401	
273955000	-19.3949118208666	-113.246034350336	25.8794916166035	49.5581376567872	-41.4753346759494	78.2358011341768	-22.2099786107321	109.572583096529	
276450000	-21.1566359117961	-114.580806090261	25.9503843224769	11.0996854572813	-48.5987105820958	-98.6676615505604	-17.6532404121962	126.07928892368	
278945000	-21.3826691456677	-91.2270594559459	25.9702326662129	-26.8591358875932	-50.7812700542801	31.0254379057055	-32.3133961841682	136.037688668966	
281440000	-21.3646551966458	-71.0897498662977	25.9680414997555	-65.2659970510654	-41.2551625881662	-83.3679445018558	-19.9614353536445	117.807098723844	
283935000	-23.281794167913	-72.7749543766704	26.0203192151134	-103.373766309181	-39.4614341120316	84.8424547602513	-20.1582572222395	100.510737241002	
286430000	-21.7933465551278	-41.3307603657345	26.009002854842	-141.718443676724	-51.8072809427428	37.6486982489005	-21.9684171408447	89.3533733493496	
288925000	-20.6823264042924	-25.0030692924365	26.1096810989988	179.889438635088	-38.1220346505492	46.1531876057049	-19.4976216022345	108.6326520572	
291420000	-21.5187155645645	-18.0912093388695	26.1585824587319	141.7467965318	-52.2302699002923	95.9932800630624	-20.5010133916587	88.5109550524988	
293915000	-23.0712077690093	3.41995505865158	26.2087986918704	103.311381378264	-43.5604933156172	-124.610609131845	-22.3188530262283	78.3027544736029	
296410000	-24.6605706917499	10.574469401747	26.2736168034839	64.7839144379306	-43.4271909973708	38.6022019647188	-22.4456094369901	94.5474752572142	
298905000	-23.3331114890585	39.4893747515201	26.273322925984	26.4297327133241	-53.2503709470977	-36.8903164890227	-19.9928460165309	57.9408927876085	
301400000	-22.8285324073643	40.2799185138296	26.3218952843898	-12.2215825753865	-39.2136142467222	-130.758189358778	-21.000718150301	72.5443554368035	
303895000	-24.4064218390921	66.0251588213829	26.2968202374946	-50.8841419907879	-45.3638623207353	0.812632345488923	-19.4879914081559	51.4780103209107	
306390000	-24.1788457544793	93.8397797239228	26.25426268248	-89.4676098352398	-54.766194773903	87.2648360063893	-19.7431171468683	74.1345939308723	
308885000	-28.0484076724343	99.0967812667228	26.2243415433983	-127.734036039875	-36.521809504814	9.03978802677261	-22.6493402194029	64.8306190902467	
311380000	-24.2162240631575	133.608158774434	26.2551304258135	-166.318693884873	-44.2918832051303	23.1615894881957	-23.1915082257061	71.9957125327636	
313875000	-24.383116021723	156.002207310354	26.2237831958595	155.238260850207	-42.9496123134582	104.327865815248	-25.5551064607754	65.5855185867204	
316370000	-23.2207319937083	172.240913226741	26.1900147227816	117.142281992094	-45.0860970157917	170.591249085886	-24.61561917237	47.4306588164733	
318865000	-22.1477908750755	-177.063778766424	26.1490083867075	79.1569160476125	-46.560903950531	-71.4271130559978	-18.9817906475631	38.7864737967801	
