!Keysight Technologies N9923A: A.12.45
!Date: Friday, 31 October 2025 23:35:28
!Timezone: (UTC+08:00) Kuala Lumpur, Singapore
!Model: N9923A
!Serial: MY61181427
!GPS Latitude: 
!GPS Longitude: 
!GPS TimeStamp: 0001-01-01 00:00:00Z
!GPS Seconds Since Last Read: 0
!CHECKSUM:1375233366
!Correction: S11(ON U?)S21(ON U?)S12(ON U?)S22(ON U?)
!S2P File: Measurements:S11,S21,S12,S22:
# Hz S DB R 50
2000000	-21.6861143685819	-157.901733552858	-38.5258366692916	-108.484885484456	-44.9998632244433	86.0268787736076	-0.252469673508018	-26.3653263351165	
4495000	-21.1366204710334	-142.374757457721	-42.7035747106873	-150.431406403069	-41.7026312664588	152.53325713903	-0.56743229100306	-59.3079820473029	
6990000	-21.4183961876493	-130.312186912128	-36.5853929634839	21.0408169637586	-41.9593379872775	69.9217664260929	-1.34274112564829	-88.5852512783842	
9485000	-20.5103853405511	-121.091145219438	-47.2466531243868	154.571638002881	-46.2751263369121	-83.4069099010963	-2.12422632596931	-115.523596719529	
11980000	-21.0593207200617	-107.305817570109	-43.3150040509058	-50.496374823111	-53.8129124460245	-131.66428942769	-3.65441964458326	-139.78795834175	
14475000	-21.44046734118	-91.0728110390311	-43.2399687907091	7.1581903228451	-40.4972426165523	-160.146816737522	-4.43042777624409	-161.336200097873	
16970000	-21.6155832856152	-75.8697118405691	-41.403445838833	-20.3653465691469	-37.0348055468563	96.6183124702637	-5.69944916291093	177.701914419366	
19465000	-21.6886365059228	-61.0849217487151	-37.706739962822	-152.951161731252	-51.7997396693285	-26.3066396122958	-7.12588995513437	160.040569324803	
21960000	-20.786799316685	-40.5431068901571	-41.9644262144609	-66.04641164944	-50.8179392639531	-81.8881651590376	-8.45072385526114	141.192635587306	
24455000	-21.7186003628306	-22.8649497907963	-39.7516409136135	-151.859934041692	-37.8092913647171	-118.994793754776	-9.93047872101815	128.239310576227	
26950000	-23.2609417159969	-4.64927835079257	-40.982300471655	92.1041318099479	-39.8849436972604	-6.8797220542935	-11.1129491552526	112.312505089527	
29445000	-22.9998820928628	3.49419886285184	-38.769560138778	-98.7398580188894	-37.510735464737	75.7303985041687	-12.3904505495615	100.998971416858	
31940000	-24.4531032419401	30.7624541253212	-32.9336676207038	-92.1171892069114	-46.9930112591078	53.6089095209236	-14.4041664125382	91.1489427939214	
34435000	-23.5297948729743	43.5651535614313	-51.3510205955509	54.6353828924218	-45.987907173669	-78.7281222751009	-16.4383847766629	75.9671566615987	
36930000	-23.5044277881574	66.3068831979372	-41.3608285323125	41.0028330453831	-36.6842427919114	-138.380376969748	-16.5485002478421	68.6160734362182	
39425000	-25.1980312744126	83.6902694116303	-43.7626876174429	-100.435433535181	-41.7850079338293	-168.695696430375	-20.1625808332627	49.9434875254229	
41920000	-24.927964058761	107.047353900924	-34.436763139127	-106.229227307574	-43.5922775219081	56.1718032527018	-21.4745068373864	59.623212456291	
44415000	-22.718067215696	117.51245925344	-28.9481277671912	-150.147929508252	-58.0701105101869	-153.318415575374	-25.8752465412994	69.9063591671594	
46910000	-23.4225642353974	153.383767422534	-24.1534026204857	148.05363183866	-41.0339448257103	-65.9366546944872	-25.6946439388612	63.7991814155091	
49405000	-22.9509130626516	161.995585071831	-19.23321116824	81.7906093166374	-40.6401312619578	8.36889432834091	-26.9790008781077	83.0821697785948	
51900000	-22.1463785144284	-175.15787349118	-14.5453921137047	19.9455253325221	-55.8630040927805	159.58436814246	-26.1787472174515	91.9706621039756	
54395000	-22.9304795120607	-148.79495918016	-10.599371831751	-39.1179141673407	-57.0154746309943	32.9590848072821	-23.6881444047008	118.981871071858	
56890000	-22.7643046925215	-144.420566893582	-6.61457339686325	-97.7422404632212	-48.2207038905158	-107.338755844777	-22.8201335000897	98.4522657077845	
59385000	-21.8008358376233	-130.852607419401	-2.45409834937824	-158.11456465964	-39.0293945407806	108.351114123593	-19.4039673307238	84.5864692750957	
61880000	-22.1008193942824	-123.491363676935	0.921185581418104	139.672728694969	-44.4735193202136	-88.6252763407967	-18.6688504474743	62.7607059212809	
64375000	-20.2918457976827	-103.750468667139	3.98771474116262	77.8290305406998	-49.8814428203386	38.8126652399958	-17.5964109184579	48.3218808458321	
66870000	-21.2766825635576	-83.1139028122836	6.55911156293695	15.1272989879728	-40.6421378398055	40.2644973110771	-19.7280130851976	43.5486368139437	
69365000	-20.9722422984189	-71.8445364788094	8.59827540385438	-45.700273481866	-51.4802744729118	38.5308488994482	-18.5517006124225	28.5531017428272	
71860000	-21.933867747229	-55.114020551717	10.3358376820864	-105.719998496465	-42.5931477336103	158.956220295979	-20.1660567734536	20.007232816319	
74355000	-21.5847265211037	-41.3416639589824	11.8382725324935	-163.587793899051	-55.6712376157857	-175.564169261861	-19.3433354201117	16.5350733090145	
76850000	-20.537675819184	-22.2490233732655	13.0523215832194	138.985778593419	-45.3392485752564	-163.307132659497	-21.5894796794113	15.938976023423	
79345000	-22.5159435598824	-16.3174525698422	14.1159834162372	83.5815043098593	-43.5106727266812	-22.6891647066145	-21.2766334399303	13.1754228794316	
81840000	-22.5185152126095	2.66796361122367	14.8922542133338	29.6918091375279	-45.140161024631	173.571414341241	-21.7531708490022	23.6392775449633	
84335000	-22.5367763464781	23.5695286206464	15.7507576129025	-22.8108181365692	-41.7812550459865	119.817529724222	-20.4320879763088	11.5831424840702	
86830000	-24.1682281695661	34.4999131332602	16.5187892457534	-74.0773696946212	-50.2752891548272	-2.57235443113183	-24.2061022731475	-0.50447392431751	
89325000	-23.5714841912288	61.8113571897576	17.2732444965595	-124.649734251019	-47.2593346110634	-104.497368483748	-21.5533961493544	-4.24074870931204	
91820000	-24.3245589935933	80.2847002172401	17.9459861046614	-174.986459054755	-39.744659838378	88.7074946445474	-23.8061624285426	1.87578383523529	
94315000	-23.9849233346076	99.5852937142939	18.5968446719537	135.733374315581	-41.9798372624258	-1.66895152760349	-21.3606829111408	4.94050657676799	
96810000	-24.625860545841	124.873282654234	19.221487314585	86.6129426856054	-43.5400178855338	164.248327646334	-22.887425246144	-3.62839225556336	
99305000	-24.3905403869419	144.598106410677	19.7729782300656	38.4828322698855	-40.6459136824651	-114.87751174365	-23.6698162273227	6.04199872539971	
101800000	-23.9970436336286	155.062289976485	20.2696746282457	-9.9254659936391	-45.345052420218	-152.505039905562	-20.9912557345541	-18.5019787301602	
104295000	-23.4501099260737	170.128860628394	20.7448230525301	-57.7013568128547	-42.2004450082457	123.781105380091	-28.7165852299417	-12.6788715347302	
106790000	-23.445035533611	-171.317907626404	21.1042438521438	-105.011389928211	-49.3920059396693	-129.950756598757	-24.1547551076663	-35.527382403546	
109285000	-21.9321893942225	-143.411566946671	21.4304993134648	-151.8868645605	-48.7569763558916	107.334298191243	-25.0164524105286	-32.4880370757401	
111780000	-23.1919853646554	-137.435347445341	21.594960251193	161.426533035851	-44.7733627256661	168.375537525671	-21.6843738242204	-30.6660448420173	
114275000	-23.7928634592763	-123.112037299583	21.8653814884552	116.322983749274	-40.6420867577599	76.4168779992266	-22.6299631274622	-36.4822010329932	
116770000	-24.2878432281775	-94.6456209468054	22.0582730746083	70.9776674810717	-37.6369944732418	30.1197226079703	-22.7385825657287	-43.1897043178885	
119265000	-23.2937330995856	-91.2054390446239	22.2630027808707	26.5670512331557	-44.4643383709055	156.728133671829	-25.4586138575218	-38.3037086870288	
121760000	-22.9886517982591	-74.9376155387378	22.4816800537293	-17.9485434510935	-44.4525030139257	-119.079204556995	-24.2896526399404	-44.0494313051264	
124255000	-23.9616313354665	-58.3406013500245	22.6385479156634	-61.869581484389	-36.3087540033862	-53.0820330747318	-23.1379263160402	-73.543019362066	
126750000	-22.9022454175362	-36.6381218009311	22.7841259570215	-105.55048737565	-44.7778935040087	-40.1268276194738	-22.1334127040346	-63.7971786193361	
129245000	-23.8218590014318	-25.6540249680462	22.9874517956785	-148.526250083729	-48.2539595214288	32.4325456195613	-23.8146291251499	-89.472576844235	
131740000	-24.4831375782902	-7.94206040602521	23.1674807639243	168.355176078397	-42.907717327715	163.402122143365	-21.815375016224	-73.6993143847836	
134235000	-23.488004971641	6.76339221545704	23.3648499193324	125.209123659657	-47.4953740081199	-12.7641062709212	-22.6752697348336	-70.3246684893831	
136730000	-24.3899757298236	39.9018259335674	23.538133241087	82.303039859199	-40.6850766917442	-89.6974354761767	-23.3118784360066	-59.2896308688657	
139225000	-23.1692506707532	53.4157106155353	23.6723224574389	39.3373410867512	-55.5776804033437	-82.8169253752672	-24.7914061520713	-68.7044765474762	
141720000	-25.7130322272611	57.4586412154866	23.8716851596449	-3.01096454972424	-46.9033444169753	164.710066165133	-24.3620554587637	-87.6117892190214	
144215000	-23.8205278247395	88.4365447497682	24.0083615728829	-45.4033255087777	-45.3810569809572	155.835468669651	-22.4855849260789	-101.805179733524	
146710000	-23.1214464381991	104.993097616436	24.1235867089209	-87.9050571813246	-47.0552006562319	-98.5515625927683	-23.6733479881668	-74.0922438480611	
149205000	-23.3564371544433	114.001297382231	24.1701315715066	-129.627847691583	-37.117026113887	10.309406894506	-20.7638425653244	-79.266756765773	
151700000	-24.0706535788418	146.00828652166	24.2113979022005	-172.080485623326	-58.7637715803179	-173.071627847155	-26.1618296901284	-96.732760162948	
154195000	-23.3733387878404	154.295525898597	24.3107329466123	146.806178080375	-57.5579699226049	68.3909008851786	-20.2490969412841	-88.0461757755599	
156690000	-22.804740908658	171.568860198152	24.3457768628583	105.166711697692	-51.7202830288068	-132.379193017447	-23.9259102651875	-79.4459771111963	
159185000	-22.2394618821932	-158.707672802988	24.4319622204185	63.619775843365	-40.1905445819158	70.4537713118909	-22.1034667444219	-106.138245372434	
161680000	-21.7338768265142	-152.265211110326	24.5115282908099	22.5736004408601	-47.0784019138009	54.3143979457837	-24.388955296888	-113.44108870537	
164175000	-22.3288342331298	-128.843988744659	24.5339775463192	-18.7074933097488	-42.0713275430276	-95.5396929308371	-21.396191889641	-107.97149073967	
166670000	-21.9309161097693	-114.900902056397	24.5238414629775	-59.4800369044438	-40.1404072455529	-110.224731507411	-22.0886408880412	-128.877495673643	
169165000	-20.8210079117331	-107.895858598779	24.5743392560511	-99.8993544163396	-46.7420849912485	-129.436127233515	-20.3029256561247	-110.414345719473	
171660000	-21.3596094736542	-89.6695085807971	24.6794622591661	-140.30490038438	-49.3623329014218	-46.5855111388537	-21.9056226189909	-92.7016327849877	
174155000	-21.824595176025	-71.405587622115	24.7023129316688	179.468514966646	-47.9022746645624	-178.497964734181	-19.5400933598869	-110.6582201566	
176650000	-22.0117701327159	-66.7493744552003	24.7699653014115	138.88962977717	-45.8776029168598	-61.5533104282787	-23.9001747423734	-80.1142622706938	
179145000	-23.0595677409946	-56.2873654841282	24.7608817837766	98.4605885784789	-38.8294566965431	5.23570422529144	-29.2002852749106	-116.523339697718	
181640000	-22.4590055469244	-35.6874042448746	24.7855298064233	58.6574347645257	-56.6632167048641	-139.775839927961	-24.2717793164156	-92.1627293507094	
184135000	-23.508886203402	-14.5327072247767	24.8686022916979	18.5430491987057	-45.5009788751445	-24.0935684360255	-23.3589783640015	-113.909052065625	
186630000	-22.7773660212678	-0.215027525193596	24.9366310812256	-21.3830625289355	-68.6246615736807	132.301619573953	-22.8473341287596	-105.129036855515	
189125000	-22.1912627100686	17.278886902947	24.946661010222	-61.4225898003384	-42.1580762518951	67.1733994614657	-23.7217179935111	-153.802521679228	
191620000	-24.5453385813055	32.9715414851888	25.0439461107114	-101.695748969858	-51.4521173679156	-161.711565906479	-19.8074983926336	-121.516661752315	
194115000	-23.8664716657613	56.7683494782988	25.0847374150608	-141.561830848726	-42.8757407407783	128.215854594917	-24.3700661746614	-110.895838978751	
196610000	-25.7744393999989	89.6648188768896	24.975112754894	178.791504894113	-54.6957606430748	52.5609487210514	-23.8558095226554	-132.467676947163	
199105000	-23.0443868694892	105.142098916479	25.0685009401242	138.925703120956	-41.5734103802242	-16.6196275449565	-19.7579311637256	-112.577635884202	
201600000	-23.7227882591292	108.089508102107	25.0797602129331	99.233187479236	-39.7196312008971	-73.6231477711219	-20.8865157912536	-133.73716468879	
204095000	-22.9365476299618	136.035973256144	25.1160697236706	59.7680268205028	-50.2634589042543	-80.1753069183113	-26.7801526578449	-132.127984544238	
206590000	-22.6683589636438	159.640919781993	25.1112091302072	19.8269883357219	-43.1772800143418	-98.2272136631472	-20.6013558024617	-117.94018612823	
209085000	-22.7065645660276	-177.884259620337	25.1014529596767	-19.5798164512655	-40.1924400608025	-37.4285627097296	-24.6315536805206	-127.338579979711	
211580000	-20.9098887004063	-170.845871766022	25.0890310578718	-58.3453796011916	-45.8458703627788	-157.041256902047	-24.5338303186682	-135.94508571427	
214075000	-21.0968122229465	-155.018109135316	25.081444837006	-97.7550014964428	-40.2432727581367	-23.2860228480744	-22.19245839794	-117.210825972508	
216570000	-21.5866408466312	-149.45469036417	25.1233052531549	-136.768903983711	-47.4822102471175	-90.6027056518976	-23.4883420488547	-113.865320321568	
219065000	-21.4866581620906	-118.381894151848	25.1689568211584	-175.951479464472	-43.3339392283157	-147.741939544868	-22.77497047493	-165.801517375558	
221560000	-20.314689612837	-120.338283357213	25.1746978569932	144.933336843024	-39.7949298471193	93.8543719749704	-26.7840816508025	-179.529558229875	
224055000	-20.533004766723	-103.401399146502	25.1637018915906	105.655214440931	-50.3211142826721	-101.299225165544	-23.5870484224217	-131.259677057797	
226550000	-20.7079107338389	-89.8266403784897	25.1496806969226	67.0155546120014	-43.1070796749794	120.649538458842	-21.4229585010057	-139.787920488955	
229045000	-21.0738356300754	-71.7152061614075	25.1707124953718	28.0274633952517	-46.3757596768802	-179.942776233837	-25.5050382098085	-174.276116743089	
231540000	-21.7473719958304	-50.8917030251554	25.2267016584779	-10.8488179000805	-48.7226858452781	-179.888079393397	-22.2974915713965	-138.781723209475	
234035000	-21.6251297047966	-46.6783622204932	25.2238082288036	-49.5534313720459	-43.9484385250053	-11.5031927100066	-20.3378598503507	-161.479390874345	
236530000	-21.6654083133446	-26.8259233843798	25.212454097468	-88.5834705984123	-60.011853383736	105.22488613199	-19.4468606104273	-158.299287731797	
239025000	-22.9578163468364	-13.4830094825423	25.2425420066034	-127.549896043534	-44.5124309800711	18.3496598853343	-28.8149158940294	-179.660226274737	
241520000	-23.26437030931	0.111708310695643	25.2870023450466	-166.247611840341	-43.4417196270286	-130.590215468598	-23.4863258149965	-174.662752616135	
244015000	-22.7043972434213	7.51751824896171	25.2633861801298	155.168866970943	-39.1253122975268	-97.3314025679537	-23.0837095486742	-163.981072463272	
246510000	-25.1523801582063	40.5883053388748	25.2934012567492	116.209271113708	-51.7730160973272	-154.162584375429	-21.5234140913958	-152.812352832067	
249005000	-24.8797603043287	66.9633306472658	25.2948743429847	77.3189491961034	-42.6630524947926	146.625786680468	-24.8008493806253	168.043412144585	
251500000	-26.4435652706893	76.0046437671332	25.2790749804964	38.6378449656101	-49.0926351885533	72.0709198380394	-21.3649644474583	-171.837618874529	
253995000	-25.0548488634085	119.839525621894	25.2374157282211	0.307765911670738	-39.3747315090755	-25.2548705543295	-30.4170191163874	-167.661716833322	
256490000	-23.8704202819356	116.406068602374	25.2995834050102	-38.2058292100294	-50.6543299111421	-126.715921060309	-24.6405203202669	159.821307096634	
258985000	-21.9150514595702	151.189730942515	25.2797921745795	-77.0191824468128	-40.7883753492033	35.5890868374907	-24.3689520825084	136.821193414069	
261480000	-22.2630499985213	167.566486140725	25.2364459910813	-115.581417249252	-42.8193572486664	66.3871947428648	-26.9155432820378	163.580226818593	
263975000	-23.9784191074827	-178.230809612032	25.2376485326875	-154.212794528476	-50.2051325898663	-107.034798265854	-24.8741855317241	147.840564068054	
266470000	-21.1150122564027	-162.081588807732	25.1847569466145	168.004708820048	-47.9607010443671	-137.224885072331	-25.662615471809	165.601132173821	
268965000	-22.1156375176713	-140.840179196685	25.1924460492345	129.44498177211	-42.8249515896456	40.3289241048835	-24.8295934774114	119.468663357315	
271460000	-20.3779062892867	-141.387729900453	25.2300110648742	91.363362761228	-44.4454383622203	-117.773709271031	-24.4642062443527	128.427248994656	
273955000	-21.4946692739024	-125.437917269926	25.2495580913013	52.9538132298468	-38.4181304883332	-125.909831995611	-27.0148929519248	146.492006140531	
276450000	-20.6288452478277	-110.795042653061	25.2519129578728	14.4338155149938	-45.1518699411018	1.73924651821923	-24.9510438744394	119.247341120816	
278945000	-20.8493889785961	-92.4994337009491	25.2998681461209	-23.6803732213181	-53.9289062664452	71.7937531778717	-21.4404086999984	137.358690038588	
281440000	-22.2198119285704	-76.3930521204273	25.2807379374581	-61.9272238851213	-44.3965413500766	-52.6800384372921	-23.3019388402397	108.545339865815	
283935000	-21.0542224471146	-65.7992076290785	25.3365108633715	-99.9049479961651	-43.5539719675253	122.898382222016	-22.6550357165306	105.82779662131	
286430000	-20.9682118223138	-55.4812015893192	25.4551395135663	-138.251146102465	-48.2362482759743	-116.842175139478	-19.0317599328814	123.559348336426	
288925000	-20.9149253101591	-31.3400416146503	25.451261610174	-176.236294689577	-45.5084323483478	12.8271477026255	-21.7205284964317	95.3482607490198	
291420000	-22.3120200588518	-28.4847204889916	25.5038776231267	145.286996136928	-44.0065109263819	-63.1003641364009	-19.7105708678728	116.263087376954	
293915000	-22.3737802694405	-5.99996975232842	25.4977420158079	106.894971745499	-52.9024456432705	54.0435243335787	-20.7085672999971	74.8821334510922	
296410000	-23.4840579498415	8.6537028695227	25.5643842098656	68.3114443372263	-46.056242499925	52.6666842034089	-22.2063422045515	86.3810740763748	
298905000	-23.5790822887193	20.0654401544903	25.6645310195339	29.9774932581951	-45.1212517061303	162.001591250107	-24.9132333807191	62.4921085471266	
301400000	-22.6300748738747	43.2235077904531	25.7104520255744	-8.86292618238989	-42.4727087683896	-77.4951935072488	-23.0461460144264	74.0027012149746	
303895000	-24.7947940576277	78.2923613178357	25.7190112253478	-47.4818405681612	-48.2375925223696	151.615892384581	-26.6240210826461	46.9417813045196	
306390000	-25.7861702449156	88.6821659784411	25.7170664903898	-86.217716471326	-43.7518357398883	-73.1217218579919	-25.9684815627291	38.6502963882899	
308885000	-25.0251524209087	123.090497550517	25.6357167153738	-124.435260209157	-46.696933363943	-113.790033066492	-21.0311263640867	32.5039594200176	
311380000	-26.6844639699516	136.682276732098	25.6039587756467	-162.873459883703	-39.7833348017757	25.276844660854	-20.8106532068344	66.1114262213152	
313875000	-22.2063776276172	149.881393563723	25.5693366938919	158.8628799274	-44.2361479302746	-161.514131876238	-21.0253913423379	37.368488013452	
316370000	-22.4005667352261	173.768127738696	25.585082044186	120.263333812236	-46.5714825238067	-14.8026417204548	-20.9582124959116	30.037719746416	
318865000	-20.3683577006458	178.141587077222	25.5261388901827	82.2570732401635	-41.410363751756	2.78409464560833	-19.1462462364567	44.7957434949955	
