!Keysight Technologies N9923A: A.12.45
!Date: Friday, 31 October 2025 01:26:10
!Timezone: (UTC+08:00) Kuala Lumpur, Singapore
!Model: N9923A
!Serial: MY61181427
!GPS Latitude: 
!GPS Longitude: 
!GPS TimeStamp: 0001-01-01 00:00:00Z
!GPS Seconds Since Last Read: 0
!CHECKSUM:0370662810
!Correction: S11(ON U?)S21(ON U?)S12(ON U?)S22(ON U?)
!S2P File: Measurements:S11,S21,S12,S22:
# Hz S DB R 50
2000000	-22.2411387694581	-161.881665748004	-42.6998477770817	-10.0513398380574	-36.7238051597089	75.9649879965714	0.0514767188819638	-4.19248994229834	
4495000	-21.7146731424009	-147.119336068706	-48.8815682556146	-67.0880962885728	-53.9932646987918	-82.8625821686585	-0.0942333219077431	-9.58788139919069	
6990000	-20.6889397694287	-128.863010446978	-38.2255916772935	-167.289971723135	-46.9294721486668	-65.081567503421	0.00228195525850619	-14.5861906486675	
9485000	-20.8803232712255	-112.412504143111	-43.3005938487785	-96.5659634960497	-45.809880911134	163.368574705838	-0.117743363371684	-19.5969557826245	
11980000	-20.5896788247325	-102.473855655314	-45.7853090574797	-175.992289536696	-48.4372114815335	179.781582778877	-0.13112965294111	-25.1963296450648	
14475000	-20.6545685881802	-87.6164293777035	-51.9844148879277	129.753319966527	-45.4963532769809	28.6606483614245	-0.302467646234099	-29.8906841253824	
16970000	-20.9172578107486	-76.5593784757483	-36.0034437426906	37.0606673717098	-51.2258946268044	-123.65693567723	-0.175701497665464	-35.5806288004862	
19465000	-21.678769878954	-58.638926403877	-42.2671716142802	59.9776005495669	-36.7441061828935	-177.1400891049	-0.328962334013062	-40.6918952873123	
21960000	-21.8182200176354	-43.4289417777179	-44.4281449503306	-41.2090269956708	-51.8600571443172	167.825805304685	-0.387458279379451	-46.3118897050178	
24455000	-21.9439755597094	-30.9069014590773	-35.8586420650589	79.321149474269	-36.7375793541625	-6.07931235859989	-0.464297314147527	-50.9186496572778	
26950000	-22.6691476511772	-12.3979867625434	-38.7282295751638	-122.476417357883	-43.7564910676582	-137.828294176344	-0.582642909677338	-57.0579193562682	
29445000	-23.4944550823388	15.842193496965	-36.781685234032	11.1108166589528	-40.7823408451189	-176.750715314136	-0.520256785645055	-61.8265991526753	
31940000	-23.6537965641077	20.8504127319424	-36.7429030835091	77.2233166696472	-38.0452737017496	-142.148931700754	-0.751134554369408	-68.4552455860749	
34435000	-23.6615984190411	40.5600387378418	-36.72362813867	-173.228053577598	-36.3450342155228	-146.542907614622	-0.968005369717908	-72.5669404945879	
36930000	-23.7256683504616	65.2734511020504	-41.7079487417899	-18.7636086610636	-38.7842709309688	-85.4993943344963	-1.03023636887888	-79.5223754637096	
39425000	-23.9328176911086	88.6892059321909	-35.8376450034353	-116.598334529063	-47.9868937617187	43.3439537453959	-1.18456413296197	-84.6972547880662	
41920000	-23.9905755218131	108.751375613765	-49.3702723514159	168.049243005083	-40.4317000615393	43.0739772674271	-1.34768039216059	-90.675140821713	
44415000	-24.3744377101192	126.41391596792	-40.2645723586724	23.4488850081033	-38.296303518017	-80.0901822530292	-1.41542394520428	-96.1196386517865	
46910000	-23.8054342983316	136.792737991185	-31.3395737570589	-124.317217667496	-37.8325199377595	39.4454162523739	-1.5900206451979	-102.346106768928	
49405000	-23.0918494469733	156.487537940175	-24.4736987794161	119.306652385911	-45.261752043911	15.3034972918784	-1.78013183601537	-108.475435229763	
51900000	-23.5737215034762	-179.894022875995	-20.0939617650872	4.44228932352595	-48.4497935394138	-30.9165919154029	-2.05839582327438	-115.340363371325	
54395000	-23.0899340596516	-159.305137284329	-14.9825645523341	-134.135343973347	-48.5995036127268	108.02830810422	-2.36600867715463	-122.031534517322	
56890000	-22.6492488773463	-143.363980023641	-11.8216186113072	110.914008691104	-40.502321043382	33.7663097062678	-2.39233016965551	-129.256179349311	
59385000	-21.8953641274921	-134.79442053235	-8.49649998963816	-18.1438910473404	-45.0667834842883	-176.151204081341	-2.75947942272925	-137.580577498774	
61880000	-21.7322670236857	-116.642520518452	-5.32374132334947	-136.864528063957	-40.3262371998438	-77.7732626411272	-3.16883214208073	-145.954832654487	
64375000	-22.0041423859067	-100.719969495597	-2.58089196282932	100.286918483203	-46.3912167794071	85.281142047155	-3.43934739270117	-154.383134032038	
66870000	-21.3935180493082	-87.6216412515324	-0.0824792731555158	-19.6746331045975	-51.3595275246869	-100.988021156583	-4.05878319842285	-163.370202506634	
69365000	-21.5468668262571	-73.6664864983656	2.27978238814896	-139.925013873454	-45.9098231422756	-63.0396432146022	-4.3800464883479	-173.618447070458	
71860000	-21.7226503952847	-62.8806979906645	4.61266221054557	100.819022527432	-39.9148276316457	105.320754566726	-5.23839854195291	176.550208019152	
74355000	-21.9877868735134	-39.9710141301277	6.44245947484695	-18.7975216107103	-43.5226699882235	-164.960450173329	-6.21912486265328	166.27819093288	
76850000	-20.9818982933565	-29.0440660308937	8.3254674234854	-138.639024851875	-46.6733673671837	-123.192356442817	-7.34544379509702	153.075020992346	
79345000	-22.0535132598631	-11.6439719274282	9.6825770458648	101.967254988899	-51.628648454826	70.6883136073547	-9.11058473155588	145.769171698185	
81840000	-22.6086195118864	-0.906694879700987	10.9830545972551	-16.6608585560733	-45.2163296863364	-176.689436291198	-10.8666485973317	135.481502782838	
84335000	-22.7772679017419	26.9259379707977	11.88786891379	-134.499741451176	-46.860281744306	121.936163988043	-12.3687469933981	129.228450863218	
86830000	-23.9706636933774	44.3982331295071	12.6402658169312	108.791028389029	-38.3381853208423	161.310195020796	-14.8271461879552	124.614856261559	
89325000	-23.4563366798981	52.8182286249407	13.1377042640033	-6.37531597699301	-39.8516431474087	-98.3766939406719	-16.2057973714887	122.631782156334	
91820000	-22.7435755972661	77.2033531432274	13.6573480141791	-120.598824030834	-40.1029405156151	-88.9957633368201	-18.6004270962847	127.871130553713	
94315000	-24.1764214966608	98.8780490261612	13.9991700143943	126.440647020052	-53.171975735451	129.076040765078	-21.0484672575713	117.732761775346	
96810000	-24.3934025294062	123.808467747625	14.3564778873167	14.198479744151	-47.1863568604915	-0.88014211873521	-21.8519763788437	128.902280958947	
99305000	-23.5977710144737	130.970614624532	14.5356617174601	-96.4781994064507	-39.949897054287	-2.80292208127584	-22.521678341006	133.528895745467	
101800000	-24.0926467493644	154.393907977037	14.8371214084893	153.342492246859	-52.4699029718352	-34.1575804919391	-23.3688533951953	134.638280315933	
104295000	-22.6778271540664	167.618194020304	15.0716853997814	43.4321779516516	-56.8873516416944	11.8075877309908	-24.4083365786135	132.321927586826	
106790000	-24.3750967204392	-171.066713757884	15.2505238252253	-65.2033083176746	-42.5284216609994	-124.793436201337	-23.1801750531617	132.427086636422	
109285000	-22.5461028439009	-150.174916329813	15.4152775331744	-174.214631515151	-49.558865359801	86.3523975979171	-26.5275008369801	138.246082556515	
111780000	-24.593974186954	-138.998180405913	15.6162534840147	78.033557645257	-39.6295888024856	49.4923712240866	-24.6198221499236	115.992071373	
114275000	-22.956072893602	-126.954568281228	15.7188561045328	-29.6403487930333	-46.7160812833598	-78.6360179368256	-26.5253793427535	119.172337364693	
116770000	-23.4507405342682	-101.041573186455	15.8431426763852	-136.688640985239	-49.9349463383931	-178.813677497402	-28.3330696648787	104.958712568182	
119265000	-22.5874298336577	-86.9153856723768	15.9075016359105	115.991994101821	-41.4251645711184	-84.4680770589444	-29.4997305231178	86.8303211999063	
121760000	-22.8320871430021	-71.1610261680864	16.0464372290613	10.3048457563698	-49.4731500322715	-7.58352859479014	-31.2105888268455	99.7421462750602	
124255000	-22.7523613534805	-63.2364975265831	16.0614767616032	-95.9765864711428	-48.4104607689171	-10.3086492661749	-34.7897941091175	65.1468668772747	
126750000	-22.8225627114344	-46.1624356338717	16.1208682647563	158.680186277453	-43.4864401628724	139.47722060141	-37.3958383396475	7.81249882392428	
129245000	-23.9355637584545	-26.6819537068522	16.1640184720101	53.2067395086648	-41.1574343275001	153.515372067004	-31.6835683608879	23.6737127420388	
131740000	-23.3648377522814	-8.99056632765241	16.1646527056429	-51.7221986706054	-51.0769247656474	153.10741970115	-36.6688497275536	-35.2569370270017	
134235000	-23.2913873971002	10.3333702836044	16.2211187607949	-156.376636194729	-44.1130304489606	-142.953515305985	-40.9888427932076	-147.538772553827	
136730000	-25.3520674592798	23.3726707736432	16.282701206741	99.5482871544403	-43.3025096587621	74.6665935115839	-33.3839297879713	-92.3415039032269	
139225000	-25.2600637963152	43.9562299079205	16.2709525229791	-4.65298640485975	-37.9705625722569	72.2070532483163	-31.0751997270697	-104.017716286418	
141720000	-24.8571755767765	64.9660313351451	16.2904903715942	-109.120762349585	-51.8776750758465	28.7210118435479	-30.9799142501119	-117.845239047394	
144215000	-23.9577926910692	80.9558107243026	16.3360692706646	147.312597674227	-43.5918924973959	-127.244287328244	-29.5407793898676	-109.768163807338	
146710000	-23.2020991758751	101.726189656765	16.3952404803712	43.8350119954723	-38.9348949334096	110.267035723921	-27.7696899974032	-110.645131366894	
149205000	-23.3991568656638	130.188383102396	16.4198614564014	-59.5299929919547	-43.2857228614285	48.3684956374516	-24.1116312471483	-130.898154170286	
151700000	-23.3167259308563	139.390658736171	16.406918047572	-163.066981604179	-43.5681517245226	1.0963830489079	-24.7965383414038	-131.893955143762	
154195000	-23.6810607167148	166.622676628865	16.4520472783251	94.0950666610385	-47.6827630283889	3.77428235514238	-22.7068269728013	-137.378059309912	
156690000	-22.4626843824305	178.524145922246	16.4657953378745	-9.24962070616328	-43.6111478709699	-148.650469893046	-21.4956011058072	-138.815439260171	
159185000	-22.0223474342712	-167.054457331352	16.4803421877394	-112.172761281429	-45.0133644799036	173.159062544561	-23.0717058008726	-147.82470895065	
161680000	-21.2150115389504	-149.689092708445	16.4590284547235	145.203472733296	-51.8166080760294	116.385312185798	-20.778884545146	-147.91256003047	
164175000	-21.9790816728151	-130.435527085982	16.5014631408712	42.5178240467068	-37.1561299524665	159.05490784931	-20.3675658704739	-159.307049135227	
166670000	-21.698740563051	-123.588079128437	16.4743728903291	-59.6502282307162	-40.1785544445952	34.0913879638287	-21.5576056845235	-163.153018518204	
169165000	-21.3925652030544	-110.288678579265	16.4878745884212	-162.205763003525	-46.4472837352767	-20.9535513538774	-20.6889582363353	-170.417282659725	
171660000	-21.9708644664964	-92.6935329803663	16.5058744261476	95.4582036713828	-42.1906564402261	-62.6305117743919	-20.2384091276464	-171.363743637817	
174155000	-20.9615070708577	-78.1924290401213	16.4569544365632	-6.80277793515521	-48.4237024188087	-169.447284619272	-19.2443640160442	176.42689240979	
176650000	-21.4963269073535	-64.7735237818664	16.4665859101182	-108.679355627351	-37.0979120458127	-66.576773381806	-18.7384299177794	165.476178580326	
179145000	-22.0535197430192	-47.3468742238197	16.4404623096971	149.429255396704	-45.8936851945482	24.9104559153808	-20.1125812288098	159.549316320781	
181640000	-22.3038842436251	-37.9454389160776	16.4440306377535	47.7681943750183	-42.4221983785629	59.9298562275511	-18.4716594198055	168.108853656055	
184135000	-23.8383977208338	-20.05167167623	16.3289643561732	-53.5408900530354	-43.9216498306803	109.313166020938	-18.2358015839758	153.212968292181	
186630000	-23.191083465237	-2.75951926508795	16.3598252328514	-155.398890907893	-49.5873562629185	162.465698487013	-17.4676059398449	161.289918785116	
189125000	-23.2036752227151	14.4866828279523	16.3669429953002	103.277424293224	-37.3693154646061	125.378101757677	-17.6826679489912	151.795898192764	
191620000	-23.4494060783647	36.5023745157324	16.3698989744907	1.94156223435792	-42.5208623867133	-5.37419784170563	-17.0223864587358	143.757826455643	
194115000	-23.3803171861286	59.4737527199891	16.3228434610975	-99.6050120782055	-46.0014325079593	-30.0794358794202	-17.0497341334255	145.845349408194	
196610000	-24.985069719641	70.2303179887539	16.3799855161123	159.398314701761	-47.9105754690007	-170.710176845639	-16.920911235372	135.469881580006	
199105000	-23.4239739113647	102.5947272016	16.3840688945001	58.1723984507216	-43.4524593289952	153.27172069699	-17.3478702566231	134.35029462666	
201600000	-23.388412483028	117.391945507282	16.4456632070134	-43.248608861956	-45.9456341347507	79.7732513725354	-16.3298933013416	132.294887022083	
204095000	-23.4726051978606	140.353853577881	16.4262482186838	-143.884538729418	-42.9414788120471	46.1077953607859	-16.8319346535966	126.173040303718	
206590000	-23.3869456607343	148.480520446012	16.4440983147322	114.754218571573	-54.8622516444517	-172.111497588818	-15.77153566672	120.032423541861	
209085000	-23.2215091260071	170.501924455963	16.4356227321652	13.8839470144808	-44.7940545179759	-4.68631096588914	-16.2182691151977	107.681547689115	
211580000	-22.4023014395394	-176.665471177487	16.467950377304	-87.2508656442788	-52.0770513984453	163.256649586551	-15.6283766870084	114.131784682118	
214075000	-21.3789648186188	-160.945010292416	16.4293025571585	171.395383538934	-45.6634912606585	19.7379145199533	-15.7414033585268	110.355964133459	
216570000	-21.3230577700576	-147.414817862724	16.4387434605518	70.2410362927149	-47.9809436175031	139.091398840533	-15.6064094973941	104.657349226835	
219065000	-21.3416489996127	-129.506975218408	16.4694684848391	-30.6932949962829	-45.5010693883121	-41.6431937321353	-15.4996510496908	97.8600002234946	
221560000	-20.4311874116876	-114.069201829206	16.4388607658693	-131.780420260403	-58.3836576747162	29.2527390563157	-15.2586961338916	99.3115683413405	
224055000	-20.384833944018	-100.827165575596	16.392083061513	127.305955591011	-38.113268021033	-92.8413837591931	-15.5063480310752	91.9740106247215	
226550000	-20.560395710204	-84.8952315169274	16.2896579750936	26.5053008484345	-40.8741382911041	125.736127261581	-15.0127829418468	92.9023473175615	
229045000	-20.5554221594874	-70.966190204269	16.4040757340752	-73.7021732254955	-52.4189876035847	-93.5323076813895	-15.1269430037088	85.6738707791557	
231540000	-20.2872174752204	-56.1110906159663	16.3201277408152	-174.844516975808	-56.4821997276167	177.08451453148	-15.0001676858021	85.4170904048583	
234035000	-21.8610223726224	-47.9128595223472	16.3307429533434	84.8627403381111	-51.1567894965085	-24.8060161881017	-14.1292071550814	85.7073044516274	
236530000	-21.6316607755433	-31.985876708773	16.1921968540486	-15.5522175725882	-47.2489849620979	50.8152209416277	-14.493912545785	81.1895150559345	
239025000	-21.7933617257217	-11.0273573201561	16.3417581850514	-116.352822964331	-47.7726749435128	139.643007082963	-13.7404276994099	73.5561427597879	
241520000	-22.5342296938006	9.55293924212946	16.2433035270111	143.41064533744	-41.1425832467209	27.2569813800454	-14.1277073489058	69.6681043971279	
244015000	-23.7580952385643	23.0722200168878	16.249393090563	42.9996243039998	-42.7980137056182	-150.217596918536	-13.8257598866058	66.3374961054056	
246510000	-25.1620807133073	37.4806590236655	16.2727374342235	-57.0799254852814	-43.4744223046223	66.3752454481829	-13.3268999252643	64.2281709578186	
249005000	-24.9891884377355	60.4396664378693	16.2758337621841	-157.819222612564	-46.0942783369153	174.122738801922	-13.690213015537	66.1243545055096	
251500000	-24.3753120085681	79.1391565559329	16.3168615087831	101.753603903311	-45.3832208373765	-39.3358343324394	-13.6792524797259	58.4253451189852	
253995000	-25.1491406098096	103.932169047039	16.340747999291	1.48193883768994	-41.283205899153	-75.5934617175691	-13.2075498611397	50.8213866955166	
256490000	-23.4495643170569	124.165468173629	16.3570212016069	-99.2330073065624	-45.6813308299019	-56.3094984021385	-13.7035399932163	52.5192186560951	
258985000	-23.0243445867129	139.12647814317	16.3232031388799	159.924659885729	-47.0239941702265	-157.768514450413	-13.5772056047813	47.6778823514711	
261480000	-23.2698530843877	159.130605506496	16.3528287520187	59.697194182716	-45.5621923117722	162.07996219387	-13.0469185944643	44.3503294682056	
263975000	-22.8216923990514	174.957918031378	16.3141273670338	-40.7011461651725	-41.188974509993	159.868729702846	-13.3014724846555	42.9561978648206	
266470000	-22.6450655233332	-160.177307061084	16.3426850968101	-141.518196875423	-43.2006611385702	-42.723245196173	-13.5478772264193	32.8987774442306	
268965000	-21.9694347252441	-145.674302994464	16.2790792865843	118.162219104317	-42.5605140379899	74.9623405313987	-13.2277770617015	34.5986033528253	
271460000	-21.3281229722354	-134.022681274662	16.3477649845151	17.4451339557074	-41.435139238367	97.2165660515584	-13.5906430710511	30.3052431833891	
273955000	-22.3312392719586	-120.314912519406	16.2396865380645	-82.7087395424043	-39.9210562660508	-117.612253752537	-13.2878818343207	29.5543003096078	
276450000	-20.033808350348	-106.590687507007	16.1714351763929	176.395927122703	-38.9445077345243	-16.1753409211215	-13.4649920902294	21.2323264305182	
278945000	-20.2621735430761	-94.8006224061845	16.1178712242784	76.8214537005766	-45.7866062228819	42.4899475535665	-13.3339907418106	19.4505532386251	
281440000	-20.7496558212636	-76.2995406111871	16.1823856076183	-24.0468275862985	-37.6361775048527	17.5131217199165	-13.4231025090026	14.7830051574062	
283935000	-21.1017909184927	-62.5705766337097	16.0740138735569	-123.938266402571	-48.3800239195167	-81.2561219659889	-13.3097992797331	14.0253638661369	
286430000	-21.3783552998907	-55.4587389663368	16.0367057495408	135.574927193783	-50.8820586953098	-71.4720377535697	-13.1497908113809	8.84147080365766	
288925000	-22.107416473107	-34.0751460045615	16.0343593561121	35.9143693876613	-52.9498614126803	80.7942498447844	-13.2848965961765	0.480724852011053	
291420000	-21.8576390944001	-23.2671443621652	15.9661860535755	-64.8503458905206	-67.3125012043972	-17.7720187420435	-13.9475354513981	-0.56986256336759	
293915000	-22.6401916299962	-1.319818964327	15.9319118451158	-164.320387461365	-60.7479806110643	112.653869562745	-12.8698080796501	1.32589297859482	
296410000	-23.7695522545825	15.6536411774346	15.9062040165393	95.267838665048	-49.3340267223479	12.8181083385191	-13.6270635121379	-3.54868400001812	
298905000	-24.6293014812654	42.7505795570152	15.939943431708	-4.67299846648672	-66.1686865216083	-6.35478658793447	-13.5315497625832	-6.80300567482687	
301400000	-23.8812145390183	53.5156145831462	15.8533372151575	-104.90639537356	-43.7261532905639	-53.5024442458174	-14.2557979587968	-11.0267891352421	
303895000	-24.11134151526	79.3713133304659	15.8922959783384	155.358806826762	-46.6481183156644	9.52360212463449	-13.7374575830689	-19.5971077159068	
306390000	-24.4923937283378	88.5654020049096	15.8642882664483	54.8507073152535	-55.2848411341275	-95.1654164845221	-13.3581719358976	-21.248342211401	
308885000	-24.4514045975137	112.543936688041	15.8987633186599	-45.0145241436029	-55.1727890421238	-179.237113174728	-13.4393841458698	-23.0518720445476	
311380000	-24.5148759585715	134.457444953495	15.7525498018524	-145.412794641481	-64.4749468488322	27.5113817515017	-13.9244491298608	-28.0136657434535	
313875000	-23.6776735379323	154.252308312013	15.87539131475	114.918017950652	-39.5371439561246	124.273513697767	-13.4286904242854	-35.0086134439956	
316370000	-21.7485525687018	162.930392662493	15.8229812270949	14.7036289278302	-50.1342299917146	143.227123239147	-13.4762978110211	-33.8831590418723	
318865000	-21.6088440329997	-176.333625968151	15.9023456247177	-85.8072265071248	-54.8131601759149	-143.615916809344	-13.9893144639677	-36.7576430207936	
