!Keysight Technologies N9923A: A.12.45
!Date: Friday, 31 October 2025 03:43:48
!Timezone: (UTC+08:00) Kuala Lumpur, Singapore
!Model: N9923A
!Serial: MY61181427
!GPS Latitude: 
!GPS Longitude: 
!GPS TimeStamp: 0001-01-01 00:00:00Z
!GPS Seconds Since Last Read: 0
!CHECKSUM:1315108197
!Correction: S11(ON U?)S21(ON U?)S12(ON U?)S22(ON U?)
!S2P File: Measurements:S11,S21,S12,S22:
# Hz S DB R 50
2000000	-20.961745387619	-159.080320087792	-41.2983425569751	135.607764542993	-43.8327147333599	93.5732529287326	-0.0705475655839608	-3.57914947583822	
4495000	-20.867233230422	-146.295689967158	-43.4323372097209	166.477651028107	-38.7152977087963	-57.1604678699528	-0.076305529458216	-9.3434475030806	
6990000	-20.6871930293485	-138.681795244004	-53.9108882226919	56.1595120208792	-41.516471407405	-45.6212487736692	-0.0865143378127963	-14.6680448885498	
9485000	-20.8725469555788	-118.942639124422	-47.0665631815598	179.950298458508	-46.1112635113927	-84.6843296051962	-0.122661216352803	-19.8564286175333	
11980000	-21.2640353776295	-101.004682505073	-43.9066134641126	169.966117734601	-46.1467551285271	9.34016493328194	-0.216210686558003	-24.9604863909144	
14475000	-21.1034727239316	-89.5651623499938	-40.8843052126353	46.9934685380534	-42.0155896697936	123.169456360669	-0.0813448169725444	-30.1369643672607	
16970000	-20.9774521605546	-76.4268370957181	-41.136452128505	133.128322218205	-48.9097135202088	69.8699170067188	-0.304102880369644	-35.6304856451963	
19465000	-21.3098038437409	-64.7483233374201	-46.2227989891575	-33.3897487476208	-45.0915276859465	-20.3232960724183	-0.328553005926298	-40.8302654734985	
21960000	-21.56457538577	-48.8837208334612	-43.5051684187128	119.183398779993	-44.3467655069878	57.4845503131016	-0.45498649236645	-45.8871851973403	
24455000	-22.4885139086928	-23.9301793474293	-39.984581329679	-152.158684914094	-38.1520866727433	120.769775934451	-0.411283694375648	-51.2872820072246	
26950000	-24.5334339612573	-16.5791502409053	-43.2025152549951	134.161026592375	-45.6097485596717	-105.326883237409	-0.649051028975329	-57.1619394379745	
29445000	-22.6624562157433	9.50206957531054	-35.5562802362838	122.584610997305	-36.1926539203372	-118.207244076893	-0.679814698159244	-62.7256230827251	
31940000	-22.9710345929386	27.6906393298618	-39.9845426450148	163.551122870092	-44.2549454556632	-6.0562470465059	-0.722530905080629	-67.9152847727454	
34435000	-25.5787385017482	45.1080019538045	-35.9413141348199	-155.796182607643	-44.3457286505045	54.7303239523315	-0.979796962242162	-72.5137299701663	
36930000	-23.1414894937629	62.3519846489185	-40.8566954518321	66.3174926225686	-44.0083577517065	-1.24446378483797	-1.0828324424047	-78.4411477226702	
39425000	-23.8404989215235	92.5911485986736	-36.2627727169879	-121.064768388006	-38.8788750745622	145.033105049569	-1.1415998759191	-85.8209861583631	
41920000	-23.4666018340725	103.106171457157	-52.4992366097215	154.303220805261	-52.1330709209789	114.029458873282	-1.36310934044372	-90.5240911941465	
44415000	-23.3772094327271	129.633319005799	-31.5806229206442	2.42933800815667	-39.8131991582847	-114.564362607262	-1.49387728533438	-96.6407971518243	
46910000	-23.2732632065759	142.980610766599	-32.2117088483288	-98.1502563758025	-49.0195789434386	13.4236243177685	-1.72738395019952	-102.171505254941	
49405000	-24.051615301604	164.66451531694	-24.5588054719504	117.873094545383	-46.3055890104659	-40.0240515462818	-1.87310069305575	-108.328907344485	
51900000	-22.9471456538705	177.486479995318	-19.86204207306	-1.67208963568982	-48.0815721549466	155.31780005989	-2.01382647410658	-115.290746219502	
54395000	-23.6897432641778	-170.796056741223	-15.239409921814	-132.495385013549	-37.0141100742026	-79.8791267039643	-2.3038230781881	-122.51247377352	
56890000	-22.3840473960518	-145.123896053222	-10.5923536200285	106.528284845546	-50.6920584535527	-71.8552933405144	-2.52859994498342	-130.184256381312	
59385000	-22.4082999659905	-128.672563594076	-7.59665745389281	-20.3764714279534	-44.6525354887204	-15.7175069089416	-2.73693829374508	-138.415252072181	
61880000	-21.6455124856216	-116.646589799603	-4.29027466568414	-142.457503611206	-41.7902807937196	157.304778885323	-3.0973908198625	-146.447564473826	
64375000	-22.7634856593006	-98.241571642423	-1.71542214716921	95.0218568241671	-58.1950866682206	-116.872610668091	-3.47691239437206	-153.674389068025	
66870000	-21.6535504620161	-84.1985705441536	0.951642576728385	-26.4036505827205	-41.5998015071061	-139.14083193411	-3.8998041448235	-163.007162327908	
69365000	-21.1418093557024	-77.4570274743212	3.08084635658536	-146.824091197038	-52.6278075982655	-30.280482280043	-4.39085532393561	-172.02948405858	
71860000	-22.3071875041639	-57.1024941944249	5.38437133328165	93.3952451624068	-48.9682035185882	150.757891351006	-5.16320588238758	175.726649548154	
74355000	-22.0499620487961	-39.9218868418192	7.33571486774685	-26.3870103580733	-47.3567708709138	167.147793594929	-5.88717841648465	166.043446409998	
76850000	-22.6407887988704	-26.0148784848683	9.15515426712838	-146.690864738587	-42.5506878301577	70.9225462300502	-7.25935011748124	155.430494154094	
79345000	-22.0177458103951	-6.83132806255605	10.5465261600016	93.7553533335953	-43.656463852774	58.5511141932945	-8.70647683122314	145.633503631227	
81840000	-22.8682865002227	3.3081213504282	11.8800373822621	-25.7977786038708	-45.375245472918	19.1321406512285	-10.6977056864403	134.452872211464	
84335000	-22.8808057170241	19.4510170197878	12.7771118910646	-143.74751149729	-41.3437731392179	51.2319229016045	-12.4149613503658	128.945375350874	
86830000	-22.9563111895428	42.6597340000088	13.5976596649642	98.6614810905224	-42.4323469837197	111.375923695505	-14.3967651943357	126.849376663484	
89325000	-23.3374764404797	56.8765177838273	14.1452768340674	-16.9589142222397	-44.0079423801076	161.746690709097	-16.9815273206051	120.109155750239	
91820000	-23.6457446264286	80.3670554956945	14.6685238912351	-131.755550882625	-39.1377129936676	106.37060265769	-19.0136249042237	125.697527646397	
94315000	-23.5812833874786	97.1954244382075	15.044607427035	114.854416694498	-43.146927714361	-159.350159231271	-19.5806919113154	124.031624425938	
96810000	-23.2218911969494	119.127499024783	15.3374846430197	1.96709864732101	-56.3730517812818	139.630084864326	-19.804694595853	129.989121801358	
99305000	-25.0619397587916	141.324464068888	15.6134679460116	-109.327114708148	-46.6371878620219	97.4319412332801	-20.9398113252458	126.350531062699	
101800000	-24.4485028692807	145.222284401454	15.9181587077604	139.99649361642	-60.4724908479999	168.735222770944	-22.1338660882881	126.351963554856	
104295000	-23.5058479413042	163.39265164572	16.1007440219394	29.9029772987056	-45.7050867703871	-9.50227522969613	-21.2695527840757	136.06779777291	
106790000	-22.0884064944974	-178.86031226204	16.3686710403582	-80.1527241489439	-41.1221556121141	-27.2188266665047	-23.5019730240934	129.655824409637	
109285000	-22.5401688998235	-155.730779821341	16.4846536475104	170.884138253054	-40.7485780707577	98.1202052829828	-27.9118192558179	126.197351867272	
111780000	-22.6026287628507	-145.338457679426	16.689930251493	62.2203174690331	-51.2863404087541	-63.6264510439286	-25.2275929345114	106.420872546732	
114275000	-22.9798117976497	-120.786881682061	16.8064164376224	-45.8754176730227	-41.9352058147382	-135.643516427846	-23.7607088579285	124.257103712459	
116770000	-22.6630747046008	-108.851212404134	16.9167404375785	-153.384708156602	-37.7627910342221	47.7283560717352	-31.5528806673526	95.1786274565316	
119265000	-23.3345740253975	-99.0761150692729	16.9129139880066	99.0560708808297	-43.1946637738442	176.277489018772	-33.4396137261225	67.2997761028004	
121760000	-22.7707615064398	-78.8677356485697	17.0203503155631	-7.38770549411923	-40.0761864463786	-30.9303597767593	-36.4503641795283	122.514697330979	
124255000	-23.0715371185167	-62.6148513091829	17.0310405388749	-113.599180928635	-45.1071788798534	136.645230769479	-38.0681919001796	95.3099658560081	
126750000	-22.4836276086235	-36.953488857218	17.0982628730887	140.109622780029	-49.4791997187392	-106.656175933152	-38.3244124912679	60.1832456686687	
129245000	-23.7018843902357	-25.6471270100501	17.1493059111834	34.4209468575986	-50.9517949860393	49.8144214364103	-43.4353284226731	79.0271633641319	
131740000	-24.0889515170411	-11.2760988137214	17.1148973285042	-70.6747286616496	-45.2321968817295	16.427934337932	-38.2846232049887	-38.7248935907225	
134235000	-23.5683561405712	11.5562554065933	17.1777607178788	-175.846110633974	-49.8634839423885	-115.529015623855	-36.1440387642728	-23.6756160313358	
136730000	-23.5539861791321	29.7462475412778	17.213669897973	79.6620139627735	-55.7978992194063	119.488315033678	-29.0715096999382	-109.73178281588	
139225000	-25.7098930268352	48.4334873587585	17.3279071839636	-25.2513822951202	-42.1444620064172	123.920711159114	-37.6035569991746	-155.809911819517	
141720000	-25.5959318740279	61.1521711698808	17.2841834556152	-129.644928958485	-42.0273443231153	-107.855510751365	-32.1152289512964	-109.826535415832	
144215000	-23.8339643340681	78.1366261031291	17.4101185675411	126.509503738685	-45.7843097787122	63.1477290645734	-27.1016567763803	-98.4053372507833	
146710000	-23.2557563553295	109.079134686035	17.41494251253	22.2671855181252	-41.3127533272284	-62.5911905442469	-26.3160464059745	-134.524264503909	
149205000	-23.4439190229984	123.308472789495	17.4689002572076	-81.7691597416722	-42.4539878950321	-112.56256085102	-27.0796923677814	-123.544456590157	
151700000	-24.1150179497894	142.999918278742	17.4364538917361	174.505047450139	-46.4068118398169	-117.331540217822	-22.5017753549849	-135.66208045611	
154195000	-24.6400438792098	154.678385362063	17.5247032512528	70.85416660595	-53.6447095290419	155.256161852122	-23.7563282663855	-142.018249726611	
156690000	-22.164371299786	179.772633824388	17.4927064010731	-32.5918359330855	-43.5743686772111	156.348488886788	-24.410516897066	-142.152918541871	
159185000	-22.5584711877699	-167.614172907188	17.5370992532151	-136.126660333987	-39.730398100995	24.3616425984157	-23.5191486462868	-152.302522347674	
161680000	-22.4590958744058	-153.88268308953	17.541141047893	120.956507182714	-54.0409354312781	-141.646636789328	-22.2676108726611	-150.148397591139	
164175000	-21.0284939736124	-139.536366415405	17.5769921306096	17.8070999124591	-39.1208069114216	47.3490006223846	-20.8790984588098	-160.550989128298	
166670000	-22.2152424776567	-128.721919526805	17.5666221429805	-85.2112204187146	-36.1923601934488	93.1252181849694	-20.4391700881453	-173.385983927435	
169165000	-20.7795746784471	-107.834313151467	17.5692388784821	171.873454287369	-45.6991350892928	12.8586266686322	-19.3147511165809	-174.316240778864	
171660000	-22.5416197215666	-93.3149827542669	17.5500704047181	69.3223608819018	-59.363383286562	-51.9479650657308	-20.48963097409	-174.906221021884	
174155000	-21.6070345003688	-72.0803165408359	17.5196804646931	-33.3703773085691	-44.9662860921348	12.8456347289561	-19.1442436327789	178.806159638047	
176650000	-21.7543775262694	-65.5477678966003	17.4867671327944	-135.546148567836	-46.6108854941977	-76.0269141283413	-17.5550515797195	176.391983024215	
179145000	-21.6701056628933	-56.0212319561041	17.5203475696286	122.022913330932	-48.9749123740698	18.8411435580677	-19.2786567031225	170.135510350545	
181640000	-22.9043249280782	-37.0326733131411	17.497120169443	19.988728544714	-47.6945385076701	170.442178237467	-17.7291549122213	167.845185570971	
184135000	-21.1764390742793	-16.2021873561695	17.4269086415845	-81.8690072853545	-42.1828084993272	-10.3541399437119	-18.5218225605367	154.503876155598	
186630000	-22.7020855744203	3.38012361589926	17.5151768650377	176.358401618812	-45.4004823144301	60.3231703793671	-17.8381952917348	152.282919588271	
189125000	-24.5060512445826	21.0284283222586	17.5224062026689	74.2270284353779	-43.2197842465579	-152.502349919528	-18.4472308692476	151.853304791532	
191620000	-23.2614667310773	37.9884584867767	17.493293713255	-27.7065514386406	-45.1820948054805	-63.0587535862482	-17.0847476034213	143.973737711615	
194115000	-25.256098403314	57.6810111790843	17.4744832395094	-128.990416385814	-46.348363139628	-68.5897261466409	-16.4720729519268	137.765164147471	
196610000	-24.9059470430564	68.2623280251349	17.5428966910658	129.040969433787	-41.5032659173647	130.778684322775	-17.4709796357485	136.986907160507	
199105000	-24.3844388629646	100.831952829696	17.5677212036407	27.5432273118091	-44.8053080923996	132.527887964427	-15.7900189785353	136.377770514185	
201600000	-23.2466936809479	129.711089656229	17.603011700815	-74.3901185870208	-40.7282438866533	-93.2847304357939	-16.7752617272796	136.490332643625	
204095000	-22.7522135329246	140.057719891798	17.5699079206236	-175.739173839372	-47.6074330672524	-2.36938773636717	-15.3078279347604	126.027760173252	
206590000	-22.843918566561	156.048160186123	17.6176358350452	82.3101333117415	-42.589626644394	-108.758349596284	-17.3492512235702	118.372929517099	
209085000	-21.7308971571981	165.993731684419	17.6244388790051	-18.7344202710857	-41.4709036648881	128.53444927968	-14.8937686822114	121.975312209615	
211580000	-21.6956753680631	-169.842369513305	17.6890811865482	-120.9289110311	-40.8618996442542	-163.631456482912	-15.8163042304977	114.263768792837	
214075000	-21.2238747534284	-153.001929532181	17.6924010385591	137.768995077257	-51.8942986066567	98.555862217449	-14.7378156226616	106.964122198681	
216570000	-20.4698813089735	-140.099101566349	17.624813071393	36.1691022983605	-43.0155926380483	152.694278114065	-16.2537439644546	105.606387538077	
219065000	-21.5088467035175	-135.269950853613	17.6446249311192	-65.0384154854534	-50.7657006519976	112.996642033189	-14.3857945566588	99.9748116999656	
221560000	-20.6376207326001	-113.023116218318	17.606041362741	-166.522921941175	-51.9476449368601	162.626475656829	-15.8532586218936	99.3585172220905	
224055000	-20.3979479706463	-102.012486233625	17.6184763786784	91.6303651199347	-46.9310577629123	-57.5691642179113	-15.0667746943296	93.5303128506505	
226550000	-20.119024290038	-89.1532433058294	17.5106851751644	-8.81135008118146	-47.2646852554722	-21.9648846320883	-15.1315381609553	96.6769507683906	
229045000	-20.2070096402534	-78.8527939929021	17.6148553618175	-110.036503673592	-44.1009814566286	-3.69749041133737	-13.729523267545	90.9210322152937	
231540000	-20.6636545240577	-60.3413149650082	17.5370570550002	148.695847401848	-41.6137495974336	-57.7229227504815	-14.5583251224865	82.3796431340864	
234035000	-22.011164058282	-46.1601034727877	17.5179310431332	47.5272199095153	-42.1002166929564	-81.2669911208306	-14.5448699338523	81.6469123578085	
236530000	-21.7523821713322	-24.9192482157642	17.4798407694621	-52.8946789418619	-44.6135003541529	-145.10550429606	-13.7768670321855	77.6893463889221	
239025000	-22.8822455640175	-12.4126960877267	17.5438808555817	-154.293513524076	-39.4677655004251	42.7167282404734	-13.6606504141472	74.3471170897365	
241520000	-22.2271701327117	3.84438287804882	17.485278687577	105.158029155426	-45.8190153222081	59.1123197426616	-13.7938917138922	72.3212220285092	
244015000	-22.3370318743997	20.0901252708287	17.5358692693132	4.40422453743492	-40.4334537109264	44.9449324052415	-14.1028085985901	67.9037916510251	
246510000	-24.0238258569136	35.47868708595	17.5402584028888	-96.4170575376712	-48.4934610948551	63.6221805425249	-13.797989579961	63.5273170469478	
249005000	-24.6918701540761	64.7943626415017	17.5668169734685	162.26114365513	-43.5478045726265	118.061569532026	-13.3766557054391	62.0273167091922	
251500000	-24.2929700499112	80.674070095429	17.6459323316708	61.6663222524132	-39.0115417304422	108.072948311164	-13.8482681557799	57.7364376797111	
253995000	-25.9154347370928	101.576579777585	17.6622959436014	-39.6351027289224	-35.2365230327164	-177.536998185858	-13.6488131435944	52.9444879782138	
256490000	-22.9747961599515	130.184489344205	17.6321755326892	-140.905483327036	-40.0517895355256	130.762280378021	-13.0460557098135	48.6860510572723	
258985000	-23.2546172318685	141.364271665891	17.5808996853495	118.41375425717	-45.3889818987094	-90.3850581829413	-13.31489203889	47.0918142744367	
261480000	-23.0340838277942	163.185251153549	17.6328832099597	17.463839531831	-43.5494638508505	164.152068985328	-13.8105740587424	40.107634394678	
263975000	-23.3871235645125	178.819274883001	17.6388267147957	-83.7912860729697	-43.2997013691763	-102.359650901299	-13.1894772409843	38.8206798389879	
266470000	-22.8800600576768	-168.330523927371	17.617180531007	175.120185511373	-43.2287067760695	59.3944363452656	-13.7334553241972	39.257063111241	
268965000	-21.9112990654085	-142.218230744264	17.5680320362971	74.3838811354309	-45.8127874970459	22.3336492831973	-13.3909014709423	32.5931475473185	
271460000	-21.66575610933	-130.243350167133	17.4883196795136	-26.8682560159728	-47.3242050823789	174.439404933706	-13.0547420824481	29.4101211148144	
273955000	-20.6098544711458	-113.274083990496	17.506284478139	-127.663723280186	-44.0091852234972	-96.7492523825397	-13.5337071819987	28.1204722067179	
276450000	-21.0181717909644	-100.204179274927	17.3097622933139	131.63557300157	-42.8806998998069	-104.778588164789	-12.9209079443904	25.5059482662102	
278945000	-20.4596548740969	-95.9718732297578	17.4517572333483	31.6686720783006	-41.2719119947866	-35.4895551184904	-12.8996126623733	14.3521128416005	
281440000	-20.4891655969739	-78.5532627076581	17.3692408384903	-69.8139956515497	-45.2336056261646	-147.591399128558	-13.3423198789945	14.0743481059409	
283935000	-20.1795168727859	-67.5276008614378	17.3810326482004	-170.06947126788	-36.8716955908666	-52.6931531046774	-12.7055951943588	11.5245058061997	
286430000	-22.1569338132412	-48.1014192977368	17.226492780879	89.1762274762855	-51.0724130505503	-169.843935064869	-13.6808201862598	10.2487593323278	
288925000	-21.8097489149336	-36.6642266282986	17.2861425496615	-11.2253487596582	-41.6086061601975	141.65384563375	-13.3100902020992	3.58211932593047	
291420000	-22.2500702956118	-14.4544824043734	17.1678890116707	-112.007229075006	-42.8587587251224	-139.541134652938	-13.7014885006277	-0.58284465202994	
293915000	-22.5593388029629	-4.74587641990844	17.2401249661559	147.435072997328	-42.4778375098743	134.769575301288	-13.5711290516082	0.270598615858259	
296410000	-23.0840182708915	8.45416811349039	17.1476068456559	47.1660995440174	-52.8427888555022	70.9809367901977	-13.3836358874306	-5.36158910353376	
298905000	-24.7029099426008	34.2843043187486	17.1567271372701	-53.810852405148	-38.5470263099645	-134.909392526321	-13.6226409105168	-9.93092590781215	
301400000	-24.0767621371709	50.3512576824387	17.1382601749081	-153.88804109634	-51.3891277571895	44.4470567045878	-14.0681920878935	-16.1288307919751	
303895000	-24.1338513688258	78.5968919205116	17.1673970662696	105.338136936681	-38.2404416793048	-133.638536383239	-13.3437652537736	-14.5034765376578	
306390000	-24.8710315228316	99.6530775645289	17.0948424575619	4.71991308452858	-48.5735522772641	94.3763617150298	-13.9857169608165	-16.4086543864256	
308885000	-25.0407206196155	112.6860515766	17.0634124181144	-96.1953863415549	-43.7946499031461	-82.8531663449885	-13.8939346671941	-27.5856060954846	
311380000	-23.7964579770553	133.31651499967	17.0813551548432	164.206926875721	-37.9019137215032	-89.8276517644813	-13.2572719892457	-25.7037309513925	
313875000	-23.6905070885979	157.799211947294	17.1076783070822	63.29178720786	-48.1749297943112	-129.840098868299	-13.4446972996021	-34.3933598099135	
316370000	-22.9350900159426	166.788934817475	17.0792083985575	-36.8728694828366	-40.1202845522353	-60.657023287612	-13.7534376938047	-36.2699873572443	
318865000	-22.9376982726398	-168.980954994807	17.0517849552938	-138.005589084467	-38.2893786732118	-4.69549695470312	-14.0473814947534	-35.0188241338845	
