!Keysight Technologies N9923A: A.12.45
!Date: Tuesday, 28 October 2025 04:48:28
!Timezone: (UTC+08:00) Kuala Lumpur, Singapore
!Model: N9923A
!Serial: MY61181427
!GPS Latitude: 
!GPS Longitude: 
!GPS TimeStamp: 0001-01-01 00:00:00Z
!GPS Seconds Since Last Read: 0
!CHECKSUM:0340904721
!Correction: S11(ON U?)S21(ON U?)S12(ON U?)S22(ON U?)
!S2P File: Measurements:S11,S21,S12,S22:
# Hz S DB R 50
2000000	-54.9828062826876	-119.426028689541	-77.7247884957398	147.267259201113	-82.1607794743124	164.271330925809	-0.000581637904452478	-4.14750737459605	
6990000	-51.9707459327402	-94.6215152148876	-70.33648472198	177.662763108239	-72.143365348852	-86.2559431350259	-0.018195956802091	-14.539455438298	
11980000	-47.6270406155098	-99.5822303533506	-75.6137353719804	52.6471286314082	-86.5663283505946	-153.517260975893	-0.098174123133069	-24.8901886502909	
16970000	-57.7903712750072	-16.6622835675826	-84.6435054319785	-50.1082739576521	-74.7763505913715	-77.9272918753735	-0.193511865639138	-35.1519494387036	
21960000	-52.9142965087927	108.968326616604	-76.2361861371157	-30.2954124580513	-80.9992012234626	-73.0499867167709	-0.373127373755577	-45.747782959279	
26950000	-50.6794701627856	128.291583175583	-75.7415760501646	145.254419845804	-74.3939101582317	81.8168424932663	-0.587349001169049	-56.647911281699	
31940000	-53.5990218527969	76.7781157479417	-72.9547660220507	169.28927958975	-70.345503373757	101.387410997549	-0.699672317996031	-67.67116308111	
36930000	-48.1027824029385	122.099072458421	-88.8706272929304	170.768527098908	-77.2847535129598	-83.122078861581	-0.958591535028809	-78.5636260813842	
41920000	-53.2694100617864	-106.138762045124	-77.2326307274439	-96.4101052872389	-86.8923682967595	57.2204013416368	-1.3297209179572	-90.129586617494	
46910000	-47.1232650634908	148.886768626057	-81.713375868599	156.299133884361	-69.9892296964829	-156.966758264219	-1.61686446056476	-102.624530522665	
51900000	-46.7721258333068	162.678209264686	-80.2576513812172	112.827021943805	-74.4333440040195	172.236962617581	-1.99365277481759	-115.489551717653	
56890000	-47.9016402740921	-166.824082589175	-92.9146235638288	-152.385682547969	-76.7225919472965	-142.82567795115	-2.49726266492769	-129.738772251615	
61880000	-44.7547662068803	154.60127655521	-69.81522063051	-14.8215647298028	-77.3348533471745	-157.398193723075	-3.08885093679145	-145.201972574242	
66870000	-68.2258268035861	73.5883561718096	-75.0097842032857	70.891210519122	-85.3484544891753	-146.009923781373	-3.91770499107017	-162.851435560632	
71860000	-54.407406831431	143.853635343782	-79.2698210119852	-101.522739029778	-83.0009645747426	-104.121707234585	-5.23744913049467	177.469021548335	
76850000	-48.2175250056124	146.049766432092	-88.8455323585119	90.8336225379513	-69.7102053765356	-155.249799044355	-7.31120120356024	156.409418188604	
81840000	-46.5935637012524	-177.821226621435	-70.2378545009214	145.11802746146	-82.6401447303778	54.4954544803226	-10.4320022395962	136.747153916268	
86830000	-46.7141759192898	143.568396430753	-71.1454898993744	-27.9200597966087	-73.0137603579813	148.05680292783	-14.3590655781709	123.598761260233	
91820000	-73.1319192005991	-4.13150520187216	-76.2668717105726	175.952003670912	-90.0637444462608	-56.476049636934	-18.687756667433	118.106616899248	
96810000	-48.8369868585174	178.183270079788	-67.2915780291203	-115.02026364296	-70.9996967866187	-71.1858125268112	-22.3661106315272	121.130091662136	
101800000	-49.3137690588861	154.12709107084	-69.0327026916192	1.41416856317954	-72.4048150705083	30.8597849280841	-25.8368879300736	130.389769432237	
106790000	-53.0230595262077	155.53383562969	-75.0169839098939	-119.632424653142	-90.2218631046997	-162.514477506611	-27.1045361290729	139.388188536802	
111780000	-69.6408923021887	-140.21194822181	-75.4981931611345	67.7972550942621	-76.0611965491808	-44.0344409689348	-28.4732359469447	141.807238813456	
116770000	-51.0156992836434	61.3629648000733	-72.2175182301803	-1.24888240237538	-87.2083958135668	82.0814209257212	-29.2118064423704	153.046994786643	
121760000	-49.7020037128173	134.175965158234	-84.0719980702439	175.470189690633	-78.4893724035698	-164.761763914162	-31.6461829547041	151.931127224977	
126750000	-46.7482642485483	119.294555095733	-76.839027375373	-5.2817636106158	-75.747840010585	165.43680656864	-31.437958244357	162.007627386689	
131740000	-45.4382513935142	143.106302835555	-68.2056510539546	163.888078629397	-90.5863409586041	-120.410396274051	-32.5967496469546	170.644056666007	
136730000	-45.9481455210867	100.865265807939	-71.6720334561201	-64.6819847165377	-77.0357033339124	9.73865303455321	-32.081904987901	177.137631899059	
141720000	-45.2285571173962	144.634572992019	-66.6432498565198	70.8060897137443	-70.9127827032229	-94.6604502715844	-30.9780766461701	-174.978605101462	
146710000	-54.8235703675318	166.488552170348	-67.9358610059495	-81.779822870563	-76.2396003505304	177.237774990855	-30.2783445118259	-166.019341724418	
151700000	-46.0248070804873	127.966704208958	-70.9733850874889	21.7015617676801	-75.0314893566369	-72.3117796529621	-29.3380501422791	-174.424925681857	
156690000	-46.4738929832785	124.126376854829	-63.5479286570792	-151.714508235121	-76.3403894499242	48.631331057164	-27.7868162868787	-174.190118070127	
161680000	-50.4575237538637	124.53301990222	-70.7427133898893	42.2226123863182	-80.6092874569664	63.3707846753279	-26.850672351507	-179.183490115036	
166670000	-51.6418062644351	114.46816884522	-65.434688346442	-170.302092462319	-69.4686800143358	-79.5713579022064	-25.880636749234	172.8548767384	
171660000	-44.1579714013632	128.244444739625	-64.3521908598283	-19.717806683704	-82.2701524963486	69.4898653206955	-24.8429805349095	170.686132072329	
176650000	-48.7466367017411	138.175569115519	-67.4822256275567	147.691973029455	-76.879977735061	-22.7899050120133	-23.8236388707981	164.256184933883	
181640000	-44.445573314427	153.31610269495	-63.4729638599241	-7.18060990762509	-79.6107014949959	-15.7234899717636	-22.9639413823495	156.056191410067	
186630000	-52.2633253998465	107.484466988827	-66.2446751333014	125.510664797619	-75.3848341431235	72.0819036701625	-22.1002919217931	148.858610134689	
191620000	-49.9728794256644	128.061826958571	-65.2798090823723	-72.7690811513309	-87.7362674404278	30.8627765774685	-21.5708738570847	143.573041572112	
196610000	-49.5741305594233	168.36275122478	-63.2234743462873	95.3414110165599	-77.8139095566372	108.185698896893	-20.837705940066	136.047349879807	
201600000	-48.2015385079515	158.21950341515	-62.3260525591362	-70.4924466867971	-78.7496972206389	-9.81016332149328	-19.9259167959313	129.34379989385	
206590000	-54.1759511262118	139.670886760752	-62.4235183020482	97.5120868391458	-71.0527903479723	137.814652083551	-19.2627382907819	122.300434386389	
211580000	-44.766649971171	111.268896791953	-61.4982361126326	-130.280897907075	-76.3611016110581	144.556526063442	-18.6716664090775	115.070632546417	
216570000	-53.3266855775102	125.84406865737	-60.6582711857836	73.0392385569978	-70.357563885641	14.3748255560285	-18.3664985881867	108.274261970612	
221560000	-43.2002662654226	112.803458075877	-60.8528543055875	-171.462898666484	-78.231342347847	-70.2915509130192	-17.6491200887294	101.461046531204	
226550000	-44.7128881878246	107.616482864601	-65.6334234005012	27.2210921364506	-78.6359010994024	114.110380963039	-17.214413535519	95.7656324432606	
231540000	-41.1458236519232	128.870315626575	-62.1182851109278	-171.411082037526	-79.4465813254644	-107.293846869293	-16.7064256369105	89.0653738439571	
236530000	-43.4098952504097	84.7596440322585	-63.0617462794515	6.92905562058538	-82.4426232273818	-124.295656250681	-16.4587887095092	83.468936300666	
241520000	-43.9245648768898	124.130303029998	-64.1949126518832	166.512925490163	-77.5781141453003	-91.2481686045758	-15.9760176082079	76.8342073351656	
246510000	-41.2219689532457	109.079710547197	-63.8070724757381	-50.6699390502966	-72.4692727496175	-112.242441489928	-15.5488580690696	70.0033108016717	
251500000	-42.5964764517916	131.055383606398	-62.9601109585137	107.773320001694	-72.891254099417	-148.469084792022	-15.3328790985185	63.032065202966	
256490000	-41.9020841007687	120.393424496777	-62.3770194429429	-86.8922235703098	-72.1545169535352	44.6004535249953	-14.9450800673689	58.0456379492347	
261480000	-43.3501144147056	107.721617462714	-64.1979943621495	73.8222924122596	-77.8707353722305	126.566983195739	-14.6775385217136	51.1288376272784	
266470000	-43.3232144988056	104.140209670509	-60.7392194598099	-113.582829234447	-76.565993883568	-168.391778969996	-14.5528927191684	45.3475663967386	
271460000	-43.215187801484	103.5320205047	-62.8127993920193	32.6125472236547	-72.8679980408688	-113.309877455722	-14.4761545231207	38.2869110815431	
276450000	-43.0874372377489	105.505947312419	-60.6597635410928	-151.644118949046	-104.707100034734	-114.173170834918	-14.1486302921833	32.0771321603882	
281440000	-40.2862255877439	119.497065395826	-58.743832617781	18.5323631723172	-101.151965148976	88.2856594657003	-13.9926640617437	25.0477185417473	
286430000	-42.1333155919495	116.708516253363	-58.6034896879265	179.427992701373	-84.4274318449337	-106.693274835234	-13.8029621225976	18.0962410445785	
291420000	-42.3786505010535	109.925242177329	-60.851820544667	-16.5281745959964	-76.5879196236515	-76.5965707382183	-13.6903187904861	11.9516842586315	
296410000	-41.4413788616523	123.412783634277	-59.1109387105135	145.356802483008	-84.8488494988232	-128.089078176958	-13.712611235347	4.13455858537606	
301400000	-43.7964432223276	100.090151385465	-58.3382583884145	-49.0676103216506	-74.2790545089887	36.4935424724265	-13.5116115798906	-3.14482508555904	
306390000	-44.1329760598422	137.019728917428	-58.7312432205218	122.399971608184	-78.5027666252402	-140.434505126277	-13.4772193044263	-9.79948185656254	
311380000	-45.0296689269759	111.680492345184	-59.3466707586853	-65.4152458692581	-76.7720965823931	-14.4222536277583	-13.2833898187754	-16.6927298546857	
316370000	-43.4071389307586	106.1484524474	-59.4782392758313	102.75698476621	-80.1121042115246	-35.3932774209585	-13.363728046312	-23.7123993977625	
321360000	-43.0184553952022	117.447408815512	-59.2291120216404	-83.2069178710798	-72.1736501345522	-95.4583978975931	-13.4113609881273	-30.7875872795335	
326350000	-38.3106123164743	116.494965191067	-60.8439777961699	94.0352036449397	-78.7485092445778	37.8539522826039	-13.2725050385439	-37.7676101929109	
331340000	-41.1406134800606	115.579132542053	-61.1085931355659	-88.8330471859931	-76.0635276421897	21.0045400167076	-13.4332035827907	-45.9379782502655	
336330000	-40.3443181053469	102.642275072202	-59.4564228270946	71.9990251606847	-72.5472683466989	73.1330789965233	-13.3749859097014	-52.7541891058352	
341320000	-42.373104358846	121.815730853539	-62.4478380927077	-106.795947107628	-72.5066896253093	97.9604627152766	-13.4234177734624	-59.8625635968775	
346310000	-45.8413645439953	115.249835550142	-58.6007190014295	77.3889080881555	-77.6482076641096	75.2198449086196	-13.5072887472785	-67.2074396883918	
351300000	-39.192728132081	125.659719723918	-63.0629208431127	-135.443940754726	-80.484644506941	-108.02433061095	-13.495997214219	-75.1381491518211	
356290000	-46.7772925018981	135.390092438657	-62.9584772719713	53.8712849914474	-73.0898968711716	151.043228927027	-13.6524890196955	-82.3514008104013	
361280000	-42.6279292309594	138.611826402816	-60.7754103999993	-127.527642455051	-76.9940510191361	97.7551729106151	-13.7487329112629	-89.3392575881126	
366270000	-38.2053063042171	127.892885182765	-65.1533320211475	50.4623457508939	-76.1626760057016	-122.173675440299	-13.6460602274084	-97.3568105503787	
371260000	-38.2602900216239	113.684432933438	-61.7668199046842	-127.89162261768	-75.9217868227616	-176.510248852093	-13.830762053734	-105.298313522008	
376250000	-43.0311577113269	121.833854608625	-63.8463295716614	48.0146851897501	-69.411683305957	-160.267184869889	-13.8380867561916	-111.960404834837	
381240000	-38.1111828129824	123.911624198512	-63.6733037552538	-105.104038914868	-73.4540185383946	9.78485768267497	-13.941028818033	-121.403464321362	
386230000	-37.3496919902267	128.7282078242	-66.8751091529411	66.0930996477306	-71.8671710641967	-120.96426034574	-14.0716950406194	-127.801588850027	
391220000	-38.002547897034	127.704712628221	-63.3705215888547	-113.907859774377	-78.7828490755493	106.121788824347	-14.2112918183922	-134.923434670401	
396210000	-40.4932838314097	103.204387639574	-62.1215226203138	79.0370129329161	-77.5792086002337	-24.8627742349724	-14.4322972859629	-143.601043403531	
401200000	-39.9807790104731	117.988389473266	-61.8330781423021	-96.5056715951217	-78.09636456586	-0.871873655116022	-14.7255486453922	-151.02458866533	
406190000	-38.0873553871625	121.641058277074	-61.2744168540197	102.162920634482	-70.4129489066346	-18.7176868295781	-14.9157449871024	-159.144671923329	
411180000	-39.3635691387021	114.539997366132	-56.0796307197189	-101.929538007259	-80.4966664755369	-119.307156512078	-15.3631676713957	-166.550255106537	
416170000	-39.9021426932332	130.866514795657	-53.7768875423326	76.936796907107	-78.0016099120209	34.1537570134932	-15.6713018142887	-175.192853790584	
421160000	-38.1835814563117	121.723372669246	-51.9117355158246	-121.239609195235	-73.4905150899944	114.135886034307	-16.3621161760742	174.758321707694	
426150000	-36.7856253418173	124.784589283906	-50.2128423013733	38.3320121516755	-69.6440683134548	-94.7170031052745	-17.1232366610528	167.145532637231	
431140000	-36.7711352190642	131.807363869982	-48.8131168411383	-178.039616621158	-75.4038272214165	-61.410486664984	-17.9722796201955	156.619472471256	
436130000	-37.7300476445027	103.974645821938	-50.3386810480466	-19.9507180715831	-86.3004944813051	-132.429507196519	-19.1378632637493	143.460948612234	
441120000	-40.6159033517601	109.989323852913	-51.4661931306792	147.199631574149	-70.0165823884894	-96.6628248314213	-20.4900346197346	128.847336354391	
446110000	-38.0347869490974	131.020157050994	-51.9252401562755	-50.1781734866855	-76.2792568708249	9.30402594356072	-22.2077354134591	106.025207023899	
451100000	-40.9558454146451	112.243423418974	-53.5776858893889	120.767945818428	-72.9471483249824	-61.6125615334774	-24.0334383211577	75.1852966331691	
456090000	-38.7249431784016	123.282816031176	-56.2936103073562	-56.7480495833681	-76.8255777272929	-38.7444587872003	-22.9698151886953	37.1666879443766	
461080000	-37.4498616841468	112.66573630784	-55.4083544430169	110.69795573893	-71.7653184703474	-43.6745753114272	-20.8165518541507	5.37807141372354	
466070000	-38.6071526869899	101.85647097214	-53.9941812817325	-89.7090825825955	-78.1702056608517	-61.5311283068426	-17.9061287287702	-17.5913695192307	
471060000	-37.2944730748439	108.103621782072	-54.3947683538332	61.4925367859648	-80.5234253828773	-75.6080820059306	-15.4584026022532	-35.7410615644846	
476050000	-36.7161392843346	112.552677967821	-54.7897120831956	-128.518342387559	-68.284288560498	2.87889325231878	-13.2394617624215	-49.8073705612427	
481040000	-37.418757168552	108.579562133094	-54.3842146794708	13.8093167158879	-92.9365696659131	21.4954274418711	-11.393206736061	-61.7806092918566	
486030000	-36.376833022357	114.647189656169	-54.3318993676712	170.664233272975	-81.3661224800733	-154.22972049977	-9.71935228056465	-73.1788047593976	
491020000	-35.8132077810954	119.793802448509	-54.1455169379577	-44.4638043369218	-70.504150488951	55.4249968452894	-8.29847926611566	-84.6884549376222	
496010000	-38.1797483659149	110.632296493517	-57.022142994696	108.728120373858	-87.0646256944675	-179.08630481469	-7.25059464843573	-95.5092055954329	
501000000	-37.635465427213	109.2733627168	-55.2080207752263	-92.896650422552	-72.5580292871437	90.3998045554367	-6.3743576217624	-105.551848649862	
505990000	-37.2806399858564	96.5395225362208	-54.8551463127311	83.0769251115194	-73.0771987319701	149.305861153215	-5.70379186989036	-114.686495284735	
510980000	-35.7100805442664	107.433421737661	-54.923694425541	-127.62413215611	-74.0918783386709	-60.6851347652228	-5.05225874415877	-123.445943825638	
515970000	-39.3893682906645	106.093272941783	-55.3752339514018	54.2184862813592	-73.5278810880243	-174.776319776601	-4.58900175691426	-131.705004343638	
520960000	-35.6594633667672	109.617315218377	-55.2825840241755	-150.71745432295	-79.1707675653554	-148.911457620206	-4.20420906953882	-139.026885211787	
525950000	-34.8936599726504	119.759174874878	-54.586718122039	13.9276054785504	-83.345982811445	-36.9752193674173	-3.82718055144906	-145.978604317014	
530940000	-36.6422064831446	117.551451640392	-56.922254347151	-157.945518225357	-68.0063964530202	-22.4994250580548	-3.69241191562722	-152.529187942852	
535930000	-35.2075731206583	128.857389087414	-57.7056573656481	-0.519333300198006	-82.6522690821283	-137.17881227372	-3.54696068817268	-159.171134556533	
540920000	-36.8180547996032	118.009775059423	-57.9489881951242	154.19715757873	-72.1615113507205	-104.018218231057	-3.35001195411928	-164.218717052429	
545910000	-36.7966695967303	123.871993403036	-60.553995733161	-4.55957965622104	-66.7804271228313	17.2842314474964	-3.18176599114918	-169.246932353213	
550900000	-36.8629680723517	113.242662601623	-57.2005703487721	157.552749631093	-70.0760861003386	0.729072019660497	-3.17423050913741	-173.877089941945	
555890000	-38.2312391390864	103.305224469421	-59.1764366658043	-43.0580648716717	-68.7761816318774	-31.9606025013489	-2.96926129568706	-178.81388371177	
560880000	-36.2551945547133	102.971118770509	-59.8580495104162	144.972262750101	-64.0161005947139	82.2538861287494	-2.96933338416001	177.576269956536	
565870000	-39.7550124687532	116.056349545756	-58.5659186619515	-33.3429480907262	-71.8612806589457	73.3321112495982	-2.85552489218383	173.603475395864	
570860000	-36.1589381291569	105.114676678343	-60.4909139079788	130.02345400282	-70.937679128986	140.758858999641	-2.77205274184741	169.873554662736	
575850000	-35.1353661520792	132.077843557826	-59.9917562261801	-48.8347996003824	-78.2905655817415	-75.1331687966081	-2.7285297063536	166.467310661112	
580840000	-32.4598136611391	107.768610196838	-57.5672700490411	125.736024488406	-72.0503449504172	6.29934699476404	-2.72039248595881	163.163742236986	
585830000	-36.544202771068	106.091757872196	-58.4464533666784	-53.7308255480465	-73.3199033706224	167.599867307038	-2.64209268031955	160.120681706727	
590820000	-36.7106676076911	107.977462949261	-60.8695561350639	95.931951958393	-77.1393632811173	100.432845774115	-2.55929341501961	157.281569992311	
595810000	-34.9172083823014	120.262031617619	-60.3657827967531	-82.304846928518	-75.1100033260287	-163.997740176614	-2.54624948838658	154.331167570147	
600800000	-36.740069793317	112.750987229415	-62.0941412771071	80.7073883657969	-74.5428458484934	-83.6460413291571	-2.4895894493481	152.005362629133	
605790000	-35.2573980693829	101.766722717758	-58.6253113395945	-80.2950161173807	-75.09875674619	-79.6629088307003	-2.47611987719791	148.916781852519	
610780000	-36.935074134939	120.409865760324	-65.0092083436846	91.0456961262043	-72.6597719383444	-126.41931678642	-2.41947200384354	146.672883404976	
615770000	-33.0393345684399	117.398581954125	-63.6630410752537	-105.337997686205	-68.6815461665823	38.2005456362978	-2.3573275109917	144.320326590234	
620760000	-36.2504504956523	100.07382762203	-59.8437671435341	62.5064028468451	-74.2421081086368	-112.672186154585	-2.33732722041432	141.646848153766	
625750000	-33.1511790509963	111.372950559717	-61.6349979133076	-115.171069689276	-74.8328421088328	11.0149389036627	-2.34119237332374	139.715948820197	
630740000	-36.6386477547724	106.686169549211	-61.1330252762725	82.9547180661541	-67.067108152699	102.790780339236	-2.29968374999037	137.403289301885	
635730000	-37.3609843204578	92.2515861772629	-59.5361883789126	-126.050099751345	-66.6611443790168	75.1408957832273	-2.20242688600025	135.357583091262	
