!Keysight Technologies N9923A: A.12.45
!Date: Tuesday, 28 October 2025 04:48:01
!Timezone: (UTC+08:00) Kuala Lumpur, Singapore
!Model: N9923A
!Serial: MY61181427
!GPS Latitude: 
!GPS Longitude: 
!GPS TimeStamp: 0001-01-01 00:00:00Z
!GPS Seconds Since Last Read: 0
!CHECKSUM:1833709433
!Correction: S11(ON U?)S21(ON U?)S12(ON U?)S22(ON U?)
!S2P File: Measurements:S11,S21,S12,S22:
# Hz S DB R 50
2000000	-55.3022701889946	-129.852522525419	-79.8547915189396	27.8349673949018	-76.1954115135061	162.202022795687	-0.0021870130796558	-4.15596808957074	
6990000	-51.1593498921319	-93.8095573318843	-73.8447567922063	-157.524628322874	-85.0291368977285	-178.314447548485	-0.0185968763613901	-14.5679777195132	
11980000	-48.0202920281241	-103.070061842694	-75.0301646997598	97.4629607970065	-69.0921109101295	-48.745532163434	-0.0951701733945271	-24.9635584094219	
16970000	-56.6378222397285	-22.8229303464241	-96.2638800807727	-73.7469763586627	-75.1221957047608	-135.231696093723	-0.191050883920318	-35.2447152100512	
21960000	-52.0492663809034	110.731355012849	-75.9064018993866	-81.2344977116317	-75.0553824569113	-65.9798510016477	-0.365440348392674	-45.8478491285686	
26950000	-49.7455223570291	117.856789477254	-70.1833741180831	144.121874271321	-65.9293957107859	-67.0847057825987	-0.578826189004981	-56.7519401236512	
31940000	-55.3342470181325	73.9453398522367	-71.3216747029943	84.1161307813227	-76.0679104927881	88.0863571651329	-0.693027197341782	-67.759659964982	
36930000	-48.0539746318374	127.343338293795	-92.1065172384793	129.740931177294	-71.4614805112533	-31.9050228580506	-0.944587916266099	-78.6204114732791	
41920000	-54.0629213760454	-94.2022331992955	-72.6271636536347	-77.3939565886349	-68.208163023479	55.6923970640465	-1.30878195898556	-90.1702902893529	
46910000	-47.0019220844709	151.529142936042	-69.5585374042812	129.612673350135	-71.9063902996214	-13.2679928764189	-1.59206994921055	-102.610515666223	
51900000	-46.8949444066466	161.184463708586	-78.4508091535974	131.701610631943	-79.1314854855675	-14.581479594988	-1.96057150167733	-115.431723945796	
56890000	-48.0216777985464	-167.248768898907	-73.4259316425595	-30.6905134571095	-75.8268590010992	-74.928648136695	-2.45311490855396	-129.599180979473	
61880000	-45.3888615599993	155.196764966282	-86.4168612194982	-31.8858572025908	-81.2576915579584	16.7884604748673	-3.04158396366941	-145.010494630632	
66870000	-68.1218507992822	74.2606470348598	-83.7852043174847	-173.64012647101	-77.3007249251024	-164.753978564022	-3.85955136417027	-162.576067238496	
71860000	-54.0298044540909	138.83966980893	-80.1547916566341	-141.947107137672	-75.2609492342557	-30.6565474958746	-5.18112141827945	177.838085413024	
76850000	-47.8575354255893	148.081164211476	-73.4283607545831	-80.2344875255251	-76.3889699187571	-47.5849677537037	-7.26058750461448	156.898103411844	
81840000	-46.5642843909213	-177.378883213601	-66.581553341747	-150.4515997453	-80.6403225013773	-90.3770172995363	-10.381611257046	137.371820458294	
86830000	-46.4948331518309	141.326025974015	-74.5110346921014	-35.1572248953399	-81.0643212973272	49.0345264974893	-14.3360404538937	124.388040099525	
91820000	-72.1814882332074	-1.95071674271708	-69.0759593856	122.507346554388	-78.5536713103474	21.9981956698788	-18.7115041047494	118.83649451847	
96810000	-49.1438969518994	175.08256673224	-69.7655991938017	-78.253260383292	-79.2461266958235	-34.3413839710015	-22.6171499411176	121.94117361283	
101800000	-49.6325822571039	157.68388075885	-70.9698094363493	-22.1984583665537	-72.8559329107359	-60.5820843442046	-26.4034992125011	132.43893235563	
106790000	-52.6403429831299	166.514418964518	-72.9516943011534	178.544665695798	-78.5424306012257	95.1919037583353	-27.8804302573924	143.800315780291	
111780000	-68.7825135091521	-150.301176964951	-84.5497269654849	-9.33969293774876	-78.4832526580449	82.4982044769831	-29.3824142995256	149.92245827349	
116770000	-51.3058813788505	55.6513934488332	-80.6613861295416	170.539306871951	-72.1701870112635	-54.2416680406784	-29.8234261373974	165.352809749923	
121760000	-49.6302589776622	126.392369492906	-77.7237908438029	-45.8063325617968	-74.991730268662	-28.1056113890402	-31.9876791832601	170.834644958019	
126750000	-46.3253397116987	121.089780104339	-67.562041658441	1.74061061069013	-73.9410783594949	96.5227792423013	-30.7869447789237	-179.010340971183	
131740000	-45.9160399239555	140.793650894777	-68.6419562828719	114.215518874353	-76.617943828188	-46.1587241906233	-31.1553039066864	-169.807220478566	
136730000	-45.9613941649326	100.138681718776	-66.9283408167724	-57.276999604971	-70.9384634101202	-143.077032660639	-30.1371931135153	-166.313373753535	
141720000	-44.9050064250667	149.484073378279	-64.9325614834703	103.990865690118	-74.0724046589606	121.195421551928	-28.7744281232121	-162.863567222079	
146710000	-54.7362342223328	157.722965169782	-66.1301483166876	-99.297236119603	-67.6955164338779	53.3954681891817	-27.9677711375365	-157.692862957933	
151700000	-45.64166425915	127.823937954638	-70.4930232272213	38.562934818772	-85.9821601388374	155.635155585948	-27.2258994037285	-165.733913733081	
156690000	-46.9150016716805	125.268479720606	-68.1503899116238	-91.6718608756818	-86.2624574546119	-66.26682746828	-25.9516605253859	-167.935551779776	
161680000	-49.4109734465528	120.635803799949	-70.7071950007528	-45.0206769109188	-74.5764775901332	146.782685390637	-25.2116057096872	-173.498611333079	
166670000	-51.878768026407	109.370887591827	-65.7743499219189	-150.601506206921	-73.4662244337653	-81.3137052412327	-24.4596258217556	178.774643836233	
171660000	-44.0546763785557	128.622923420052	-66.050017453657	-26.8133013549021	-83.2989908290478	-150.310624994373	-23.6548036743299	175.306905322688	
176650000	-48.9573078606991	135.376135283653	-63.1139076416384	163.850328665076	-75.6784531042439	150.326513137275	-22.827532070147	168.864114978924	
181640000	-44.3996493090308	150.316600790683	-61.9449570544263	-17.7875941691303	-70.7203485340213	160.621467272014	-22.1809970702881	160.823725115538	
186630000	-52.2382200037069	109.449340130255	-67.4878224795818	136.475436515481	-76.8619614155848	-63.7658843313461	-21.4793195674432	153.468080750905	
191620000	-49.4447065716156	130.182510877262	-66.1777024206536	-51.7379521773916	-85.21306422656	-147.998693390724	-21.0697644961942	147.711877678139	
196610000	-49.5699250372689	166.815597282056	-63.6761378342066	101.077513201074	-79.8749472478379	-154.535291555549	-20.4345050389026	140.045455115891	
201600000	-47.8957722307879	158.048397499685	-63.0827977828702	-78.8140171676981	-76.236360397291	-25.0617143257615	-19.6862933172315	133.013414264463	
206590000	-56.4567299201314	140.297186803076	-59.9323839746979	80.7971996873521	-71.4905925712378	-113.663964020261	-19.098736190006	125.82750698274	
211580000	-45.6391622755951	114.177170666914	-61.3887659593299	-90.8019281839941	-95.1176009065564	-53.8042012905485	-18.6371966613257	118.34310050709	
216570000	-52.3029333556108	123.256836237822	-66.8098855903789	68.7463156918089	-75.5591249761544	175.411002260993	-18.3918632861563	111.176594750751	
221560000	-43.4783398438468	113.058390593766	-68.0817305892269	-123.940688152388	-72.4216729439167	116.110470362857	-17.7527829203334	104.171646243088	
226550000	-44.7499502195216	109.422514543254	-70.8765089823601	46.025274722735	-66.9030374804268	-122.483878404437	-17.3438821188685	98.1807548354837	
231540000	-41.1146522893355	129.373788122042	-65.8988123837936	-157.015695032459	-76.8119465600501	-65.0571576944932	-16.9041966493718	91.2297272340487	
236530000	-43.3819657981382	83.0381737001044	-61.9077423033943	20.7772941238245	-70.3701004100511	-147.960621850426	-16.7011228074556	85.4061953483796	
241520000	-44.1721996443981	123.342415568161	-68.6449303067901	170.705267257317	-76.7635824823531	-76.7580140907662	-16.2611996348188	78.5058557044157	
246510000	-41.2033934791408	109.084614433147	-63.86236029314	-5.16627021043765	-77.5113937505376	-93.6426564159252	-15.8566022769645	71.3591143219894	
251500000	-42.4782628854973	132.820905660749	-66.6463521394	148.408412282504	-74.5444106793158	85.3656875704582	-15.6800991221567	64.1655794404058	
256490000	-42.1360235528289	121.314020028169	-67.5795784593349	-30.5959607943033	-75.2262532471629	-36.9245433002999	-15.319521730471	59.1069586838021	
261480000	-43.1358827650239	105.489215438543	-70.9391086537997	140.031042018762	-77.6640776237376	-14.4685272501621	-15.0895066482905	51.8525030169204	
266470000	-43.3977732981368	108.454012560567	-74.0176956419734	-81.398735386007	-83.0374129949791	122.505708512158	-14.9886920507662	45.7993769315544	
271460000	-43.2184772605642	103.53446010501	-75.6750957343153	99.0336768203129	-80.2405655174548	100.651002938593	-14.931621327199	38.49774525803	
276450000	-43.270171772668	106.364677302115	-75.2164334418916	130.14973401114	-75.6372277829838	50.590414769381	-14.6222021778261	32.0274007115753	
281440000	-40.4207382893064	120.847740860935	-77.3972466466089	3.96033872665247	-75.8965504184375	28.5886641158868	-14.4816780452062	24.7230189474516	
286430000	-42.0994563092849	115.393339462197	-71.4512311150188	151.700363118977	-74.1269168153894	148.229115037027	-14.3006912356387	17.5001952750837	
291420000	-42.3108762189641	110.284685110732	-68.1830104244903	-130.721035020301	-77.0573380232411	-45.7709750361017	-14.1945461234605	11.110805354551	
296410000	-41.1736726407617	123.629492921827	-71.2598841688635	71.7875015627838	-78.4657415321492	-46.984518301066	-14.2338406366764	3.00749654552166	
301400000	-43.3824356170223	96.8875044371113	-66.6054957980411	-107.11921398235	-81.9841937440539	137.828073419493	-14.0278288940564	-4.58542466389767	
306390000	-43.5394025156092	135.288433639434	-62.7611198490339	34.2578843047709	-78.6056781941581	-88.9913987399987	-14.000525170444	-11.4867982895326	
311380000	-44.7735718030136	113.895959438328	-66.19214666464	-127.419112721057	-80.4066038435467	-85.3543986659974	-13.784627716004	-18.6947943342755	
316370000	-42.9388493117857	107.357264182995	-63.2619175656135	15.9940655675684	-88.6354350548963	-33.8684889032397	-13.8745198178787	-26.0456194738568	
321360000	-43.2344907302313	119.228846126281	-63.3422687721826	-147.026528680843	-71.4985263765758	42.4153329155969	-13.9124304658928	-33.4751626817205	
326350000	-38.2512454819914	117.654793512447	-64.6072479000203	16.5719787394058	-70.5980865922312	16.6572741017756	-13.7462278655053	-40.592241549981	
331340000	-41.1580151080418	118.179872059922	-61.5492453629061	-173.316331745095	-88.4756239237134	-15.6110463052636	-13.9031065364686	-49.0724600616194	
336330000	-40.3367134373994	102.546014272527	-61.5264209991647	-5.70269381986102	-81.8866034449957	-5.93710569875616	-13.8135436372915	-56.2443163622854	
341320000	-42.7748075058534	118.62367431106	-60.8822186904868	153.124961907005	-107.631200969281	176.429269200047	-13.830470821665	-63.6677713793568	
346310000	-45.7730877237521	111.62514802985	-61.2328349784914	-23.137198083575	-74.6678182348515	27.9421792394276	-13.9092855614926	-71.2219201104835	
351300000	-39.2174572318038	127.267325605794	-60.3179548301764	147.709729507941	-77.7652114140186	8.02350682442168	-13.8457916835697	-79.3636912668499	
356290000	-46.800344844612	135.265284400521	-59.4749202110261	-42.5654389448755	-72.8017859687525	55.9097409998494	-13.9908744549324	-86.8023824619595	
361280000	-42.3497658115973	137.790478734458	-62.249000628287	120.048733234086	-71.1970783302834	-18.1892890723904	-14.0496633991528	-94.0927466330886	
366270000	-38.2716168021809	128.022477807927	-62.1124026195066	-52.7314144988993	-78.9304433991813	26.8525287939359	-13.8977075590091	-102.24021937838	
371260000	-38.0142306840924	113.271841252465	-62.1449175855347	112.594859721866	-80.495313246934	-89.3312712301088	-14.0563436471542	-110.450429752936	
376250000	-42.8194957946624	121.704840689502	-68.4145880862837	-87.4035071600785	-87.3983190847799	22.6371842554188	-14.0129565907421	-117.158199081572	
381240000	-38.0798203970056	124.533979472765	-60.3040238876426	91.5481636610962	-74.5140838114712	-50.8979930011781	-14.0287627696959	-126.777318861552	
386230000	-37.2864564627023	128.148065751443	-60.390560034984	-109.933629060923	-78.7841088822593	-10.2253740734279	-14.1290934583304	-133.411858734788	
391220000	-38.0704511977393	127.019823225933	-62.0176110445651	65.004905434239	-75.6836680387477	-93.7484622935678	-14.2393327599916	-140.867493846816	
396210000	-40.8763612128	103.885500265403	-70.7223195972951	-130.602559934396	-78.3983486434696	-90.9269262321469	-14.3802726464917	-149.873324429033	
401200000	-39.8141541831333	116.837229144061	-61.3530463020775	34.2575186224712	-76.0251672782283	40.4792186339984	-14.5960785155615	-157.542099524397	
406190000	-38.2045170987816	122.448631719171	-65.0783675923095	-177.191075391507	-74.7420209258701	-157.071406441996	-14.7227123960425	-165.813907300287	
411180000	-39.3146810149448	115.051162824734	-64.9638897150675	-35.3408589042995	-78.4075872606735	50.975011578718	-15.0794107834218	-173.670806341984	
416170000	-39.6101985535676	129.37975707353	-64.0475538203375	121.357235610748	-68.7974102474733	78.2195260455183	-15.2614383048187	177.254344060855	
421160000	-38.141520860385	120.049977781346	-60.7723883844183	-90.2593389196138	-77.3431882625103	-136.059934350495	-15.7642581047418	166.670805285737	
426150000	-36.8204299181856	125.612500575338	-57.4973749969191	36.5246651639073	-78.4382168650866	62.049070092454	-16.3401162255411	158.295600648945	
431140000	-36.635473632166	132.753352769636	-56.5478617327155	167.206949768507	-73.8170474462087	-100.114403675166	-16.9120633717418	147.065009656568	
436130000	-37.8494851988329	104.140386583425	-55.4280045329963	-47.0604875761363	-84.1566939504183	131.455411239413	-17.6153034773846	133.55307726251	
441120000	-40.3902324998752	109.104008683829	-54.8679601220361	112.960786208257	-71.5671419475992	-129.978945682706	-18.3510177839735	119.029649992685	
446110000	-38.4372615093066	130.982018638066	-54.0009917802378	-97.918730111367	-74.6234660018158	-23.7963450760636	-19.1582247749248	99.3642683854308	
451100000	-40.9188669164378	110.602557916268	-56.2072857934393	53.1992147064307	-72.7125428819967	170.065051812083	-19.9406268578856	76.4052911954766	
456090000	-38.6777323630037	123.41727874575	-55.0191109830928	-130.524159110026	-72.4413642142079	-20.0019970892713	-19.3437032868977	50.2407456257199	
461080000	-37.5630963879556	113.275625479629	-55.2206916991789	51.9055332308441	-73.1928627890444	138.224664524818	-18.4315592657132	24.8660580694084	
466070000	-38.5481459715894	103.351014575116	-55.6777688335448	-143.607062402425	-73.3995977015599	-101.671036822572	-16.6442731191978	2.14900098626122	
471060000	-37.1877102822988	108.64889854413	-53.8310426470479	7.47609721709671	-78.9010712346624	168.09995579926	-14.8919283334907	-17.5074407641241	
476050000	-36.6153550997017	111.278503082086	-53.8392704973962	-178.482876574153	-78.8301352409199	-21.4636144721801	-13.0316546366655	-33.691175932232	
481040000	-37.5203415366322	108.934294312148	-51.8625590337726	-23.8388428151241	-70.2377209869084	-1.59019032455693	-11.3437035804509	-47.4726560752514	
486030000	-36.3682530580441	114.739430751593	-51.6680620420069	145.32331976236	-68.3669727679776	138.715284079982	-9.75686125484426	-60.3955577066347	
491020000	-35.6743275312896	120.341948024556	-51.4749140842979	-54.9529307530977	-71.100643174189	134.749035104241	-8.40057579110894	-73.2162738691468	
496010000	-38.2063182068162	111.549811382565	-51.8620734924404	100.870740228389	-76.0954641143563	-134.390307997991	-7.36207185796948	-84.8806925044667	
501000000	-37.6248090303601	110.295703464163	-52.2583949884884	-96.0043833516472	-74.6405576874884	31.7214958565026	-6.48044363728024	-95.7576256123757	
505990000	-37.2932758505493	97.8800389015901	-52.9384455830513	74.4764652334002	-77.5901720440701	178.451839714393	-5.79058677019156	-105.590786736813	
510980000	-35.9183123375316	107.648637361647	-53.3811678911448	-118.074547078814	-71.1605203370187	121.397636926141	-5.11928841529681	-115.038980176018	
515970000	-39.1608441421603	105.86375325652	-55.0869541533723	44.3584366304983	-67.1645899236295	-173.634127415914	-4.63709441592341	-123.930632913375	
520960000	-35.6099649503124	109.48971088103	-55.5059863336976	-144.291851265869	-74.5320227069229	-92.3788550813526	-4.24560749504662	-131.747189664641	
525950000	-35.0875187105354	120.931663620475	-54.2358929357347	17.0678241559627	-68.5388439744443	-51.8483775175224	-3.85174771553713	-139.240228852411	
530940000	-36.91301591787	116.9600467664	-57.2930306926447	-166.181700895743	-69.4962562414044	-96.9880133293173	-3.71419861527287	-146.217135770082	
535930000	-35.1434480342404	128.708807945985	-55.9085900988091	-1.98086544515951	-72.6283795174989	-17.3650457463686	-3.56325453934213	-153.180618508678	
540920000	-36.925647906505	118.050883492282	-58.171558761692	166.530395929661	-70.2615013712399	157.749417541152	-3.3611917857556	-158.589599095814	
545910000	-36.869308995612	122.923745849228	-56.8283761284447	-27.8021209510844	-73.6467460423781	68.2222261509551	-3.19128187570164	-163.95109158847	
550900000	-36.9853772272231	113.218537210806	-59.9159641180346	144.635035375483	-71.7167022858168	36.250129996784	-3.19026987417642	-168.773898449691	
555890000	-38.5196174009227	105.803535561485	-59.9812631295791	-34.8806964864275	-72.1675398667894	-24.3405461375594	-2.97985915607776	-174.050866109196	
560880000	-36.2428124055069	103.869467693047	-58.3454114966981	111.648678530286	-74.8382311176887	-22.6842754767408	-2.98163709686438	-177.840618035038	
565870000	-39.7665781324761	116.525734077763	-60.2577703207973	-61.9953644871334	-76.3894429846569	78.2141894875839	-2.86189131464642	177.988246153826	
570860000	-36.2555905319314	105.512597574018	-61.6211925894074	105.515060185177	-80.2657896690063	177.347778197935	-2.78467390387397	174.013731705952	
575850000	-34.8815071594768	133.725126936848	-69.8938325118977	-112.36796501124	-75.9958060370952	-159.642541848828	-2.73904934194013	170.510563845669	
580840000	-32.5822491023382	107.728926884239	-62.5710842822459	112.744266228718	-68.0458181823067	-123.841668592449	-2.7379901152264	167.106505185471	
585830000	-36.4878935782833	105.402122723283	-61.933472399291	-88.5728318312309	-80.6301971874489	25.5381186631689	-2.65097336901528	163.880239008041	
590820000	-36.9953616665964	107.331280063899	-65.6551182724049	57.1005499977839	-72.1817014966009	166.421821727043	-2.58038760127452	160.872446221865	
595810000	-34.6741857745261	120.563917875083	-70.5292482834993	-108.876522351848	-79.1210586250322	-86.3058236507494	-2.56225846571986	157.882464609321	
600800000	-36.7773349621854	110.920696457223	-62.5374561465004	78.0133577274691	-75.565657421868	-69.5853442368977	-2.50918504353598	155.442288839247	
605790000	-35.3597411751557	102.617161732802	-64.8347437559173	-107.61797181904	-66.6911696950912	-62.2397087591581	-2.49645067427338	152.25517180882	
610780000	-36.5970468303243	118.759630444443	-66.1150129408253	51.2887669503783	-67.7961000934211	33.5888004208956	-2.44195037204537	149.927565333797	
615770000	-32.9836500083343	117.022712546899	-76.7426855505623	-42.3582281221505	-67.8448788520896	-152.794781038175	-2.38878798789281	147.503488259485	
620760000	-36.1937074463041	100.365691840445	-65.2795066438538	12.9586164244541	-76.8214743047029	11.8478569257047	-2.36736716863755	144.77947553093	
625750000	-33.1415449756358	112.033326764734	-64.3678163573202	-159.635308079288	-78.116608730811	18.9354875015372	-2.36716576089808	142.692504556462	
630740000	-36.1548688305099	107.206937256745	-72.4187457031603	119.866559954889	-66.1107180595565	117.045341425767	-2.32778705819746	140.356520187107	
635730000	-36.7909932782551	92.5592375993286	-61.9212490040737	-155.124753043558	-79.15909704553	-19.8540158179263	-2.23345491750577	138.223880040215	
