!Keysight Technologies N9923A: A.12.45
!Date: Tuesday, 28 October 2025 00:09:08
!Timezone: (UTC+08:00) Kuala Lumpur, Singapore
!Model: N9923A
!Serial: MY61181427
!GPS Latitude: 
!GPS Longitude: 
!GPS TimeStamp: 0001-01-01 00:00:00Z
!GPS Seconds Since Last Read: 0
!CHECKSUM:0318784143
!Correction: S11(ON U)S21(ON U)S12(ON U)S22(ON U)
!S2P File: Measurements:S11,S21,S12,S22:
# Hz S DB R 50
2000000	-45.8731803105668	-179.360219821877	-48.2648833424611	31.965176498243	-58.963125124502	30.8108446469011	-0.0182351821979764	-4.15059420470576	
6990000	-50.3525152009968	-1.76244061176252	-54.6966266810731	113.293538851132	-54.3985573465558	-151.114195055712	-0.0326628441308264	-14.5113819835804	
11980000	-44.572417434719	-69.2257762140103	-56.2533118059268	141.693997158366	-66.6705904756755	158.250937785473	-0.130864134418796	-25.013326558224	
16970000	-52.1320846194682	-72.7802060282225	-51.8284159727892	178.76208224244	-49.2701537162532	157.116653920046	-0.199857188337719	-35.1884127119485	
21960000	-61.5968765616179	131.034685615736	-56.9858545941656	-42.8149842384486	-54.0220502223991	-8.5010478231431	-0.366943130477121	-45.7451778486576	
26950000	-51.6115879756789	164.095916394256	-56.591298953679	-61.3661889476265	-42.5982189687857	0.495157951162409	-0.573516026313195	-56.4915826869238	
31940000	-56.6785206638472	-120.727560015303	-50.7557160479933	142.480715017855	-45.2599282437763	-31.2550232154771	-0.74105525915557	-67.60475276028	
36930000	-48.3315278638902	165.672100790947	-53.8983545602196	-120.467141788255	-55.1159579202902	-51.8923818050908	-0.923609718164891	-78.6630029165555	
41920000	-47.7396154000058	-66.4224992199285	-41.6576389462901	-80.2608353216101	-47.7901389057795	-85.3364359622427	-1.33805428212126	-90.1834628311684	
46910000	-44.2280481347878	-171.919448894045	-30.8481572487825	34.2953597585456	-61.2792746103513	-0.876780393939344	-1.64218506156781	-102.761418564027	
51900000	-51.7528733035147	153.66019344776	-20.94998140737	161.991420462409	-63.2515412059205	-10.4261730544202	-1.97388709616676	-115.717163361942	
56890000	-53.9917355196447	136.248479757043	-13.0437253351409	-68.2874255986064	-56.7659384692867	106.819757537022	-2.417918509947	-129.793001217176	
61880000	-46.4192089267481	130.775517491196	-6.65879228390552	61.8926474700086	-50.8013232434541	70.4364916816849	-3.00005064343788	-144.975945585037	
66870000	-59.8755344415239	-57.4525239384611	-1.25017479621028	-163.847950858198	-61.9745394063918	16.1399365769762	-3.84557985346511	-162.72260920497	
71860000	-57.959663483224	145.952906214665	3.4186246341077	-28.13848160066	-52.3543803957267	18.8892065348544	-5.20821835674924	177.719417681427	
76850000	-46.4252478545878	146.254176292195	7.2231340810962	108.084969502301	-52.1414943496958	-4.57864359883918	-7.36215410439477	155.534260668795	
81840000	-43.8421322960843	-173.04341950903	9.94668701642382	-114.553128650366	-50.8568149569616	-172.475855878293	-10.7882627333005	136.609287334238	
86830000	-47.7476965760902	176.900406100969	11.6418577685562	26.2481688016504	-68.5906540857055	66.1694761072585	-15.2488906063803	129.067815261696	
91820000	-48.8253503137569	-29.1050921277439	12.6883513411106	172.477644014605	-49.7260843975575	-58.464500824076	-19.2252033032637	134.626087228332	
96810000	-51.0840988628568	149.710235241234	13.3833523570948	-36.5966359617816	-65.0278966372923	156.675869315453	-20.3740837393266	139.361226974759	
101800000	-56.5447912375873	134.190175779891	13.9118207759532	117.657688984206	-61.2724344467361	-143.725195007552	-21.8192998909171	139.669163313066	
106790000	-49.5750277219806	45.9548768487917	14.3224951660242	-85.2864867257156	-48.3045266154595	169.475059818095	-22.1875039331413	133.921777408431	
111780000	-55.3225630840691	169.453108510806	14.6348580568073	74.2377472132584	-63.8861968180429	4.5863465848445	-23.9935540981373	115.23799651696	
116770000	-45.2098277978303	62.7550714926256	14.9210689720526	-124.506567790325	-58.0990321927723	-158.214932532889	-27.1756642516288	108.301133166245	
121760000	-43.1834284379205	140.896957095021	15.1026206038052	38.4107663194937	-59.1702970371383	-81.7572705942748	-30.3874627161809	72.9185775045167	
126750000	-44.5197370401491	135.73033076485	15.288199554473	-157.561653829267	-50.9434359304033	85.8660342215796	-34.369208279959	38.2596920722671	
131740000	-45.8587047602747	135.722539891347	15.3971689164237	8.03116463185212	-57.2074206655833	-38.2213712012633	-33.3552685008432	-26.6604250593988	
136730000	-53.8420694430268	105.526404127184	15.4932737500324	174.341392148613	-60.7372391452479	136.906472660371	-31.7472847438585	-64.9794736703684	
141720000	-43.0186759665873	148.10723320716	15.5546135829207	-18.3554105595303	-57.4142791891695	-69.463816829104	-27.0064162689885	-88.9804773289531	
146710000	-46.7542874993381	139.800197638524	15.5974890354771	149.789749006966	-47.3112457401806	-179.835461668882	-25.0172832881628	-106.31584960754	
151700000	-49.3322667773409	132.566571258018	15.6088426465763	-41.161504396079	-60.9358886598635	-101.800239792397	-24.0862454236685	-118.61877549176	
156690000	-44.7363004524103	108.248648125522	15.6392806513201	128.444804562541	-55.3166080398978	-79.2953334299125	-22.6160066916336	-134.443708642268	
161680000	-53.3738097968867	112.270492343438	15.6336321125711	-61.3348545865637	-57.4125296136562	-36.1783622176889	-21.7262378437498	-143.596672025434	
166670000	-59.4260951534365	-46.1924082090928	15.6802553123328	109.246607006357	-54.4319333244184	155.692938124705	-20.0430822435719	-156.900692817322	
171660000	-47.9278902722521	170.907437059596	15.6846813279709	-79.1435939512646	-62.9816684649201	90.3149239917751	-19.3525066346851	-167.88262064946	
176650000	-47.8813240973225	136.83300196363	15.6977529821306	92.6128797734114	-55.8334345215681	-66.6615106960368	-18.9354536652425	-177.219870319718	
181640000	-49.7293973013028	168.611459665516	15.6346649865264	-95.5559189793702	-51.0193006147821	33.0471177952047	-17.8441618195075	169.699534095018	
186630000	-52.2261075203371	-22.3864455501456	15.6340417418515	77.1587675199799	-63.8822543371265	-40.1300591997871	-17.4363012902986	161.363269171903	
191620000	-46.8321659544363	78.0183996862397	15.6557988180697	-110.062713574479	-50.2292080781485	134.056078901401	-17.3932868192088	151.290956260285	
196610000	-57.0343740337804	95.1993872092469	15.6369528474056	63.2602535071193	-56.7729485004826	-179.268352492732	-16.9113701394425	145.575119894024	
201600000	-47.8253114804997	155.851035368356	15.6706355784146	-123.634013333984	-50.3300601771697	49.0554829961203	-16.3846932458581	133.165022567175	
206590000	-64.7153582190324	19.0581711282249	15.6563371618579	50.2188597044245	-50.1678980238623	-131.705681420089	-16.0832721579506	125.949012450176	
211580000	-40.5465692071948	111.021823829249	15.7210312201332	-136.345985834782	-55.5532968954378	162.914524341802	-15.8047815658585	118.506793154526	
216570000	-45.8290375712689	168.807382877999	15.637471109463	37.4131928285417	-54.1648799324266	-161.510728938123	-15.8047831241946	109.62610880732	
221560000	-41.3027797164121	92.0934183243073	15.6732676282944	-148.600277252877	-48.5785118425704	-99.2185806955412	-15.1466417813887	101.826996271762	
226550000	-43.0016394421552	138.479452518109	15.6526313836765	25.6166215355473	-52.2819685922304	-145.555976948061	-14.8587877966343	95.0334850286403	
231540000	-42.3106511057031	134.319846358126	15.7275052954725	-160.014524342245	-69.0653735482205	123.912855947531	-14.6015842288932	86.3751358431863	
236530000	-42.148633737716	82.7538068079136	15.6910647543198	14.3744597300053	-60.6019152680291	11.1043059142505	-14.6468264646985	80.8335031568097	
241520000	-44.72267999913	77.5120601245971	15.6946229561025	-171.115691562289	-51.239856808877	-124.687792552867	-14.3036814083013	72.2025925638784	
246510000	-40.4682083531901	101.083381718178	15.6586006800498	3.83983864694615	-51.614399031591	46.8619665502681	-13.9317777451736	64.3645039834849	
251500000	-41.2384559722451	129.490619283216	15.6890799184633	178.51777571676	-64.6036163982571	-123.246166426287	-13.8654932757982	57.9103926172981	
256490000	-43.2596046795212	117.878676973775	15.6764498372294	-6.52106150824893	-52.8693572675623	129.162566944786	-13.6608583346929	50.8030795276114	
261480000	-43.4764125837844	107.176307731638	15.6837810908526	168.266841169202	-50.5946267827459	-19.0242377399035	-13.4450417328276	44.6749939742975	
266470000	-41.808489112177	109.808052409174	15.6439758750788	-16.7354268306417	-53.1680456498801	-114.091750720641	-13.3785209334156	35.7521003765405	
271460000	-43.3034816316802	106.219821773742	15.6420949927695	157.993815796724	-63.247745742651	-115.585360808704	-13.5939477403091	27.8468178848614	
276450000	-41.770315196671	103.365789832392	15.5858928486042	-27.0523639565999	-60.7898207090915	144.794812539594	-13.1330404515528	20.3661217100021	
281440000	-39.1664832151094	139.129457403009	15.6424269388086	148.394767296209	-49.5470071862177	-151.591768695148	-13.4401600262202	14.3530883453064	
286430000	-42.1327833659313	120.259358038844	15.5916148032892	-36.7769105927492	-53.024787884064	130.998497683636	-13.2919155505185	6.52256626621443	
291420000	-41.6881836994083	106.692915325886	15.5833498652718	138.647730769395	-53.1866731768599	-130.660047066115	-13.2975669386854	-0.376631267382802	
296410000	-39.8351172763431	121.718458582149	15.5129802945931	-45.8782842538972	-54.0172913477778	-41.2647384074092	-13.3592363853615	-10.6080772759954	
301400000	-40.2972032713692	103.366318143173	15.4700821447776	129.393992190368	-51.4704819100101	-150.660150631318	-13.1965398090253	-17.4415419352963	
306390000	-44.1559042403694	130.941470610915	15.484421456703	-54.9422295302901	-61.4450896794724	-137.689709930218	-13.3148454894788	-23.9045783463338	
311380000	-42.1564960480774	93.2469534322958	15.4516966951196	120.283240348494	-56.7835540256323	-80.2242846266992	-13.3634426068097	-32.3280936493601	
316370000	-43.2125553389312	92.3405468237632	15.3637737634652	-64.3282548426956	-62.326900578806	-21.1025711382264	-13.6366365055853	-39.3796905533187	
321360000	-47.4904312466928	125.485946065644	15.3296139561825	111.037618397109	-57.9201103342174	-68.7343563088858	-13.8044423598337	-47.9603867496798	
326350000	-40.8794315201083	91.2057504668775	15.2546430823108	-73.2002591933188	-52.9257084879327	86.1165738563771	-13.4777654292515	-54.4058358373196	
331340000	-44.3210554491506	109.593061840635	15.2045944981347	101.811920947968	-53.0463188751337	-78.9316479310623	-13.7799788843729	-65.7342243618731	
336330000	-38.8164277349126	101.724601880617	15.087782505323	-82.5706190795231	-52.9274372044986	103.663345416964	-13.9310799515266	-71.2265141316289	
341320000	-43.317081395056	108.789795971019	15.0035082327887	92.5829840328163	-52.6857238827226	-115.57059966421	-14.1971652818411	-77.7836974832182	
346310000	-43.8111129572486	122.574635064139	14.899164820742	-91.779963161914	-51.6941491861635	-158.953891946718	-14.283682303	-86.0547634337467	
351300000	-36.7440720332949	116.489446091907	14.8459293318841	83.869897118839	-52.6902033331093	38.7124715963208	-14.1589077797184	-94.4461316120373	
356290000	-50.5065866284123	125.508163440606	14.7606785581587	-100.459367122531	-56.0978394691831	-27.3321111535536	-14.5457303316788	-102.219158469712	
361280000	-42.1587244721831	126.025211256923	14.7235985549772	75.2691489443821	-53.7807553179655	55.1422433064568	-14.610039728565	-108.908632208253	
366270000	-38.602753987454	118.044520172167	14.6667348231533	-109.479600311138	-60.101045950436	73.2158366271572	-14.534502352539	-115.332404742158	
371260000	-37.6903957871758	120.944037959981	14.6310015118937	66.1179826903962	-56.6719688717238	151.414235777202	-14.7423883329845	-124.670963240193	
376250000	-40.8575624957048	120.182066873269	14.6035787115926	-117.907188314293	-59.0194424339944	-159.037663537629	-15.0133525838766	-130.824488291435	
381240000	-39.36102224834	153.512017266564	14.5623020491514	57.2947961781179	-63.4400906746591	-138.068494124594	-15.0118655707453	-138.450331051536	
386230000	-38.1383735142873	126.458696237197	14.4957379485118	-127.502153346152	-52.4630913760187	-129.414283852918	-15.0502024101952	-147.285514905276	
391220000	-38.8037281907527	123.645747456899	14.47802821556	47.506549131518	-53.3597661520426	-38.8595038793557	-15.5145243959117	-152.408836087145	
396210000	-40.0913452659466	132.899230634315	14.3093399686695	-137.106243155949	-49.0748803416928	85.9601848400063	-15.4712063238519	-160.638834247629	
401200000	-39.2044584993837	118.512883308504	14.2717051782823	37.9692440770691	-53.8664768674195	44.1668033466732	-15.8949512726719	-169.485885893816	
406190000	-36.3173967919942	121.035994832428	14.2006730215758	-147.107253058495	-54.2488045686223	166.761099074471	-15.9981489189104	-175.118873947361	
411180000	-39.4528377854148	123.017579588096	14.1754450738677	27.6626888084015	-62.1019990678038	-6.93170931591222	-16.6241036815909	175.839019660932	
416170000	-38.8109808863639	148.374823135468	14.1810363527366	-157.692192938871	-54.475672651214	62.7175593492523	-16.8489433435516	166.923570034101	
421160000	-36.9695662993499	113.823748436164	14.0946632178333	16.7193129659351	-59.6148060510974	-119.622184707763	-17.4177566651731	157.319843109661	
426150000	-38.6666137158503	125.029772239065	14.0667327802223	-168.890048030202	-55.1730806481534	-107.882329768105	-18.4374822176084	148.262369690559	
431140000	-37.2244874809435	124.525826472214	14.1178416918381	5.43785943692297	-45.2918489045205	-90.6093013097813	-18.8628632392177	134.006527092216	
436130000	-37.5349897350653	105.925572212494	14.1582917217425	179.563617649677	-56.5100685527284	-165.106859783899	-20.3544149844755	119.805512283888	
441120000	-40.2036298396281	91.366939557065	14.1735831253134	-6.58952855491496	-55.3817357397609	-47.0481474309151	-21.0923960864154	102.754244654699	
446110000	-36.4145191795085	128.150213184751	14.0962089119073	166.870309501407	-59.0746635037247	61.4903264380144	-21.6191577245785	80.2952349038461	
451100000	-36.8328186337263	118.648903361952	14.0823392349021	-19.9669142470647	-46.8010042965169	53.4771481740796	-21.9310627930929	52.0816045078168	
456090000	-36.9951790721955	126.688810197963	14.0456176808163	152.816435168196	-56.5082621395551	-150.106733886412	-20.6124990700923	26.05081310924	
461080000	-35.0165003268036	112.835068555387	13.9473357837045	-34.8481967167996	-50.9807008617307	-93.7473716627351	-19.5090747672586	3.69898873212894	
466070000	-39.0179289675865	106.244658112186	13.8065437338966	137.209923112192	-49.7335857387835	61.3890151934251	-16.8663063887507	-13.825043508313	
471060000	-41.1871842969285	106.477331128083	13.6056003012501	-51.4058661683119	-49.7674960270391	-92.7181615227845	-15.0425190402491	-30.1599056008134	
476050000	-36.367198622175	111.215399462388	13.3634116172511	119.945365494681	-56.2892346180661	-46.6763365913831	-13.4198565566606	-44.3362185860602	
481040000	-38.0324016160578	90.2361407170057	13.093060728671	-69.0130541018302	-68.4120757248851	10.9674627790699	-11.8779847940983	-55.3367765014696	
486030000	-35.0766652211327	111.644110052093	12.6740511604085	101.498221384798	-53.9493860853982	79.0559374077532	-10.2471381295337	-66.238774858754	
491020000	-35.0120006483095	118.755947831489	12.2415366174803	-88.0675317281449	-47.8432309115624	-162.913751790612	-8.92914248321923	-78.3713277536004	
496010000	-38.2365004316067	103.903294540746	11.6162260318636	81.8752889190378	-56.2527842023553	-85.8084495575522	-7.77404112114452	-88.5840632267619	
501000000	-37.2451319763532	121.335585307991	10.9128587668338	-107.345655813045	-50.5864401105707	-30.6822594974039	-6.8783578833296	-98.3304305981962	
505990000	-35.6406594085614	95.538986079896	10.0737807488362	62.9052020695541	-61.9727776318089	-164.140744617782	-6.13103839061887	-106.977104466244	
510980000	-36.531296578633	126.288464987754	9.21021649402288	-126.785749214046	-50.2751709356978	69.9982776367679	-5.40095956381691	-115.944751859671	
515970000	-40.7467589440942	123.351926969208	8.14935277030187	43.0675025443581	-55.1215819042568	-137.379159321936	-4.87933130224634	-123.94037094563	
520960000	-36.5268305967384	106.801260634487	6.98531230699025	-145.825524960093	-50.0171437610245	26.9649565605455	-4.39780559125354	-132.155848656227	
525950000	-37.8224174037218	126.754578835737	5.77105102560727	25.6915521142985	-54.0527387887956	-87.3302456616286	-3.98721645771098	-139.379859218922	
530940000	-34.5515975383121	116.664799936136	4.50643578916312	-162.565077155986	-46.5129375120074	27.6172114417116	-3.84463863792561	-145.919316628525	
535930000	-34.9129310254247	116.424159491993	3.1143749048073	8.9803869312857	-52.0026366974596	-87.9043782794054	-3.59790833210334	-152.819287984756	
540920000	-36.1045989522298	114.364527974943	1.80272902718822	-178.247285569131	-61.4466529421389	5.87535045788572	-3.431929951437	-158.322947351627	
545910000	-37.4923222452041	116.106719785224	0.312240434851609	-5.45654748660852	-48.8877402592	52.5125797695323	-3.19037663803188	-163.389875044197	
550900000	-35.6031708635858	116.570251598566	-1.18539231438521	168.100579976744	-48.8678887500254	-15.4022292701093	-3.21822081897849	-168.338442306337	
555890000	-37.0927692878108	89.8130296644002	-2.66008957985109	-18.9119735901746	-46.2139970719538	-165.99242685771	-3.01316520348276	-173.657946354351	
560880000	-36.5269967653088	108.64917446435	-4.16806370659011	154.719246641855	-50.4705725577924	-70.5727240977735	-2.99940999928109	-177.227899529387	
565870000	-37.786419364898	122.916754714851	-5.96119984076982	-31.2824623184534	-49.4825934725852	86.077712442189	-2.91051528343268	178.416552345233	
570860000	-41.7426203436237	108.975970142076	-7.56427952133143	143.767148852097	-50.6210492683472	95.0544802557314	-2.81483142978757	174.338714495433	
575850000	-34.5688954323177	138.218498930867	-9.31030743222169	-42.0371020566378	-47.8543728331288	-8.7574379209937	-2.76354968030673	170.63873991464	
580840000	-31.7979462234607	111.131906913134	-10.9593810707817	133.675713049601	-54.2075887754225	-114.514905733009	-2.75681915764265	167.518358435335	
585830000	-33.2853323314311	101.250741732817	-12.8303353426968	-52.1422690552961	-45.0373648959495	-107.060244813943	-2.67195709015396	164.095872404822	
590820000	-35.9379549554706	111.866047162569	-14.6221065093354	123.904167146453	-48.7193837312765	15.9441869601453	-2.56228530455194	161.174090260494	
595810000	-34.234381184789	122.595546017321	-16.7568141934965	-60.5966401795021	-51.6342431755352	-2.98556443601708	-2.57082358152255	158.499957388258	
600800000	-33.9284182378888	116.636423473277	-18.6966701857552	116.338104334385	-52.475704742244	140.510876807321	-2.46994301418229	155.688047789405	
605790000	-35.3212861199841	116.191961262791	-21.2712472215324	-68.6335265118427	-50.38257057769	39.9585085545701	-2.50840713184986	152.364041182015	
610780000	-34.6257570868949	117.618332874567	-23.3574453741088	108.194906426904	-52.4587404842989	-108.854985712389	-2.4453607556091	150.168443627152	
615770000	-30.4949902990034	107.237678115116	-26.1543206779162	-71.3246091663752	-50.027104803648	-121.671988844012	-2.3143839133075	147.351442024103	
620760000	-36.5536886656814	102.312574724389	-30.2376912383428	112.543141958393	-44.3136189462172	98.6405017356839	-2.33768753369627	145.035510151465	
625750000	-37.0091505110236	115.400151697356	-35.5898677464118	-69.7560137664064	-46.3187208592305	15.6223322404352	-2.39387422067747	142.967159849745	
630740000	-35.2063591056905	111.16601098904	-37.0044947353847	158.729344228558	-52.6372080545375	-6.38948446906354	-2.34004060750834	140.353580235196	
635730000	-37.5868089720986	88.7682817514109	-44.0975017740336	-1.8937397526848	-46.9757059728385	136.177039662702	-2.2143605235004	138.300619992224	
