!Keysight Technologies N9923A: A.12.45
!Date: Tuesday, 28 October 2025 00:02:53
!Timezone: (UTC+08:00) Kuala Lumpur, Singapore
!Model: N9923A
!Serial: MY61181427
!GPS Latitude: 
!GPS Longitude: 
!GPS TimeStamp: 0001-01-01 00:00:00Z
!GPS Seconds Since Last Read: 0
!CHECKSUM:0046725394
!Correction: S11(ON U)S21(ON U)S12(ON U)S22(ON U)
!S2P File: Measurements:S11,S21,S12,S22:
# Hz S DB R 50
2000000	-49.4124683084681	-58.5771763429339	-52.8338269032128	-153.255554355828	-49.9020188794002	36.5202335099961	-0.012911534681885	-4.27571511175567	
6990000	-57.8348897173014	-114.996674840263	-64.7036621845099	136.210692475097	-52.0820265747379	164.571542295355	-0.0223391768364754	-14.4785739400378	
11980000	-46.2272369772876	-122.660045443254	-55.2863126444771	99.0362437143169	-48.5810787105002	94.8820534856636	-0.111559758056911	-24.9909711157862	
16970000	-51.0060936283568	-49.7999978240653	-75.3724684118745	116.00397642848	-52.8265023070879	-8.83940844074848	-0.222657419677378	-34.9138371405605	
21960000	-51.4769448716692	123.804690260135	-50.7686670280166	74.9721249730396	-51.4876304562933	37.8126513146493	-0.384217927077453	-45.8159449809694	
26950000	-47.0844761561659	91.2173587215571	-50.1274637945193	-109.286999072647	-59.3812536325896	-121.585304431606	-0.596450944907751	-56.7897625147995	
31940000	-51.91689607826	-59.0069909810714	-45.0337269251786	-9.32269780359349	-49.5482103292856	139.826449023255	-0.703559674845836	-67.426749803379	
36930000	-47.8212253216788	148.057628986347	-42.7935758194345	157.517858520719	-48.264089042592	178.449592336547	-0.967007327252999	-78.819493780849	
41920000	-54.4063192493544	7.75966713828947	-40.7851941862266	-119.542939099874	-55.1082929924686	-5.58389832221616	-1.35463099654213	-90.3457353388303	
46910000	-48.5637535304645	153.889968821544	-29.5485001511383	36.2550690710055	-51.3324965340599	62.8389282077027	-1.62814754744111	-102.79502600536	
51900000	-47.7117705666832	124.827499214219	-20.9379296052855	165.553444964101	-55.0734331485223	142.922361933782	-1.97863051147369	-115.492833380183	
56890000	-47.6517616561271	-119.955882083899	-13.0540515678273	-67.3652546785902	-60.1235379350078	49.4144916802631	-2.51074843970672	-129.841374752502	
61880000	-42.5192638622234	130.54320881256	-6.68748167707285	62.2811290842913	-55.5199708088934	-46.648462975775	-3.05955097149518	-145.445713777477	
66870000	-50.0099457278437	127.270317857953	-1.3447106767115	-163.682348568608	-48.4336125637319	107.965600950499	-3.88233989425108	-163.107575343996	
71860000	-46.1140056203473	151.146978346812	3.40396430383616	-27.8497676685652	-60.4524071083308	-21.8718892204256	-5.13865047959956	176.815321682738	
76850000	-47.2782991424165	143.098630062226	7.22699391370573	108.527801232422	-47.9468196842933	-29.430242451071	-7.39748063661094	155.111992290418	
81840000	-40.418654197026	158.953641932029	9.97953795743532	-114.151670572569	-51.4218261191829	-97.717340974881	-10.9010780469467	136.25831315193	
86830000	-43.3643156507193	165.503991436099	11.712848560457	26.6172140672309	-59.4781484929152	8.29834979368953	-15.490426127469	128.62660754384	
91820000	-50.3803075668102	1.63157482330966	12.7889174836156	172.833641949336	-50.9352412823932	-63.3757256377113	-18.9176231195345	133.503190119766	
96810000	-49.0453703220244	164.484671511688	13.474217033681	-36.4378600318641	-48.4027712487396	-97.3718720574598	-20.6041283489563	139.210042774041	
101800000	-60.8971664672735	74.923657121492	14.0095576159102	117.755707622262	-55.2739031476013	47.9604217917287	-21.324383912789	139.317391227658	
106790000	-54.7602029751366	147.18628618056	14.4271113039747	-85.292179161824	-46.8698890950177	67.437878623748	-21.5804506233911	129.381189844784	
111780000	-57.1856645062631	-27.1928207296635	14.7397539224618	74.2593585938804	-54.7116606157565	-5.78672150526779	-22.7424857270286	116.894888176175	
116770000	-46.0815909594875	73.482462454581	15.019634295731	-124.373790904989	-54.3644409909311	-20.0957870070115	-25.9853654234679	109.426586006989	
121760000	-49.8430819116269	155.626774455939	15.2170140954642	38.4260028264921	-61.2162977986033	75.4803126710601	-26.678899788551	72.2910741423532	
126750000	-44.7095024664018	113.633044179533	15.3890879681931	-157.398725326094	-56.8470372948656	-91.5495310314809	-31.854680913542	54.8221394154918	
131740000	-43.9503841806982	149.364408500559	15.5024910476064	8.21077436555719	-59.5516249126627	117.231832799978	-34.1108964072937	18.3383355957401	
136730000	-46.3856134602532	128.668339292119	15.6019150980302	174.549022513264	-50.6118739603876	-122.97415025658	-33.0281612241997	-33.1817621117734	
141720000	-42.5459351739541	177.682554803189	15.6696820997068	-18.2000776512699	-49.1728612904805	151.571946983875	-29.821329342422	-86.2812266749385	
146710000	-46.175749204019	130.374133486981	15.6993501626399	149.88787590839	-53.3551537012441	56.3073243789685	-25.9977019701543	-102.910906579803	
151700000	-54.435799292141	116.15135930882	15.7305834199951	-41.1161794450395	-58.8274793045911	97.2153529068341	-24.98459241022	-112.48647719435	
156690000	-45.1346040688003	111.671447384355	15.7636980203236	128.438596411702	-48.7892417493725	-106.628754184832	-23.5851539284423	-133.641668246362	
161680000	-49.7224570902184	111.779423171208	15.7803616976315	-61.3344617499605	-50.9565086949224	-40.4826188230307	-22.0224092779073	-146.359007958872	
166670000	-56.1596624204911	146.500296637171	15.8103146098458	109.204820508263	-63.6851586147945	-131.108869227525	-21.3748657768961	-158.642498692224	
171660000	-46.608772708894	128.691231898634	15.8401601507315	-79.2405694032283	-58.2525933150046	-3.9036493416929	-20.4924780990117	-168.505764794633	
176650000	-47.9185697472494	131.985247162382	15.8290862532407	92.3982368411322	-66.4108180491759	-61.4987938283248	-19.7458859411581	-179.313554476486	
181640000	-46.6672736985333	-157.045584781814	15.7777538151435	-95.6740577665948	-57.4689560452282	110.462895016225	-18.6171279907546	172.010347067588	
186630000	-67.742763873524	81.8765497553869	15.7801017684174	76.9713599040788	-53.0129866982301	-25.1792809102517	-18.3345431196236	159.820959477789	
191620000	-48.0453188832344	98.3891605913123	15.8143381632123	-110.33590768844	-51.0800258904572	34.4090293161804	-17.4584028319824	151.61270676504	
196610000	-53.4514761183787	84.7516002831702	15.7864947001725	62.8326134520649	-62.348234913197	-156.726018372619	-17.0597078325246	143.598829989866	
201600000	-45.6633036049463	143.05569639898	15.8332167832793	-123.983292675062	-65.1171154972778	-32.6230472093165	-16.4252330011377	133.176703832829	
206590000	-43.7128266606264	137.436765857745	15.7974867028406	49.6399901733487	-53.7717242536286	-91.0621400096141	-16.189608014504	124.998103045291	
211580000	-43.8169493397456	116.97825398799	15.8826849172345	-136.847829508404	-57.4817868439781	-162.43932235204	-15.7783772692602	115.498928384745	
216570000	-52.6629610999796	122.788639296245	15.8018034473544	36.9043654836054	-51.955953266531	10.0035723419447	-15.5753500533407	107.291311587894	
221560000	-42.211564585922	117.947785867827	15.8290249375851	-149.154407279941	-54.4043089544769	24.7531685844706	-14.8235452441956	100.162156687276	
226550000	-41.1261630668306	123.315768252954	15.8058053653408	24.8415541695954	-48.2737921660963	-149.427384900083	-14.7200390305837	93.5343000631073	
231540000	-40.5588593763926	146.653186308704	15.8744901499982	-160.823484203573	-55.1292128264621	-58.6903356867182	-14.5020410960635	84.0208826797015	
236530000	-45.382837631533	89.7408265683588	15.8511526656954	13.6356420485204	-56.8002919740625	-171.763965238185	-14.4225681576177	78.7527707987949	
241520000	-43.9801351734283	143.173079643877	15.8534321528849	-171.989009667796	-55.8248330507553	-120.51671466801	-14.0361298833075	71.3771277530063	
246510000	-42.8565013091568	103.772455218979	15.8125633194063	2.76328230667326	-56.9669970426731	64.0061445458386	-13.9200117255539	62.7625948926169	
251500000	-39.1030175052176	135.882287353192	15.8432602544049	177.518348659278	-53.9295014410642	128.877537396931	-13.7690355208368	54.8570659430203	
256490000	-42.2353078541282	122.992297230448	15.8098902717535	-7.47661786591807	-52.3748354093488	76.7782147949028	-13.2738977486552	50.440672985872	
261480000	-40.2899145156085	106.27758321419	15.8228098016779	167.18010860115	-53.4433687789106	161.871887405528	-13.0330443110478	42.4070267946418	
266470000	-44.0269763897941	104.720544490279	15.7618449437205	-17.7718066310184	-55.5535344112987	-101.381085587431	-13.2124678576546	36.0021578145802	
271460000	-42.5410562777426	124.78284080229	15.7401000139643	156.772453843345	-56.0667112983241	-8.05798983180155	-13.1314087395354	28.6470462249303	
276450000	-42.2079690968109	108.259394713739	15.6817006606257	-28.108194603277	-48.8105306030936	75.5017009142623	-12.8152335250521	21.6814233905407	
281440000	-41.290240758	117.7567406493	15.7125165897727	147.27147714278	-57.43067441875	173.848977021056	-13.055264745911	14.9599135828614	
286430000	-46.6846753048326	118.042600460744	15.6631808848591	-37.8224346942232	-52.8664686373523	174.873472700262	-12.7776559039669	6.46065538606927	
291420000	-41.6051360495445	114.927288602175	15.6539001368555	137.529070936056	-52.4126656262543	-136.625959060239	-12.8483648827553	0.220232486147547	
296410000	-40.6573682817045	111.531220410061	15.5963811342396	-46.87349270603	-48.2697990731259	-52.9467557369943	-13.0169040270293	-7.89951208840778	
301400000	-47.0289743829729	129.492619944627	15.5594602251613	128.35769975189	-50.1161032419471	-17.6328736147588	-12.9868638525321	-15.8730627332665	
306390000	-40.5153125383492	148.695783465932	15.5555709806106	-55.8682614534254	-51.6782493469118	-144.612548698959	-12.8480756454894	-22.5847109520544	
311380000	-43.9096681365853	114.239087678671	15.5490099987796	119.228016957412	-52.9966617975847	-150.389016666504	-12.7941652079663	-30.0460513923078	
316370000	-41.5206332658194	131.583753820711	15.4558868639722	-65.3916097352898	-65.730711203363	90.5313241464933	-12.9850373985305	-36.1994348210222	
321360000	-45.5177781958866	104.702443407946	15.4370723902815	110.063574804994	-49.0378828651742	-28.6544986278044	-13.2402968231225	-43.8205407701222	
326350000	-39.7885832612474	133.688335258814	15.335910943573	-74.1423321946151	-61.7307120656825	106.488831936508	-13.2970274039867	-49.1647373358676	
331340000	-40.1617150330756	113.779260635115	15.301596199939	100.820827932828	-55.2029623939537	-121.701762755541	-13.5338328870973	-59.6450045462766	
336330000	-40.7042298187273	86.7109527311512	15.1744147689263	-83.5921204102619	-67.2953820677716	-81.1028678047784	-13.560987942329	-65.7747902664842	
341320000	-45.6352982429716	103.553114836028	15.1170908585443	91.5527579068185	-53.846893584991	-155.463697171269	-13.7119620341454	-72.8009998767205	
346310000	-42.8960055760404	87.9037957643378	15.0093819976749	-92.867698765489	-60.8774581955086	69.7273963877137	-14.0275913780591	-80.6211206742802	
351300000	-40.0338636537468	134.402846987852	14.9785178985287	82.7302152869596	-57.777991858575	-137.743085395887	-13.9716158380663	-88.8967952310992	
356290000	-46.8390827298177	152.154889339364	14.887002111853	-101.696960143366	-58.5874497896129	37.4021196016716	-14.3949147750264	-96.2092666406515	
361280000	-40.4569100277299	137.227841137898	14.880793085676	74.0146812320205	-60.9776933818682	-56.461604169718	-14.5881628725189	-102.302115500815	
366270000	-39.54912493035	132.526218902491	14.8245412292744	-110.724718795161	-54.9190072576228	157.330032571515	-14.4218312659088	-111.612802622389	
371260000	-39.6051223428495	124.470333391639	14.7764875984442	64.6286152896912	-62.1573299045356	159.660358530092	-14.7847763305729	-116.981649510003	
376250000	-44.7698577108066	118.408172086215	14.7655975971486	-119.495247111221	-61.162327810127	124.952148754834	-14.9270436098151	-124.22706182333	
381240000	-38.1506067743946	123.304740604403	14.739658705943	55.5171735169015	-52.0459579170609	-89.5167780380322	-14.9369182234788	-133.791451411708	
386230000	-36.3436207590944	123.674071032798	14.6828286891003	-129.387143024656	-49.686190992155	-115.436788665406	-15.2830429992997	-139.090666612942	
391220000	-39.4557544746695	115.627614973115	14.6582633276958	45.5669703575957	-62.0554846787987	102.365692721308	-15.5151768134226	-145.933193076652	
396210000	-39.3019089463249	79.8015755439259	14.4885118561178	-139.14838463831	-49.8923282507086	-9.30937219071467	-15.7775923652601	-154.049528142084	
401200000	-37.5632419583134	137.652133808634	14.4572109365473	35.6458764460772	-55.944838967709	-115.944704290733	-16.5237643128226	-160.540472103604	
406190000	-37.976838877162	115.279429574169	14.4149413744665	-149.447761023626	-58.0655709813242	96.9393809942335	-16.4180378481218	-168.310290619418	
411180000	-39.9202378114311	125.610354577291	14.3796629757901	25.1886559490069	-55.8350036529354	-61.7767349354092	-17.3241051943588	-174.827066973785	
416170000	-39.3316739192695	143.37374197515	14.3839631057044	-160.3953988301	-63.0522717224459	153.100443467106	-17.7334582167363	175.99982393177	
421160000	-42.4518797799897	129.51772036179	14.295188633747	13.9325128705813	-52.6420914414543	112.275118194443	-19.0767157108882	168.09692438335	
426150000	-39.8518999368821	130.561690426105	14.2699628933215	-171.740662310771	-50.6903244935139	-142.820451110193	-20.119390550931	155.859012142204	
431140000	-35.2416192489788	136.829388595281	14.3120598439076	2.43233503151373	-59.3350008289763	-161.028747327519	-20.9113016861604	147.949911247027	
436130000	-38.6761081394333	100.731289684449	14.3365077116474	176.295850013891	-58.1915063153571	-103.333469535501	-22.7667153467224	131.174940278781	
441120000	-42.0484317951637	107.651574389889	14.3456467163882	-10.0737545353764	-49.9388019346445	144.381600486412	-25.2303221098569	115.621178845191	
446110000	-38.0615855386563	121.347895438775	14.2593073632464	163.278486149723	-57.9503451065262	-128.867257616012	-26.2669706802695	80.3474208768492	
451100000	-43.1841896941328	110.69576310006	14.2240576922037	-23.628880452972	-49.3100692751864	165.361910525162	-26.2998068682752	38.1322713895354	
456090000	-38.2485718373079	114.03256973579	14.1821578549756	148.987147463243	-50.6208004688797	-96.1214006479189	-23.1102161316857	-1.34778928183438	
461080000	-36.7283192595813	124.690640773924	14.056571822718	-38.8652360142822	-60.5364191727903	3.5755377592474	-20.5412439570642	-23.5643984654659	
466070000	-37.7217473651967	117.900085993189	13.9071020408542	132.853056513672	-57.8224420944344	163.74652941706	-17.7569072908673	-35.9461981191766	
471060000	-37.1709592227835	115.151341848831	13.6697705927319	-55.9970773422097	-55.6085945792565	-175.743753669093	-15.003701311635	-50.0754876165656	
476050000	-37.2133661133056	108.072749711115	13.4029085190515	115.319861403596	-74.3824221252239	-121.69419321742	-13.2267426515623	-60.2147324008518	
481040000	-38.8316507703762	117.647958720168	13.0900240590988	-73.8246591045214	-51.4945267403182	-55.1504325805795	-11.4936722374801	-70.5400739491692	
486030000	-36.5886045579273	117.576308381171	12.6319361119041	96.512039183284	-60.4827451732304	-3.78646635965899	-9.85965813600411	-79.5483373492295	
491020000	-35.6720202853405	116.224491861252	12.1735351471777	-93.226256397001	-48.9054104213331	73.870051736833	-8.77629808369388	-90.0445169345121	
496010000	-36.9970047714142	110.753421107006	11.4781356777773	76.6631863140296	-49.967836435354	40.4846788130023	-7.51640674538759	-99.1151138880649	
501000000	-36.3096220072252	110.530939495652	10.7397238733398	-112.44893897782	-51.0440759095002	-129.581285953745	-6.6636117907622	-107.956145569113	
505990000	-36.3185333236456	107.512906688787	9.87453528550918	57.7246485776212	-48.2134150568496	-122.041454394696	-5.96299639569038	-116.132517998954	
510980000	-39.533114720081	103.993520884297	8.95944237141733	-131.95762548674	-48.3332383627471	-105.990168844777	-5.23704701727417	-124.244744452044	
515970000	-42.7446357783284	124.934286662044	7.90019754958197	38.1611170553758	-41.4347431529444	-105.334774267518	-4.70779218958607	-132.007908615521	
520960000	-33.9949522827461	114.38743216274	6.72991847840883	-150.853405151423	-55.7884079743854	-115.526253962187	-4.34409933589323	-139.216449200705	
525950000	-35.2863103702319	120.08280390393	5.45901779167932	20.5882051560427	-48.0309859194362	85.426221851902	-3.97192055472014	-145.684761414734	
530940000	-35.8412253785609	89.1558655962829	4.19411551176763	-167.378718565931	-48.2541724056119	-111.364733095757	-3.73127646063825	-152.489832414908	
535930000	-35.9876893150109	117.915859673131	2.82074028649921	3.98187224538583	-69.7344013683402	-143.594919271758	-3.63370678860836	-158.968406008268	
540920000	-34.9822957162568	119.560362526393	1.45586211269028	176.804812831043	-50.1638181584643	14.4122324258256	-3.35222971311114	-163.36638382524	
545910000	-36.9623478513804	118.95270928858	-0.0221685072878253	-10.5501301776443	-46.8248691783191	85.2365314420743	-3.16158176359134	-169.045890451532	
550900000	-35.933813904433	110.064568039251	-1.53225363770795	162.74871297378	-54.9002768014824	-108.293005205914	-3.1674660784586	-173.352577551166	
555890000	-40.7458229459095	138.157042089126	-2.98381942786888	-24.1655550221294	-55.8538170138507	-23.0822460475917	-2.98683630147891	-178.595355738971	
560880000	-37.3714212052501	106.516527055651	-4.54477754673755	149.636788500676	-46.1348348308303	29.1493250265416	-3.01733686310895	177.917265032199	
565870000	-38.6004959396943	130.815128132238	-6.24837650229707	-36.7967701013895	-52.5821742412519	-53.3348837836933	-2.87426976178312	174.074697572102	
570860000	-35.989189344618	117.531644906274	-7.86897209757529	138.093415986645	-43.8154261842382	103.227861186645	-2.80449930663057	170.466030553341	
575850000	-35.5804052819058	131.928279268837	-9.69121114296481	-47.7746875244931	-46.4048153877629	155.519603301015	-2.72201844039246	166.706966091388	
580840000	-32.4098067618101	109.544572583236	-11.2965609016844	126.108145254022	-48.0685620999547	-30.9081885029719	-2.67835408016727	163.768965080555	
585830000	-36.0496082350561	105.775129023571	-13.0210487648394	-59.2445165764327	-57.371482756916	-166.040289750886	-2.62232538337629	160.508294484425	
590820000	-34.0503355952403	104.070325957562	-15.2718106827201	115.560356157488	-61.7223350201442	-69.3735876232861	-2.55326131846272	157.338265237153	
595810000	-34.8483495122373	113.30811745494	-17.3221403776854	-67.2854933494672	-50.3005304514557	158.550416451647	-2.52234839530248	154.737115762323	
600800000	-34.7341074602159	116.864253471363	-19.4659318581486	105.40113229749	-52.9172231333652	159.598426548106	-2.44193279683069	152.434877937824	
605790000	-35.9148103395249	114.077297983988	-22.1166271854267	-74.2876696358994	-60.653243642341	127.04949191834	-2.42419787200715	149.152633561586	
610780000	-37.6178460011372	108.917530181845	-24.3157084064801	100.4854549749	-47.3881823668376	-114.883662929718	-2.3679291951523	147.031700856847	
615770000	-34.053466510724	110.866756913994	-27.2635132304477	-80.1376300520824	-53.169941969501	14.7826640113462	-2.32029280938023	144.985426926644	
620760000	-39.0251539825564	96.2484064618144	-31.2898180566938	107.489945401452	-62.7784207768929	-79.9466566546814	-2.30817412287898	142.184020728577	
625750000	-35.5881423466318	121.23529502436	-35.0444229811054	-70.5731590991116	-56.9529097423152	-10.9893527972342	-2.39334144165821	140.250885113955	
630740000	-35.0429574468142	110.524041078402	-40.7597373748694	168.629701093557	-52.433026897778	-133.400085220019	-2.27645269199808	138.019416127427	
635730000	-34.8297774520594	78.1439064451685	-39.5062246201357	2.41214939002844	-55.5652437127346	-13.7321375466499	-2.19173798840454	135.95508547135	
640720000	-32.6650367515943	129.004616163562	-35.2625778203994	-157.106097218469	-49.6098173523243	101.506495592367	-2.23139333906995	133.905701603151	
