!Keysight Technologies N9923A: A.12.45
!Date: Tuesday, 28 October 2025 00:07:49
!Timezone: (UTC+08:00) Kuala Lumpur, Singapore
!Model: N9923A
!Serial: MY61181427
!GPS Latitude: 
!GPS Longitude: 
!GPS TimeStamp: 0001-01-01 00:00:00Z
!GPS Seconds Since Last Read: 0
!CHECKSUM:1690517983
!Correction: S11(ON U)S21(ON U)S12(ON U)S22(ON U)
!S2P File: Measurements:S11,S21,S12,S22:
# Hz S DB R 50
2000000	-47.862179147683	-135.639908280544	-53.3018629871819	31.9279934111816	-49.6433764304775	124.962283459087	-0.0175686244058043	-3.97156081430744	
6990000	-46.078195585685	-116.214931284424	-57.4092645100304	-1.04781584009078	-53.6078774490756	21.8296470417126	-0.0551747737197593	-14.4476725235965	
11980000	-49.9395269098233	-63.3347392885728	-56.1551624978718	92.2724619855154	-59.9717791259899	-178.379919487187	-0.107351486841971	-25.0526322784753	
16970000	-47.883599308696	169.945184943006	-60.4627253498388	-109.143812243467	-50.8885636514901	120.71322178588	-0.194481358615578	-35.4869239312078	
21960000	-67.2160847214809	-147.317226688998	-54.8529999726148	104.711262778585	-47.6573461333231	-16.8016573480051	-0.387306530492004	-46.1633245638354	
26950000	-50.2834451817517	168.436292771276	-46.2591396641678	-96.8505577988211	-53.903946229286	163.198284425657	-0.588836911225361	-56.9039226868788	
31940000	-48.1088656332149	80.7710644205394	-51.848205661473	155.591075564536	-49.4473775418964	25.3786083974819	-0.701429108177323	-67.8910680495437	
36930000	-53.4811677893361	110.076935084612	-50.6329474774863	118.928022575967	-51.21856143266	91.9133850542568	-0.986412836008861	-78.7819078792733	
41920000	-50.5185164274569	-97.5332315098526	-40.2098440945627	-74.1481214873798	-47.1030708555428	-0.892649763139894	-1.36541532365419	-90.3125696088095	
46910000	-47.2664008532058	170.276726229268	-30.2887043101175	33.9807281237628	-57.4892077961631	117.578294979331	-1.63617407123152	-103.404301428161	
51900000	-50.1143876799553	-143.69504858521	-20.6520521232514	161.82941317003	-49.3285158983428	90.8796946630188	-2.0118078118901	-115.657472063742	
56890000	-42.3697768803614	-166.985358104174	-12.8214271176882	-70.2027651075317	-64.5229667911118	-64.7074969794045	-2.48218516411967	-130.274611339592	
61880000	-41.7738107839454	150.803468183518	-6.36565772802629	60.3954611353698	-53.1479386684723	-158.098121080421	-3.07597584073183	-145.82456219849	
66870000	-51.6279100997464	-98.8891451596996	-1.0618234362101	-166.146119453161	-46.9970798456812	-8.89446235879077	-3.93573474076775	-163.504141727293	
71860000	-59.0553978806498	-102.444996290159	3.54106624807727	-30.4832059347783	-52.0455749945312	132.062164728641	-5.19725557729276	176.45263536784	
76850000	-41.5155186731115	-173.171937073463	7.24952656757748	105.711735256519	-56.6182344607969	36.9723065839624	-7.30198143901411	154.974556865974	
81840000	-41.8705862430829	-171.809377645874	9.89488168789401	-116.347438309828	-57.2021927638251	162.245476286245	-10.6673918089981	135.931938394095	
86830000	-43.9483039026814	165.140772714491	11.6328801252562	25.0110950390636	-48.1727523818538	171.968646828223	-14.7765859296285	123.808637829516	
91820000	-52.4911331672407	-152.96990677122	12.6949037002155	171.488427033703	-54.609328077372	-122.223844826462	-18.8470359353088	126.156906748245	
96810000	-56.1966842798495	94.9229239140053	13.4074177730886	-37.4740867965627	-66.666553723493	-63.6040252952918	-20.965968855026	128.950318778531	
101800000	-50.0027980068751	-111.809563586659	13.9501438054484	116.792842330991	-50.9222409520929	-119.322442535962	-23.1226715663008	134.131533554995	
106790000	-50.7208870889464	96.1930190490616	14.3613130837452	-86.1755294130509	-57.061790049699	179.45273442562	-23.8670208639228	124.40606299601	
111780000	-56.576750131701	17.2510766760273	14.6791369299215	73.2770881153969	-46.993169209881	60.9411265201443	-25.6763986011504	115.316112822071	
116770000	-46.4404182863966	129.185768734265	14.9652430908488	-125.292109995713	-54.2472135383194	57.8937126775345	-28.4816418113543	106.76181189495	
121760000	-49.3244473554366	108.674910131787	15.1526073143395	37.524951221842	-51.7967252027222	-102.348952112564	-31.7086618087573	69.2707437111842	
126750000	-49.4959505316755	133.335239718341	15.3453688846231	-158.23363874784	-50.2064522614208	-163.525215191826	-37.3196062007379	45.5682029063653	
131740000	-43.9697355583383	166.981722382029	15.4481148316763	7.30488744424647	-57.4085783110472	49.6403546394279	-39.4965588618484	-40.0656627456062	
136730000	-44.7020072023774	56.6903361819781	15.5574806019316	173.728191209918	-53.1113009300012	-17.2942799285664	-30.616426200005	-86.9286252996286	
141720000	-47.0058685651304	137.857829020704	15.6033131382316	-18.8995985592938	-51.239875525388	117.688854762871	-28.9458354260019	-104.065292165549	
146710000	-62.1467455186851	-160.270665588938	15.6418631783311	149.255434695841	-60.0675402672308	-20.6747450508429	-26.1820183040784	-121.820817197626	
151700000	-44.2453736453573	111.014779831019	15.6762708223267	-41.6939293061323	-68.0244104216182	-165.07255858638	-24.1093918570536	-131.169540385834	
156690000	-42.0824189649745	137.866375087074	15.7145126349587	127.857659289674	-53.0369306639078	-138.229761225107	-23.051953974166	-150.028855376672	
161680000	-47.7651596366925	119.096995278083	15.723625764445	-61.8180514373105	-51.0455589282944	-20.6410894577415	-22.1178457553123	-149.156993812729	
166670000	-54.479845478325	142.950120713974	15.759870901635	108.818799195411	-52.8414553427234	125.937131111683	-20.8084656747311	-168.664163068338	
171660000	-41.032197653402	129.789029453979	15.7918030106652	-79.6784362593336	-51.4952094771114	79.7961479293364	-19.8297492580117	-175.757738882657	
176650000	-44.2064608367049	-179.143751562568	15.775331664418	92.0556662204848	-60.4828076848851	-119.925805735528	-19.3566667498467	170.742278729015	
181640000	-45.1045401323184	149.991000303097	15.7330600279985	-96.0665320625393	-48.8193033540307	10.055451348067	-18.5475027762493	164.18260928138	
186630000	-55.1729800074327	137.629329804627	15.741464235139	76.5929006082181	-56.3865366558503	24.6305709623504	-17.9858740358455	155.059007458975	
191620000	-53.7971408964316	12.5353331242895	15.756459372111	-110.596492019474	-57.158745337735	-76.8677673088401	-17.8149968500752	145.583724170426	
196610000	-45.9428265527919	100.089233481978	15.7418788533995	62.6711571056296	-53.2722585699649	59.8283415469906	-17.1879256018719	138.595864484681	
201600000	-49.635375422617	142.035614490212	15.7755612762116	-124.135357424922	-54.4018751993247	60.0877984183546	-16.2277656097177	130.217245415393	
206590000	-48.871787921886	-165.499358927166	15.7460219911786	49.4904542634259	-54.6590804613181	-4.97339200186927	-16.0547883018188	123.029764707117	
211580000	-39.4525660856996	127.494239100025	15.8194566214429	-136.888417899101	-52.8033084691249	70.4221029840495	-15.912882634032	113.735741677469	
216570000	-47.4108720007561	172.811972499827	15.7425307367487	36.7710034173998	-52.0690262667816	-108.750745973226	-15.6055780044374	107.170120303008	
221560000	-41.2361861269845	104.831085690881	15.7817526173387	-149.221569073369	-53.4712934402793	-102.579340104733	-14.9002247785511	97.6790819145493	
226550000	-45.2202174239213	140.590822656228	15.7626790396944	24.9471101851448	-51.8591058750068	169.7411609169	-15.1910205992201	93.708514484879	
231540000	-40.8001895444057	122.944094353026	15.8302128352487	-160.71289155742	-51.4636124025993	-55.7750240456896	-14.437837958638	83.5611354408299	
236530000	-42.1059411084547	88.1601655058646	15.7999311073258	13.804888228839	-51.8407194003715	-130.279587841167	-14.5048607992101	78.6580768199214	
241520000	-47.7730526973616	112.766173028984	15.7992647961077	-171.83867916136	-54.9005294914419	-119.750277004912	-14.0816525761194	71.1307569122585	
246510000	-40.0848591485102	100.467620190762	15.7568544686392	3.05889050647858	-51.5657838590938	-18.2103643389186	-13.9070879232131	65.0779764962688	
251500000	-40.7400752641619	130.267261641589	15.7823579525842	177.876888537565	-50.0884979299064	170.803162892634	-13.7550036369373	54.9199862589621	
256490000	-37.6890396446503	127.415254174225	15.7694266321052	-7.06667695880484	-44.5602418577066	-102.651796516694	-13.6849181124074	51.1917036102034	
261480000	-42.8587546705759	109.491386720736	15.7932073519715	167.604768318524	-52.8314297041112	150.993635076699	-13.530296727035	43.5551600260014	
266470000	-41.968310662129	131.043747762129	15.7409805577247	-17.3196395336999	-50.1997980744944	27.0676745135145	-13.5016152264806	36.1539557309146	
271460000	-41.2519632219715	113.063141880598	15.7306255915731	157.342128158381	-52.5390504504885	89.1217861175941	-13.6996343116115	29.7435663872138	
276450000	-45.2030842090112	126.711292311497	15.6696521737694	-27.613461961885	-57.4658054514238	146.123781419893	-13.2275370483674	25.1845849156513	
281440000	-39.7420860283093	112.007241922293	15.718963201625	147.826739036228	-53.3415847887953	73.866201148767	-13.1958534914912	16.5159999417391	
286430000	-48.0140806225199	53.6609342157873	15.6564231249715	-37.2317447431402	-54.8600442929953	-164.011365462813	-13.313034990591	8.64409258793573	
291420000	-42.6093274167372	108.001771689148	15.6622662712001	138.272457093689	-65.0744371046952	-174.911185255629	-13.3234465168391	1.81347146124729	
296410000	-40.6406751362745	134.82179082618	15.6021350794345	-46.1961776993348	-56.0948848318265	54.6960738105252	-13.66927191051	-5.63977975808174	
301400000	-40.7677869896148	82.2559092821019	15.57281733201	129.109200827415	-58.7558977227061	163.802208093276	-13.4646491711856	-12.7842886791832	
306390000	-48.8511817136579	94.8523565370479	15.5739143530531	-55.2997383345357	-64.5770744923895	-65.5489512076565	-13.8195073261049	-21.5011282238281	
311380000	-43.9927025224722	95.8953125428322	15.5582202118237	119.990105449897	-64.0327809161561	-56.2871429521189	-13.4708907933065	-28.2413946076848	
316370000	-41.4304398771634	121.403542995212	15.4724961950723	-64.7057732220828	-53.8172370566	71.2610989422643	-13.8590543474126	-36.0288397375173	
321360000	-44.8792462541419	146.007180490328	15.4481125780501	110.720715985919	-53.2699947346761	-14.8714083288397	-14.1013456200097	-44.1594902543284	
326350000	-37.2800520378581	131.694685668958	15.3620166821428	-73.5564028494238	-59.4706125133922	-174.043264932813	-14.1268211696638	-50.1143676186424	
331340000	-39.6165944137337	125.416214347188	15.3250994607965	101.475850687347	-49.4516000253369	-9.13201714370374	-14.471536526936	-60.4106792530788	
336330000	-40.0452669684695	92.848013582619	15.217493801039	-83.0009074880113	-67.9975279336042	121.679197456345	-14.5215864082563	-67.8359042717069	
341320000	-42.4776517110363	125.28771637839	15.1444511628362	92.1750228507756	-49.5320834716118	99.1481568259099	-14.8447133584775	-74.1626354156792	
346310000	-42.0811783006821	92.6368582448249	15.0420977504396	-92.048766655248	-48.302190028327	125.191878733742	-15.2781086415889	-82.564164092897	
351300000	-39.2125430036972	120.722146981795	15.011465650727	83.4500814646975	-56.8864707519037	79.750172118202	-15.1206185836545	-92.4810521028634	
356290000	-42.4480655398157	117.154694173402	14.9153444527594	-100.865497208025	-45.3029781144919	-90.1630953596572	-15.3030324563381	-98.1756234021266	
361280000	-41.7919531834637	158.548376537705	14.8830225883557	74.7772975934054	-54.055632424518	147.441668156414	-15.5089002926466	-104.996880881738	
366270000	-37.4987862384989	139.822120641329	14.8247432914103	-109.755441311693	-48.7542685042356	-44.9835128792751	-15.6162586350784	-114.407297270776	
371260000	-37.0546285791797	106.797024737526	14.7785895542948	65.6965373646149	-67.4986020759355	-84.5336606561777	-15.7972360374876	-123.748120282395	
376250000	-42.2504286254004	146.181280386072	14.7494045237238	-118.446519924102	-54.6019961697594	127.968672681117	-15.5886880007893	-130.287204319275	
381240000	-40.2146062211879	130.895215076758	14.7316870356229	56.8104461147975	-57.8174739843326	-40.0929604696458	-15.6541349367959	-141.208803846574	
386230000	-37.3237827535085	123.372959447988	14.654742701566	-128.123985882605	-50.375366610878	-92.2457597408174	-15.8754667574892	-145.287811427757	
391220000	-37.5849712380231	121.158391502424	14.6331075317211	46.897688077891	-72.9512997092868	-53.7612759383885	-16.5188266604466	-153.356757517893	
396210000	-37.0719806335742	87.0507883270771	14.4578962401145	-137.715487326688	-50.4067524084048	14.2532700482254	-16.3647247739454	-161.016534421672	
401200000	-40.3125154083225	117.860922956475	14.4270011529294	37.3835918540452	-68.7014850569053	-53.0628570795261	-16.8093008791872	-170.072368468752	
406190000	-38.9112500703458	128.132340788612	14.3611250599822	-147.627586619095	-48.4817645744698	112.173561337611	-16.886774537492	-176.950783623128	
411180000	-37.4103278663749	109.535192798176	14.3289937642282	27.2113525568591	-47.4186686683767	139.284096137567	-16.892084100261	173.22756723306	
416170000	-36.2971090394473	148.903108335792	14.3304149920697	-158.273364415997	-49.9923316692838	115.135372495073	-17.5835018981702	166.562529645628	
421160000	-41.8116347005699	114.775155274681	14.2303941280067	16.2845810700972	-59.4388300834158	131.133715397498	-17.9988124009024	155.545606380711	
426150000	-35.5772623253381	114.960465397227	14.2233980919385	-169.164262768079	-57.3629542888728	2.67234367206144	-18.2437295303927	147.925676643399	
431140000	-36.3498016804955	115.462693553644	14.2393959273753	5.19031246315924	-63.824253369429	7.33217884149164	-18.8045512331768	135.821020038072	
436130000	-37.0619396263998	101.165800860808	14.2755802339863	179.459707035604	-51.7656489506527	47.8083828564058	-19.9596810580136	119.308297812448	
441120000	-40.1421216478793	113.060172540309	14.2850521686327	-6.60509910449178	-54.1034326216405	-143.346992639679	-21.0370402338145	107.479880059782	
446110000	-36.7092100314628	137.13897562015	14.2252818809106	167.066582099873	-56.8442859423738	78.2894862372376	-21.3638990144437	84.6508431156228	
451100000	-41.0252458065958	129.080048391868	14.2072502096761	-19.6540762648044	-48.3336333209235	170.008492326115	-22.185185105005	65.4730826671205	
456090000	-38.6155757020112	134.368257888811	14.1690095253144	153.375239878165	-54.9526671248976	58.4625438118807	-21.1859028079234	38.2447810379255	
461080000	-35.8179242030378	106.520632927772	14.0966283773204	-34.0674545501115	-55.4827739279353	-134.3330506369	-20.6463212242104	15.5788630856004	
466070000	-39.3529306339175	127.586373916262	14.0023281918827	138.045488227355	-53.835961398063	26.7259982855457	-18.4862892638022	-4.26323581473944	
471060000	-36.8966042324636	119.899498151417	13.8038052179189	-50.3124574007397	-53.6788164472532	44.6961446715683	-16.7039487935068	-26.0999276628657	
476050000	-37.2621427202483	115.200946196262	13.5965434650994	121.195961189224	-80.1383971393885	-160.002008086858	-14.8324424259805	-41.6750240611308	
481040000	-35.3032391916865	104.087160167238	13.3787555053942	-67.6633361091596	-57.210910202106	30.0607956190817	-12.9784617482933	-52.4045515831017	
486030000	-34.5408357811767	120.671084960789	13.0113034680256	103.027858231712	-50.8993172855798	111.170688358033	-11.2769075219716	-64.3619508530089	
491020000	-34.9237059169042	116.700271032057	12.6432904633533	-86.6169231665356	-47.8143696208071	71.2875414084473	-9.83710856654557	-76.2817117345326	
496010000	-35.9850819748195	123.674805308521	12.035386654385	83.2605407712234	-58.6428856187474	-21.9403682135993	-8.72748062590981	-87.6620294329887	
501000000	-38.0423127086548	120.248861929467	11.3885377459669	-106.090449031033	-53.9402613441154	120.66294312189	-7.56870099647556	-97.5552853832384	
505990000	-37.4244758387626	112.251401498508	10.6204962543136	64.002370509448	-57.6956915739408	10.417041033042	-6.65568824777561	-107.213095085687	
510980000	-36.4124080686502	111.744027736422	9.77061644662661	-125.953339692365	-57.1294247206066	156.032669097667	-5.93641472136298	-116.669075359872	
515970000	-42.6834585734445	81.3855565932486	8.73610366186126	43.7482512246907	-47.5417517774039	41.8677920077936	-5.27416904536246	-125.20155275559	
520960000	-35.7381229369274	105.255726842859	7.64413123152609	-145.390331858283	-46.2962736612638	5.53802247216117	-4.77256577052981	-133.054133628942	
525950000	-35.3702463765144	115.283927203591	6.39879701418355	25.7360936473634	-65.8161307087421	17.2669069824202	-4.20818205821883	-140.667546982454	
530940000	-36.5361585442664	104.316051776796	5.13596563879041	-162.357982932381	-56.1412401794411	-137.529909854623	-3.99530931163385	-148.022705607244	
535930000	-33.8535115983252	131.257702619721	3.78716245730721	8.81628924092149	-49.5085424941349	-78.9346418153751	-3.7762649737581	-155.595021867536	
540920000	-36.6031889979523	94.2561848629235	2.47994909661808	-178.570072723991	-46.6764083395092	-32.9951707515926	-3.54898196456791	-161.161483547682	
545910000	-37.2312357309135	123.87244542759	0.997616818841487	-5.82758875480072	-48.2047318095779	5.14002164745349	-3.36729760756974	-166.786120570211	
550900000	-36.353527836902	117.998133700649	-0.498367087660862	167.673947336428	-52.709852389319	-49.1284941485927	-3.30576267279766	-171.538277604713	
555890000	-36.1998465370753	100.460813899021	-2.00717251558892	-19.5615214567885	-55.767348617446	52.5982977353168	-3.12441469527514	-177.155813263455	
560880000	-33.7405871208015	109.823537427148	-3.44042226409203	154.067551356575	-50.0268462921516	113.127343486479	-3.09485797819892	178.61956054009	
565870000	-39.1100861542195	123.298852117411	-5.2595144886747	-31.5571332416487	-71.0936216414727	58.6838021959446	-2.90354402629763	174.587408968011	
570860000	-39.2756116813946	86.6923396563858	-6.80447863977752	142.720275205649	-62.205100214563	2.53988874673698	-2.84959078859368	170.403950378446	
575850000	-35.8331869178578	132.592345977746	-8.52490442956946	-42.7122928542373	-52.535655026249	-179.199122095317	-2.78107798265584	166.69007323024	
580840000	-33.2026718044144	111.497803479766	-10.1140839370844	132.34090265572	-46.8126144011964	-31.7669274014225	-2.74075868398835	163.310853541695	
585830000	-37.0415286433467	102.105989494841	-11.9082062323252	-52.5444696893409	-47.5900318019675	63.8362539251677	-2.65300068287912	160.048488031222	
590820000	-35.4650651118223	112.311446754344	-13.781014681315	122.50402256232	-65.3175041577098	150.486377645596	-2.60682548837747	157.093475460572	
595810000	-33.8586140349524	121.130065132106	-15.7966600122971	-62.6180435443584	-51.3092896423353	80.6889133047221	-2.55306868409846	153.822670536099	
600800000	-36.1125336126467	100.043430890987	-17.6849920294227	113.775536226267	-43.4122392311981	-116.2456480834	-2.49043155394051	151.337365636523	
605790000	-37.6271618926829	109.054560859962	-20.0342040237349	-70.4223676462708	-51.5069406072036	130.808196087808	-2.49338425328531	148.030937824353	
610780000	-33.3526213723506	132.528927448835	-22.6027516056986	105.637310165406	-66.8945478827799	33.5917634872451	-2.40758237413273	145.72273778799	
615770000	-32.2229110315499	130.619330005187	-24.782591780767	-76.1588864959107	-47.4760659500952	-76.1095401436234	-2.39061453947079	143.06601089408	
620760000	-37.7942156162604	82.054307292608	-27.708416818931	103.563925040487	-54.3386759662718	41.2515388071602	-2.3642903379728	140.251394161193	
625750000	-33.9974605246117	111.498119363984	-31.9090327466312	-76.0497095654768	-52.7835530472192	12.1489315954518	-2.30470201275673	138.41903984681	
630740000	-39.8966345419022	80.4151318063176	-35.5534891937667	112.362183280948	-47.4941923805852	9.74655607214993	-2.263645878191	136.368429975461	
635730000	-37.8200904048771	87.0849339730771	-40.1646395581463	-5.34055412412152	-44.2565712264545	53.9044248981359	-2.17414589084525	133.807487278459	
640720000	-35.1844943109269	126.251525017702	-37.1449476109129	-157.672957773478	-57.5640036067264	-157.025252088237	-2.1797625556357	131.815354282696	
